 time            v(vin)          v(b1_collector) v(b2_collector) v(vout_drv)     v(vfilt1)       v(vout_final)   i(vdd)         
 0.00000000e+00  2.50000000e+00  4.47501145e+00  4.47501145e+00  2.50000000e+00  2.50000000e+00  2.50000000e+00 -2.47946577e-05 
 5.00000000e-08  2.50000031e+00  4.47501139e+00  4.47501146e+00  2.50000001e+00  2.50000000e+00  2.50000000e+00 -2.47946580e-05 
 1.00000000e-07  2.50000063e+00  4.47501127e+00  4.47501149e+00  2.50000004e+00  2.50000000e+00  2.50000000e+00 -2.47946586e-05 
 2.00000000e-07  2.50000126e+00  4.47501094e+00  4.47501161e+00  2.50000017e+00  2.50000000e+00  2.50000000e+00 -2.47946603e-05 
 4.00000000e-07  2.50000251e+00  4.47500963e+00  4.47501245e+00  2.50000100e+00  2.50000003e+00  2.50000000e+00 -2.47946642e-05 
 8.00000000e-07  2.50000503e+00  4.47500482e+00  4.47501824e+00  2.50000680e+00  2.50000045e+00  2.50000004e+00 -2.47946559e-05 
 1.60000000e-06  2.50001005e+00  4.47498833e+00  4.47505546e+00  2.50004402e+00  2.50000583e+00  2.50000096e+00 -2.47944819e-05 
 3.20000000e-06  2.50002010e+00  4.47493813e+00  4.47525778e+00  2.50024633e+00  2.50005803e+00  2.50001694e+00 -2.47932025e-05 
 6.40000000e-06  2.50004020e+00  4.47480853e+00  4.47610185e+00  2.50109036e+00  2.50041489e+00  2.50019706e+00 -2.47871875e-05 
 1.14000000e-05  2.50007157e+00  4.47458691e+00  4.47804004e+00  2.50302834e+00  2.50161723e+00  2.50105019e+00 -2.47727294e-05 
 1.64000000e-05  2.50010286e+00  4.47436403e+00  4.48019678e+00  2.50518467e+00  2.50334600e+00  2.50254126e+00 -2.47564390e-05 
 2.14000000e-05  2.50013406e+00  4.47414187e+00  4.48235411e+00  2.50734137e+00  2.50531692e+00  2.50440605e+00 -2.47401376e-05 
 2.64000000e-05  2.50016512e+00  4.47392041e+00  4.48449949e+00  2.50948591e+00  2.50738706e+00  2.50643307e+00 -2.47239309e-05 
 3.14000000e-05  2.50019601e+00  4.47369992e+00  4.48663156e+00  2.51161693e+00  2.50949332e+00  2.50852382e+00 -2.47078282e-05 
 3.64000000e-05  2.50022672e+00  4.47348061e+00  4.48874815e+00  2.51373225e+00  2.51160676e+00  2.51063446e+00 -2.46918460e-05 
 4.14000000e-05  2.50025720e+00  4.47326270e+00  4.49084723e+00  2.51582985e+00  2.51371363e+00  2.51274460e+00 -2.46759997e-05 
 4.64000000e-05  2.50028743e+00  4.47304641e+00  4.49292677e+00  2.51790771e+00  2.51580678e+00  2.51484419e+00 -2.46603044e-05 
 5.14000000e-05  2.50031737e+00  4.47283195e+00  4.49498479e+00  2.51996383e+00  2.51788196e+00  2.51692771e+00 -2.46447749e-05 
 5.64000000e-05  2.50034700e+00  4.47261954e+00  4.49701933e+00  2.52199628e+00  2.51993619e+00  2.51899163e+00 -2.46294261e-05 
 6.14000000e-05  2.50037629e+00  4.47240939e+00  4.49902847e+00  2.52400311e+00  2.52196711e+00  2.52103332e+00 -2.46142722e-05 
 6.64000000e-05  2.50040521e+00  4.47220172e+00  4.50101030e+00  2.52598245e+00  2.52397260e+00  2.52305055e+00 -2.45993274e-05 
 7.14000000e-05  2.50043372e+00  4.47199673e+00  4.50296298e+00  2.52793243e+00  2.52595070e+00  2.52504128e+00 -2.45846057e-05 
 7.64000000e-05  2.50046181e+00  4.47179464e+00  4.50488469e+00  2.52985125e+00  2.52789950e+00  2.52700359e+00 -2.45701206e-05 
 8.14000000e-05  2.50048944e+00  4.47159566e+00  4.50677363e+00  2.53173711e+00  2.52981718e+00  2.52893562e+00 -2.45558854e-05 
 8.64000000e-05  2.50051659e+00  4.47139997e+00  4.50862808e+00  2.53358829e+00  2.53170196e+00  2.53083557e+00 -2.45419130e-05 
 9.14000000e-05  2.50054323e+00  4.47120778e+00  4.51044631e+00  2.53540308e+00  2.53355209e+00  2.53270167e+00 -2.45282161e-05 
 9.64000000e-05  2.50056934e+00  4.47101930e+00  4.51222668e+00  2.53717982e+00  2.53536588e+00  2.53453221e+00 -2.45148071e-05 
 1.01400000e-04  2.50059488e+00  4.47083470e+00  4.51396757e+00  2.53891690e+00  2.53714165e+00  2.53632550e+00 -2.45016980e-05 
 1.06400000e-04  2.50061983e+00  4.47065419e+00  4.51566740e+00  2.54061275e+00  2.53887781e+00  2.53807991e+00 -2.44889004e-05 
 1.11400000e-04  2.50064418e+00  4.47047794e+00  4.51732464e+00  2.54226585e+00  2.54057278e+00  2.53979385e+00 -2.44764256e-05 
 1.16400000e-04  2.50066788e+00  4.47030614e+00  4.51893781e+00  2.54387471e+00  2.54222504e+00  2.54146579e+00 -2.44642846e-05 
 1.21400000e-04  2.50069093e+00  4.47013897e+00  4.52050547e+00  2.54543790e+00  2.54383310e+00  2.54309421e+00 -2.44524880e-05 
 1.26400000e-04  2.50071330e+00  4.46997659e+00  4.52202623e+00  2.54695405e+00  2.54539554e+00  2.54467766e+00 -2.44410460e-05 
 1.31400000e-04  2.50073496e+00  4.46981918e+00  4.52349876e+00  2.54842181e+00  2.54691097e+00  2.54621474e+00 -2.44299686e-05 
 1.36400000e-04  2.50075590e+00  4.46966690e+00  4.52492176e+00  2.54983989e+00  2.54837806e+00  2.54770409e+00 -2.44192652e-05 
 1.41400000e-04  2.50077609e+00  4.46951991e+00  4.52629398e+00  2.55120706e+00  2.54979552e+00  2.54914440e+00 -2.44089449e-05 
 1.46400000e-04  2.50079552e+00  4.46937836e+00  4.52761424e+00  2.55252213e+00  2.55116210e+00  2.55053441e+00 -2.43990166e-05 
 1.51400000e-04  2.50081416e+00  4.46924239e+00  4.52888138e+00  2.55378397e+00  2.55247663e+00  2.55187291e+00 -2.43894886e-05 
 1.56400000e-04  2.50083199e+00  4.46911215e+00  4.53009433e+00  2.55499147e+00  2.55373796e+00  2.55315873e+00 -2.43803690e-05 
 1.61400000e-04  2.50084901e+00  4.46898778e+00  4.53125204e+00  2.55614362e+00  2.55494502e+00  2.55439077e+00 -2.43716652e-05 
 1.66400000e-04  2.50086519e+00  4.46886941e+00  4.53235351e+00  2.55723942e+00  2.55609675e+00  2.55556797e+00 -2.43633846e-05 
 1.71400000e-04  2.50088051e+00  4.46875715e+00  4.53339781e+00  2.55827795e+00  2.55719219e+00  2.55668932e+00 -2.43555341e-05 
 1.76400000e-04  2.50089497e+00  4.46865113e+00  4.53438406e+00  2.55925832e+00  2.55823039e+00  2.55775387e+00 -2.43481200e-05 
 1.81400000e-04  2.50090854e+00  4.46855146e+00  4.53531142e+00  2.56017971e+00  2.55921048e+00  2.55876071e+00 -2.43411484e-05 
 1.86400000e-04  2.50092121e+00  4.46845825e+00  4.53617911e+00  2.56104134e+00  2.56013162e+00  2.55970898e+00 -2.43346252e-05 
 1.91400000e-04  2.50093298e+00  4.46837158e+00  4.53698641e+00  2.56184249e+00  2.56099306e+00  2.56059790e+00 -2.43285555e-05 
 1.96400000e-04  2.50094382e+00  4.46829155e+00  4.53773263e+00  2.56258249e+00  2.56179405e+00  2.56142671e+00 -2.43229442e-05 
 2.01400000e-04  2.50095374e+00  4.46821825e+00  4.53841716e+00  2.56326073e+00  2.56253394e+00  2.56219472e+00 -2.43177960e-05 
 2.06400000e-04  2.50096271e+00  4.46815176e+00  4.53903951e+00  2.56387672e+00  2.56321214e+00  2.56290130e+00 -2.43131142e-05 
 2.11400000e-04  2.50097073e+00  4.46809215e+00  4.53959904e+00  2.56442984e+00  2.56382807e+00  2.56354589e+00 -2.43089036e-05 
 2.16400000e-04  2.50097780e+00  4.46803946e+00  4.54009524e+00  2.56491957e+00  2.56438116e+00  2.56412789e+00 -2.43051681e-05 
 2.21400000e-04  2.50098390e+00  4.46799377e+00  4.54052779e+00  2.56534561e+00  2.56487096e+00  2.56464682e+00 -2.43019098e-05 
 2.26400000e-04  2.50098903e+00  4.46795511e+00  4.54089634e+00  2.56570760e+00  2.56529711e+00  2.56510225e+00 -2.42991313e-05 
 2.31400000e-04  2.50099318e+00  4.46792354e+00  4.54120057e+00  2.56600525e+00  2.56565923e+00  2.56549383e+00 -2.42968349e-05 
 2.36400000e-04  2.50099635e+00  4.46789908e+00  4.54144023e+00  2.56623830e+00  2.56595705e+00  2.56582124e+00 -2.42950224e-05 
 2.41400000e-04  2.50099854e+00  4.46788177e+00  4.54161513e+00  2.56640657e+00  2.56619032e+00  2.56608420e+00 -2.42936953e-05 
 2.46400000e-04  2.50099974e+00  4.46787161e+00  4.54172513e+00  2.56650992e+00  2.56635884e+00  2.56628251e+00 -2.42928546e-05 
 2.51400000e-04  2.50099996e+00  4.46786863e+00  4.54177012e+00  2.56654826e+00  2.56646248e+00  2.56641600e+00 -2.42925009e-05 
 2.56400000e-04  2.50099919e+00  4.46787281e+00  4.54175008e+00  2.56652156e+00  2.56650115e+00  2.56648456e+00 -2.42926347e-05 
 2.61400000e-04  2.50099744e+00  4.46788417e+00  4.54166502e+00  2.56642985e+00  2.56647483e+00  2.56648813e+00 -2.42932557e-05 
 2.66400000e-04  2.50099470e+00  4.46790268e+00  4.54151500e+00  2.56627320e+00  2.56638353e+00  2.56642672e+00 -2.42943636e-05 
 2.71400000e-04  2.50099097e+00  4.46792833e+00  4.54130015e+00  2.56605174e+00  2.56622732e+00  2.56630037e+00 -2.42959574e-05 
 2.76400000e-04  2.50098627e+00  4.46796109e+00  4.54102065e+00  2.56576564e+00  2.56600634e+00  2.56610918e+00 -2.42980360e-05 
 2.81400000e-04  2.50098060e+00  4.46800092e+00  4.54067671e+00  2.56541515e+00  2.56572076e+00  2.56585332e+00 -2.43005976e-05 
 2.86400000e-04  2.50097396e+00  4.46804779e+00  4.54026863e+00  2.56500055e+00  2.56537083e+00  2.56553298e+00 -2.43036403e-05 
 2.91400000e-04  2.50096636e+00  4.46810164e+00  4.53979674e+00  2.56452218e+00  2.56495682e+00  2.56514845e+00 -2.43071617e-05 
 2.96400000e-04  2.50095780e+00  4.46816241e+00  4.53926135e+00  2.56398036e+00  2.56447906e+00  2.56470000e+00 -2.43111596e-05 
 3.01400000e-04  2.50094830e+00  4.46823005e+00  4.53866296e+00  2.56337561e+00  2.56393792e+00  2.56418801e+00 -2.43156303e-05 
 3.06400000e-04  2.50093786e+00  4.46830448e+00  4.53800215e+00  2.56270849e+00  2.56333390e+00  2.56361290e+00 -2.43205696e-05 
 3.11400000e-04  2.50092650e+00  4.46838562e+00  4.53727939e+00  2.56197949e+00  2.56266751e+00  2.56297520e+00 -2.43259742e-05 
 3.16400000e-04  2.50091423e+00  4.46847340e+00  4.53649528e+00  2.56118923e+00  2.56193928e+00  2.56227540e+00 -2.43318397e-05 
 3.21400000e-04  2.50090105e+00  4.46856770e+00  4.53565048e+00  2.56033836e+00  2.56114982e+00  2.56151410e+00 -2.43381613e-05 
 3.26400000e-04  2.50088698e+00  4.46866844e+00  4.53474571e+00  2.55942759e+00  2.56029979e+00  2.56069192e+00 -2.43449340e-05 
 3.31400000e-04  2.50087204e+00  4.46877552e+00  4.53378171e+00  2.55845769e+00  2.55938990e+00  2.55980955e+00 -2.43521522e-05 
 3.36400000e-04  2.50085623e+00  4.46888880e+00  4.53275929e+00  2.55742949e+00  2.55842091e+00  2.55886773e+00 -2.43598100e-05 
 3.41400000e-04  2.50083958e+00  4.46900819e+00  4.53167934e+00  2.55634384e+00  2.55739365e+00  2.55786726e+00 -2.43679011e-05 
 3.46400000e-04  2.50082210e+00  4.46913356e+00  4.53054275e+00  2.55520168e+00  2.55630898e+00  2.55680898e+00 -2.43764190e-05 
 3.51400000e-04  2.50080382e+00  4.46926476e+00  4.52935051e+00  2.55400398e+00  2.55516783e+00  2.55569380e+00 -2.43853564e-05 
 3.56400000e-04  2.50078473e+00  4.46940168e+00  4.52810363e+00  2.55275176e+00  2.55397116e+00  2.55452265e+00 -2.43947061e-05 
 3.61400000e-04  2.50076488e+00  4.46954415e+00  4.52680318e+00  2.55144610e+00  2.55272001e+00  2.55329654e+00 -2.44044601e-05 
 3.66400000e-04  2.50074426e+00  4.46969204e+00  4.52545029e+00  2.55008814e+00  2.55141546e+00  2.55201653e+00 -2.44146102e-05 
 3.71400000e-04  2.50072292e+00  4.46984520e+00  4.52404614e+00  2.54867904e+00  2.55005862e+00  2.55068373e+00 -2.44251479e-05 
 3.76400000e-04  2.50070086e+00  4.47000345e+00  4.52259194e+00  2.54722005e+00  2.54865069e+00  2.54929928e+00 -2.44360641e-05 
 3.81400000e-04  2.50067811e+00  4.47016664e+00  4.52108897e+00  2.54571244e+00  2.54719288e+00  2.54786439e+00 -2.44473495e-05 
 3.86400000e-04  2.50065469e+00  4.47033461e+00  4.51953856e+00  2.54415753e+00  2.54568649e+00  2.54638032e+00 -2.44589944e-05 
 3.91400000e-04  2.50063062e+00  4.47050717e+00  4.51794208e+00  2.54255671e+00  2.54413283e+00  2.54484838e+00 -2.44709888e-05 
 3.96400000e-04  2.50060593e+00  4.47068414e+00  4.51630095e+00  2.54091141e+00  2.54253328e+00  2.54326992e+00 -2.44833220e-05 
 4.01400000e-04  2.50058065e+00  4.47086535e+00  4.51461663e+00  2.53922308e+00  2.54088927e+00  2.54164633e+00 -2.44959834e-05 
 4.06400000e-04  2.50055479e+00  4.47105062e+00  4.51289064e+00  2.53749326e+00  2.53920227e+00  2.53997908e+00 -2.45089616e-05 
 4.11400000e-04  2.50052838e+00  4.47123974e+00  4.51112454e+00  2.53572350e+00  2.53747379e+00  2.53826965e+00 -2.45222453e-05 
 4.16400000e-04  2.50050145e+00  4.47143253e+00  4.50931993e+00  2.53391541e+00  2.53570540e+00  2.53651959e+00 -2.45358225e-05 
 4.21400000e-04  2.50047403e+00  4.47162878e+00  4.50747847e+00  2.53207065e+00  2.53389871e+00  2.53473049e+00 -2.45496809e-05 
 4.26400000e-04  2.50044614e+00  4.47182831e+00  4.50560183e+00  2.53019090e+00  2.53205535e+00  2.53290397e+00 -2.45638082e-05 
 4.31400000e-04  2.50041780e+00  4.47203090e+00  4.50369176e+00  2.52827790e+00  2.53017704e+00  2.53104171e+00 -2.45781913e-05 
 4.36400000e-04  2.50038906e+00  4.47223635e+00  4.50175002e+00  2.52633343e+00  2.52826550e+00  2.52914542e+00 -2.45928171e-05 
 4.41400000e-04  2.50035993e+00  4.47244445e+00  4.49977842e+00  2.52435930e+00  2.52632250e+00  2.52721685e+00 -2.46076721e-05 
 4.46400000e-04  2.50033045e+00  4.47265499e+00  4.49777881e+00  2.52235735e+00  2.52434985e+00  2.52525781e+00 -2.46227426e-05 
 4.51400000e-04  2.50030064e+00  4.47286776e+00  4.49575307e+00  2.52032948e+00  2.52234941e+00  2.52327012e+00 -2.46380144e-05 
 4.56400000e-04  2.50027053e+00  4.47308255e+00  4.49370313e+00  2.51827760e+00  2.52032306e+00  2.52125565e+00 -2.46534732e-05 
 4.61400000e-04  2.50024016e+00  4.47329913e+00  4.49163092e+00  2.51620367e+00  2.51827271e+00  2.51921631e+00 -2.46691045e-05 
 4.66400000e-04  2.50020955e+00  4.47351729e+00  4.48953843e+00  2.51410967e+00  2.51620032e+00  2.51715402e+00 -2.46848933e-05 
 4.71400000e-04  2.50017873e+00  4.47373682e+00  4.48742768e+00  2.51199761e+00  2.51410787e+00  2.51507077e+00 -2.47008245e-05 
 4.76400000e-04  2.50014774e+00  4.47395748e+00  4.48530069e+00  2.50986953e+00  2.51199737e+00  2.51296853e+00 -2.47168829e-05 
 4.81400000e-04  2.50011660e+00  4.47417907e+00  4.48315954e+00  2.50772749e+00  2.50987086e+00  2.51084935e+00 -2.47330529e-05 
 4.86400000e-04  2.50008535e+00  4.47440137e+00  4.48100630e+00  2.50557359e+00  2.50773040e+00  2.50871527e+00 -2.47493188e-05 
 4.91400000e-04  2.50005401e+00  4.47462414e+00  4.47884309e+00  2.50340993e+00  2.50557808e+00  2.50656836e+00 -2.47656648e-05 
 4.96400000e-04  2.50002262e+00  4.47484717e+00  4.47667204e+00  2.50123865e+00  2.50341600e+00  2.50441073e+00 -2.47820746e-05 
 5.01400000e-04  2.49999120e+00  4.47507025e+00  4.47449528e+00  2.49906188e+00  2.50124629e+00  2.50224450e+00 -2.47985322e-05 
 5.06400000e-04  2.49995980e+00  4.47529314e+00  4.47231498e+00  2.49688178e+00  2.49907111e+00  2.50007179e+00 -2.48150211e-05 
 5.11400000e-04  2.49992843e+00  4.47551564e+00  4.47013332e+00  2.49470054e+00  2.49689259e+00  2.49789477e+00 -2.48315250e-05 
 5.16400000e-04  2.49989714e+00  4.47573752e+00  4.46795247e+00  2.49252033e+00  2.49471292e+00  2.49571559e+00 -2.48480273e-05 
 5.21400000e-04  2.49986594e+00  4.47595856e+00  4.46577463e+00  2.49034334e+00  2.49253428e+00  2.49353643e+00 -2.48645113e-05 
 5.26400000e-04  2.49983488e+00  4.47617856e+00  4.46360199e+00  2.48817178e+00  2.49035886e+00  2.49135949e+00 -2.48809603e-05 
 5.31400000e-04  2.49980399e+00  4.47639728e+00  4.46143676e+00  2.48600784e+00  2.48818884e+00  2.48918695e+00 -2.48973577e-05 
 5.36400000e-04  2.49977328e+00  4.47661453e+00  4.45928113e+00  2.48385372e+00  2.48602644e+00  2.48702101e+00 -2.49136867e-05 
 5.41400000e-04  2.49974280e+00  4.47683009e+00  4.45713731e+00  2.48171162e+00  2.48387385e+00  2.48486386e+00 -2.49299305e-05 
 5.46400000e-04  2.49971257e+00  4.47704375e+00  4.45500749e+00  2.47958373e+00  2.48173326e+00  2.48271771e+00 -2.49460723e-05 
 5.51400000e-04  2.49968263e+00  4.47725530e+00  4.45289386e+00  2.47747225e+00  2.47960688e+00  2.48058475e+00 -2.49620955e-05 
 5.56400000e-04  2.49965300e+00  4.47746455e+00  4.45079860e+00  2.47537935e+00  2.47749687e+00  2.47846717e+00 -2.49779835e-05 
 5.61400000e-04  2.49962371e+00  4.47767128e+00  4.44872388e+00  2.47330719e+00  2.47540543e+00  2.47636715e+00 -2.49937197e-05 
 5.66400000e-04  2.49959479e+00  4.47787531e+00  4.44667185e+00  2.47125793e+00  2.47333471e+00  2.47428686e+00 -2.50092875e-05 
 5.71400000e-04  2.49956628e+00  4.47807642e+00  4.44464464e+00  2.46923370e+00  2.47128686e+00  2.47222845e+00 -2.50246707e-05 
 5.76400000e-04  2.49953819e+00  4.47827444e+00  4.44264439e+00  2.46723662e+00  2.46926402e+00  2.47019407e+00 -2.50398531e-05 
 5.81400000e-04  2.49951056e+00  4.47846917e+00  4.44067317e+00  2.46526878e+00  2.46726830e+00  2.46818583e+00 -2.50548185e-05 
 5.86400000e-04  2.49948341e+00  4.47866043e+00  4.43873306e+00  2.46333224e+00  2.46530179e+00  2.46620585e+00 -2.50695512e-05 
 5.91400000e-04  2.49945677e+00  4.47884803e+00  4.43682611e+00  2.46142905e+00  2.46336656e+00  2.46425619e+00 -2.50840354e-05 
 5.96400000e-04  2.49943066e+00  4.47903180e+00  4.43495432e+00  2.45956122e+00  2.46146464e+00  2.46233891e+00 -2.50982556e-05 
 6.01400000e-04  2.49940512e+00  4.47921156e+00  4.43311968e+00  2.45773071e+00  2.45959803e+00  2.46045602e+00 -2.51121968e-05 
 6.06400000e-04  2.49938017e+00  4.47938714e+00  4.43132414e+00  2.45593948e+00  2.45776873e+00  2.45860952e+00 -2.51258438e-05 
 6.11400000e-04  2.49935582e+00  4.47955837e+00  4.42956960e+00  2.45418944e+00  2.45597866e+00  2.45680137e+00 -2.51391820e-05 
 6.16400000e-04  2.49933212e+00  4.47972510e+00  4.42785793e+00  2.45248243e+00  2.45422974e+00  2.45503349e+00 -2.51521970e-05 
 6.21400000e-04  2.49930907e+00  4.47988716e+00  4.42619096e+00  2.45082030e+00  2.45252382e+00  2.45330775e+00 -2.51648747e-05 
 6.26400000e-04  2.49928670e+00  4.48004440e+00  4.42457048e+00  2.44920482e+00  2.45086273e+00  2.45162601e+00 -2.51772014e-05 
 6.31400000e-04  2.49926504e+00  4.48019668e+00  4.42299822e+00  2.44763772e+00  2.44924825e+00  2.44999005e+00 -2.51891637e-05 
 6.36400000e-04  2.49924410e+00  4.48034386e+00  4.42147587e+00  2.44612068e+00  2.44768211e+00  2.44840164e+00 -2.52007486e-05 
 6.41400000e-04  2.49922391e+00  4.48048579e+00  4.42000507e+00  2.44465534e+00  2.44616598e+00  2.44686248e+00 -2.52119434e-05 
 6.46400000e-04  2.49920448e+00  4.48062234e+00  4.41858741e+00  2.44324328e+00  2.44470151e+00  2.44537421e+00 -2.52227359e-05 
 6.51400000e-04  2.49918584e+00  4.48075338e+00  4.41722441e+00  2.44188603e+00  2.44329026e+00  2.44393845e+00 -2.52331143e-05 
 6.56400000e-04  2.49916801e+00  4.48087879e+00  4.41591755e+00  2.44058504e+00  2.44193377e+00  2.44255675e+00 -2.52430672e-05 
 6.61400000e-04  2.49915099e+00  4.48099846e+00  4.41466824e+00  2.43934174e+00  2.44063350e+00  2.44123059e+00 -2.52525836e-05 
 6.66400000e-04  2.49913481e+00  4.48111228e+00  4.41347783e+00  2.43815746e+00  2.43939086e+00  2.43996142e+00 -2.52616532e-05 
 6.71400000e-04  2.49911949e+00  4.48122013e+00  4.41234763e+00  2.43703349e+00  2.43820720e+00  2.43875060e+00 -2.52702658e-05 
 6.76400000e-04  2.49910503e+00  4.48132191e+00  4.41127885e+00  2.43597107e+00  2.43708380e+00  2.43759945e+00 -2.52784120e-05 
 6.81400000e-04  2.49909146e+00  4.48141754e+00  4.41027266e+00  2.43497133e+00  2.43602188e+00  2.43650923e+00 -2.52860828e-05 
 6.86400000e-04  2.49907879e+00  4.48150694e+00  4.40933029e+00  2.43403551e+00  2.43502264e+00  2.43548114e+00 -2.52932686e-05 
 6.91400000e-04  2.49906702e+00  4.48159000e+00  4.40845258e+00  2.43316444e+00  2.43408718e+00  2.43451632e+00 -2.52999629e-05 
 6.96400000e-04  2.49905618e+00  4.48166664e+00  4.40764040e+00  2.43235898e+00  2.43321639e+00  2.43361576e+00 -2.53061592e-05 
 7.01400000e-04  2.49904626e+00  4.48173681e+00  4.40689480e+00  2.43162018e+00  2.43241126e+00  2.43278041e+00 -2.53118491e-05 
 7.06400000e-04  2.49903729e+00  4.48180044e+00  4.40621657e+00  2.43094882e+00  2.43167270e+00  2.43201121e+00 -2.53170267e-05 
 7.11400000e-04  2.49902927e+00  4.48185747e+00  4.40560645e+00  2.43034564e+00  2.43100152e+00  2.43130902e+00 -2.53216860e-05 
 7.16400000e-04  2.49902220e+00  4.48190784e+00  4.40506511e+00  2.42981129e+00  2.43039845e+00  2.43067461e+00 -2.53258219e-05 
 7.21400000e-04  2.49901610e+00  4.48195152e+00  4.40459314e+00  2.42934636e+00  2.42986416e+00  2.43010867e+00 -2.53294298e-05 
 7.26400000e-04  2.49901097e+00  4.48198845e+00  4.40419105e+00  2.42895136e+00  2.42939923e+00  2.42961182e+00 -2.53325058e-05 
 7.31400000e-04  2.49900682e+00  4.48201861e+00  4.40385930e+00  2.42862673e+00  2.42900418e+00  2.42918462e+00 -2.53350464e-05 
