 time            v(vin)          v(b1_collector) v(b2_collector) v(vout_drv)     v(vfilt1)       v(vout_final)   i(vdd)         
 0.00000000e+00  2.50000000e+00  4.44618444e+00  4.44618444e+00  2.50000000e+00  2.50000000e+00  2.50000000e+00 -1.30273249e-05 
 5.00000000e-08  2.50000031e+00  4.44618437e+00  4.44618446e+00  2.50000002e+00  2.50000000e+00  2.50000000e+00 -1.30273253e-05 
 1.00000000e-07  2.50000063e+00  4.44618423e+00  4.44618450e+00  2.50000006e+00  2.50000000e+00  2.50000000e+00 -1.30273260e-05 
 2.00000000e-07  2.50000126e+00  4.44618383e+00  4.44618469e+00  2.50000024e+00  2.50000000e+00  2.50000000e+00 -1.30273278e-05 
 4.00000000e-07  2.50000251e+00  4.44618226e+00  4.44618590e+00  2.50000146e+00  2.50000001e+00  2.50000000e+00 -1.30273307e-05 
 8.00000000e-07  2.50000503e+00  4.44617648e+00  4.44619432e+00  2.50000988e+00  2.50000024e+00  2.50000002e+00 -1.30273086e-05 
 1.60000000e-06  2.50001005e+00  4.44615678e+00  4.44624817e+00  2.50006373e+00  2.50000431e+00  2.50000069e+00 -1.30270217e-05 
 3.20000000e-06  2.50002010e+00  4.44609732e+00  4.44653885e+00  2.50035440e+00  2.50005624e+00  2.50001596e+00 -1.30250764e-05 
 6.40000000e-06  2.50004020e+00  4.44594527e+00  4.44774052e+00  2.50155600e+00  2.50048392e+00  2.50022447e+00 -1.30162375e-05 
 1.14000000e-05  2.50007157e+00  4.44568701e+00  4.45047559e+00  2.50429079e+00  2.50207033e+00  2.50132098e+00 -1.29953721e-05 
 1.64000000e-05  2.50010286e+00  4.44542769e+00  4.45350212e+00  2.50731674e+00  2.50444439e+00  2.50333804e+00 -1.29720579e-05 
 2.14000000e-05  2.50013406e+00  4.44516904e+00  4.45652424e+00  2.51033798e+00  2.50718456e+00  2.50591766e+00 -1.29487752e-05 
 2.64000000e-05  2.50016512e+00  4.44491113e+00  4.45952743e+00  2.51333998e+00  2.51007471e+00  2.50874263e+00 -1.29256459e-05 
 3.14000000e-05  2.50019601e+00  4.44465424e+00  4.46250955e+00  2.51632062e+00  2.51301980e+00  2.51166411e+00 -1.29026855e-05 
 3.64000000e-05  2.50022672e+00  4.44439863e+00  4.46546760e+00  2.51927689e+00  2.51597574e+00  2.51461584e+00 -1.28799174e-05 
 4.14000000e-05  2.50025720e+00  4.44414455e+00  4.46839877e+00  2.52220598e+00  2.51892183e+00  2.51756682e+00 -1.28573629e-05 
 4.64000000e-05  2.50028743e+00  4.44389226e+00  4.47130027e+00  2.52510512e+00  2.52184729e+00  2.52050197e+00 -1.28350433e-05 
 5.14000000e-05  2.50031737e+00  4.44364202e+00  4.47416938e+00  2.52797157e+00  2.52474589e+00  2.52341303e+00 -1.28129795e-05 
 5.64000000e-05  2.50034700e+00  4.44339408e+00  4.47700341e+00  2.53080267e+00  2.52761336e+00  2.52629490e+00 -1.27911920e-05 
 6.14000000e-05  2.50037629e+00  4.44314869e+00  4.47979975e+00  2.53359578e+00  2.53044634e+00  2.52914381e+00 -1.27697006e-05 
 6.64000000e-05  2.50040521e+00  4.44290611e+00  4.48255581e+00  2.53634835e+00  2.53324192e+00  2.53195665e+00 -1.27485249e-05 
 7.14000000e-05  2.50043372e+00  4.44266658e+00  4.48526909e+00  2.53905786e+00  2.53599740e+00  2.53473062e+00 -1.27276841e-05 
 7.64000000e-05  2.50046181e+00  4.44243035e+00  4.48793714e+00  2.54172187e+00  2.53871020e+00  2.53746310e+00 -1.27071966e-05 
 8.14000000e-05  2.50048944e+00  4.44219767e+00  4.49055756e+00  2.54433798e+00  2.54137784e+00  2.54015156e+00 -1.26870807e-05 
 8.64000000e-05  2.50051659e+00  4.44196877e+00  4.49312801e+00  2.54690388e+00  2.54399792e+00  2.54279356e+00 -1.26673538e-05 
 9.14000000e-05  2.50054323e+00  4.44174389e+00  4.49564624e+00  2.54941729e+00  2.54656810e+00  2.54538674e+00 -1.26480332e-05 
 9.64000000e-05  2.50056934e+00  4.44152328e+00  4.49811003e+00  2.55187602e+00  2.54908611e+00  2.54792879e+00 -1.26291353e-05 
 1.01400000e-04  2.50059488e+00  4.44130715e+00  4.50051726e+00  2.55427793e+00  2.55154974e+00  2.55041747e+00 -1.26106763e-05 
 1.06400000e-04  2.50061983e+00  4.44109573e+00  4.50286584e+00  2.55662097e+00  2.55395685e+00  2.55285062e+00 -1.25926717e-05 
 1.11400000e-04  2.50064418e+00  4.44088925e+00  4.50515378e+00  2.55890313e+00  2.55630537e+00  2.55522613e+00 -1.25751365e-05 
 1.16400000e-04  2.50066788e+00  4.44068793e+00  4.50737913e+00  2.56112249e+00  2.55859330e+00  2.55754197e+00 -1.25580851e-05 
 1.21400000e-04  2.50069093e+00  4.44049198e+00  4.50954005e+00  2.56327718e+00  2.56081869e+00  2.55979616e+00 -1.25415315e-05 
 1.26400000e-04  2.50071330e+00  4.44030160e+00  4.51163471e+00  2.56536541e+00  2.56297969e+00  2.56198682e+00 -1.25254891e-05 
 1.31400000e-04  2.50073496e+00  4.44011699e+00  4.51366140e+00  2.56738547e+00  2.56507449e+00  2.56411210e+00 -1.25099707e-05 
 1.36400000e-04  2.50075590e+00  4.43993837e+00  4.51561846e+00  2.56933569e+00  2.56710135e+00  2.56617025e+00 -1.24949886e-05 
 1.41400000e-04  2.50077609e+00  4.43976590e+00  4.51750431e+00  2.57121450e+00  2.56905863e+00  2.56815957e+00 -1.24805547e-05 
 1.46400000e-04  2.50079552e+00  4.43959979e+00  4.51931741e+00  2.57302039e+00  2.57094474e+00  2.57007844e+00 -1.24666800e-05 
 1.51400000e-04  2.50081416e+00  4.43944021e+00  4.52105632e+00  2.57475192e+00  2.57275814e+00  2.57192531e+00 -1.24533755e-05 
 1.56400000e-04  2.50083199e+00  4.43928732e+00  4.52271966e+00  2.57640770e+00  2.57449739e+00  2.57369870e+00 -1.24406511e-05 
 1.61400000e-04  2.50084901e+00  4.43914131e+00  4.52430613e+00  2.57798645e+00  2.57616112e+00  2.57539720e+00 -1.24285166e-05 
 1.66400000e-04  2.50086519e+00  4.43900231e+00  4.52581448e+00  2.57948693e+00  2.57774801e+00  2.57701946e+00 -1.24169811e-05 
 1.71400000e-04  2.50088051e+00  4.43887048e+00  4.52724354e+00  2.58090797e+00  2.57925682e+00  2.57856420e+00 -1.24060531e-05 
 1.76400000e-04  2.50089497e+00  4.43874597e+00  4.52859221e+00  2.58224848e+00  2.58068638e+00  2.58003024e+00 -1.23957407e-05 
 1.81400000e-04  2.50090854e+00  4.43862891e+00  4.52985945e+00  2.58350743e+00  2.58203559e+00  2.58141643e+00 -1.23860516e-05 
 1.86400000e-04  2.50092121e+00  4.43851943e+00  4.53104431e+00  2.58468388e+00  2.58330341e+00  2.58272171e+00 -1.23769927e-05 
 1.91400000e-04  2.50093298e+00  4.43841765e+00  4.53214588e+00  2.58577693e+00  2.58448887e+00  2.58394507e+00 -1.23685706e-05 
 1.96400000e-04  2.50094382e+00  4.43832367e+00  4.53316333e+00  2.58678575e+00  2.58559109e+00  2.58508560e+00 -1.23607914e-05 
 2.01400000e-04  2.50095374e+00  4.43823760e+00  4.53409590e+00  2.58770960e+00  2.58660923e+00  2.58614244e+00 -1.23536606e-05 
 2.06400000e-04  2.50096271e+00  4.43815954e+00  4.53494290e+00  2.58854778e+00  2.58754253e+00  2.58711478e+00 -1.23471833e-05 
 2.11400000e-04  2.50097073e+00  4.43808957e+00  4.53570369e+00  2.58929969e+00  2.58839030e+00  2.58800190e+00 -1.23413640e-05 
 2.16400000e-04  2.50097780e+00  4.43802776e+00  4.53637772e+00  2.58996475e+00  2.58915189e+00  2.58880315e+00 -1.23362069e-05 
 2.21400000e-04  2.50098390e+00  4.43797419e+00  4.53696448e+00  2.59054248e+00  2.58982676e+00  2.58951792e+00 -1.23317156e-05 
 2.26400000e-04  2.50098903e+00  4.43792891e+00  4.53746354e+00  2.59103247e+00  2.59041441e+00  2.59014570e+00 -1.23278932e-05 
 2.31400000e-04  2.50099318e+00  4.43789198e+00  4.53787458e+00  2.59143438e+00  2.59091441e+00  2.59068602e+00 -1.23247421e-05 
 2.36400000e-04  2.50099635e+00  4.43786342e+00  4.53819722e+00  2.59174787e+00  2.59132640e+00  2.59113850e+00 -1.23222649e-05 
 2.41400000e-04  2.50099854e+00  4.43784329e+00  4.53843122e+00  2.59197268e+00  2.59165004e+00  2.59150279e+00 -1.23204637e-05 
 2.46400000e-04  2.50099974e+00  4.43783158e+00  4.53857645e+00  2.59210871e+00  2.59188511e+00  2.59177861e+00 -1.23193391e-05 
 2.51400000e-04  2.50099996e+00  4.43782833e+00  4.53863281e+00  2.59215585e+00  2.59203145e+00  2.59196577e+00 -1.23188921e-05 
 2.56400000e-04  2.50099919e+00  4.43783353e+00  4.53860024e+00  2.59211407e+00  2.59208896e+00  2.59206414e+00 -1.23191230e-05 
 2.61400000e-04  2.50099744e+00  4.43784718e+00  4.53847878e+00  2.59198340e+00  2.59205760e+00  2.59207366e+00 -1.23200315e-05 
 2.66400000e-04  2.50099470e+00  4.43786926e+00  4.53826850e+00  2.59176393e+00  2.59193738e+00  2.59199431e+00 -1.23216173e-05 
 2.71400000e-04  2.50099097e+00  4.43789975e+00  4.53796951e+00  2.59145579e+00  2.59172838e+00  2.59182615e+00 -1.23238794e-05 
 2.76400000e-04  2.50098627e+00  4.43793862e+00  4.53758207e+00  2.59105921e+00  2.59143076e+00  2.59156929e+00 -1.23268162e-05 
 2.81400000e-04  2.50098060e+00  4.43798581e+00  4.53710646e+00  2.59057453e+00  2.59104472e+00  2.59122392e+00 -1.23304256e-05 
 2.86400000e-04  2.50097396e+00  4.43804129e+00  4.53654301e+00  2.59000205e+00  2.59057057e+00  2.59079030e+00 -1.23347051e-05 
 2.91400000e-04  2.50096636e+00  4.43810499e+00  4.53589214e+00  2.58934221e+00  2.59000864e+00  2.59026875e+00 -1.23396519e-05 
 2.96400000e-04  2.50095780e+00  4.43817683e+00  4.53515432e+00  2.58859549e+00  2.58935934e+00  2.58965963e+00 -1.23452625e-05 
 3.01400000e-04  2.50094830e+00  4.43825675e+00  4.53433008e+00  2.58776244e+00  2.58862315e+00  2.58896340e+00 -1.23515330e-05 
 3.06400000e-04  2.50093786e+00  4.43834465e+00  4.53342005e+00  2.58684367e+00  2.58780061e+00  2.58818057e+00 -1.23584592e-05 
 3.11400000e-04  2.50092650e+00  4.43844044e+00  4.53242488e+00  2.58583987e+00  2.58689233e+00  2.58731172e+00 -1.23660360e-05 
 3.16400000e-04  2.50091423e+00  4.43854401e+00  4.53134533e+00  2.58475179e+00  2.58589898e+00  2.58635748e+00 -1.23742582e-05 
 3.21400000e-04  2.50090105e+00  4.43865525e+00  4.53018219e+00  2.58358023e+00  2.58482130e+00  2.58531859e+00 -1.23831199e-05 
 3.26400000e-04  2.50088698e+00  4.43877404e+00  4.52893635e+00  2.58232610e+00  2.58366011e+00  2.58419580e+00 -1.23926148e-05 
 3.31400000e-04  2.50087204e+00  4.43890025e+00  4.52760875e+00  2.58099033e+00  2.58241628e+00  2.58298996e+00 -1.24027359e-05 
 3.36400000e-04  2.50085623e+00  4.43903374e+00  4.52620040e+00  2.57957396e+00  2.58109075e+00  2.58170200e+00 -1.24134759e-05 
 3.41400000e-04  2.50083958e+00  4.43917437e+00  4.52471239e+00  2.57807806e+00  2.57968454e+00  2.58033288e+00 -1.24248269e-05 
 3.46400000e-04  2.50082210e+00  4.43932199e+00  4.52314587e+00  2.57650381e+00  2.57819873e+00  2.57888367e+00 -1.24367806e-05 
 3.51400000e-04  2.50080382e+00  4.43947643e+00  4.52150204e+00  2.57485242e+00  2.57663447e+00  2.57735547e+00 -1.24493279e-05 
 3.56400000e-04  2.50078473e+00  4.43963754e+00  4.51978222e+00  2.57312520e+00  2.57499298e+00  2.57574949e+00 -1.24624594e-05 
 3.61400000e-04  2.50076488e+00  4.43980513e+00  4.51798775e+00  2.57132351e+00  2.57327556e+00  2.57406697e+00 -1.24761651e-05 
 3.66400000e-04  2.50074426e+00  4.43997903e+00  4.51612007e+00  2.56944879e+00  2.57148355e+00  2.57230925e+00 -1.24904345e-05 
 3.71400000e-04  2.50072292e+00  4.44015905e+00  4.51418068e+00  2.56750255e+00  2.56961840e+00  2.57047771e+00 -1.25052564e-05 
 3.76400000e-04  2.50070086e+00  4.44034500e+00  4.51217115e+00  2.56548637e+00  2.56768160e+00  2.56857384e+00 -1.25206194e-05 
 3.81400000e-04  2.50067811e+00  4.44053668e+00  4.51009313e+00  2.56340190e+00  2.56567471e+00  2.56659917e+00 -1.25365111e-05 
 3.86400000e-04  2.50065469e+00  4.44073389e+00  4.50794831e+00  2.56125085e+00  2.56359940e+00  2.56455530e+00 -1.25529190e-05 
 3.91400000e-04  2.50063062e+00  4.44093642e+00  4.50573850e+00  2.55903502e+00  2.56145735e+00  2.56244392e+00 -1.25698297e-05 
 3.96400000e-04  2.50060593e+00  4.44114405e+00  4.50346553e+00  2.55675627e+00  2.55925036e+00  2.56026677e+00 -1.25872295e-05 
 4.01400000e-04  2.50058065e+00  4.44135657e+00  4.50113134e+00  2.55441652e+00  2.55698028e+00  2.55802568e+00 -1.26051040e-05 
 4.06400000e-04  2.50055479e+00  4.44157375e+00  4.49873791e+00  2.55201776e+00  2.55464901e+00  2.55572252e+00 -1.26234384e-05 
 4.11400000e-04  2.50052838e+00  4.44179537e+00  4.49628729e+00  2.54956207e+00  2.55225856e+00  2.55335926e+00 -1.26422172e-05 
 4.16400000e-04  2.50050145e+00  4.44202119e+00  4.49378162e+00  2.54705157e+00  2.54981098e+00  2.55093791e+00 -1.26614244e-05 
 4.21400000e-04  2.50047403e+00  4.44225098e+00  4.49122309e+00  2.54448846e+00  2.54730838e+00  2.54846058e+00 -1.26810437e-05 
 4.26400000e-04  2.50044614e+00  4.44248450e+00  4.48861395e+00  2.54187500e+00  2.54475296e+00  2.54592942e+00 -1.27010579e-05 
 4.31400000e-04  2.50041780e+00  4.44272150e+00  4.48595653e+00  2.53921353e+00  2.54214698e+00  2.54334666e+00 -1.27214496e-05 
 4.36400000e-04  2.50038906e+00  4.44296175e+00  4.48325321e+00  2.53650642e+00  2.53949274e+00  2.54071458e+00 -1.27422008e-05 
 4.41400000e-04  2.50035993e+00  4.44320500e+00  4.48050643e+00  2.53375613e+00  2.53679264e+00  2.53803553e+00 -1.27632928e-05 
 4.46400000e-04  2.50033045e+00  4.44345099e+00  4.47771871e+00  2.53096517e+00  2.53404911e+00  2.53531193e+00 -1.27847068e-05 
 4.51400000e-04  2.50030064e+00  4.44369948e+00  4.47489260e+00  2.52813611e+00  2.53126466e+00  2.53254626e+00 -1.28064232e-05 
 4.56400000e-04  2.50027053e+00  4.44395021e+00  4.47203073e+00  2.52527157e+00  2.52844184e+00  2.52974104e+00 -1.28284221e-05 
 4.61400000e-04  2.50024016e+00  4.44420292e+00  4.46913577e+00  2.52237423e+00  2.52558328e+00  2.52689887e+00 -1.28506831e-05 
 4.66400000e-04  2.50020955e+00  4.44445737e+00  4.46621045e+00  2.51944681e+00  2.52269164e+00  2.52402240e+00 -1.28731854e-05 
 4.71400000e-04  2.50017873e+00  4.44471329e+00  4.46325754e+00  2.51649211e+00  2.51976964e+00  2.52111431e+00 -1.28959078e-05 
 4.76400000e-04  2.50014774e+00  4.44497043e+00  4.46027987e+00  2.51351294e+00  2.51682005e+00  2.51817737e+00 -1.29188286e-05 
 4.81400000e-04  2.50011660e+00  4.44522853e+00  4.45728031e+00  2.51051217e+00  2.51384571e+00  2.51521436e+00 -1.29419259e-05 
 4.86400000e-04  2.50008535e+00  4.44548733e+00  4.45426176e+00  2.50749272e+00  2.51084946e+00  2.51222813e+00 -1.29651773e-05 
 4.91400000e-04  2.50005401e+00  4.44574658e+00  4.45122718e+00  2.50445754e+00  2.50783421e+00  2.50922157e+00 -1.29885601e-05 
 4.96400000e-04  2.50002262e+00  4.44600601e+00  4.44817954e+00  2.50140962e+00  2.50480291e+00  2.50619760e+00 -1.30120514e-05 
 5.01400000e-04  2.49999120e+00  4.44626538e+00  4.44512188e+00  2.49835196e+00  2.50175854e+00  2.50315919e+00 -1.30356278e-05 
 5.06400000e-04  2.49995980e+00  4.44652442e+00  4.44205723e+00  2.49528764e+00  2.49870412e+00  2.50010934e+00 -1.30592659e-05 
 5.11400000e-04  2.49992843e+00  4.44678288e+00  4.43898868e+00  2.49221970e+00  2.49564268e+00  2.49705107e+00 -1.30829418e-05 
 5.16400000e-04  2.49989714e+00  4.44704051e+00  4.43591931e+00  2.48915127e+00  2.49257729e+00  2.49398744e+00 -1.31066317e-05 
 5.21400000e-04  2.49986594e+00  4.44729706e+00  4.43285226e+00  2.48608545e+00  2.48951106e+00  2.49092154e+00 -1.31303113e-05 
 5.26400000e-04  2.49983488e+00  4.44755228e+00  4.42979064e+00  2.48302538e+00  2.48644708e+00  2.48785647e+00 -1.31539563e-05 
 5.31400000e-04  2.49980399e+00  4.44780592e+00  4.42673761e+00  2.47997420e+00  2.48338850e+00  2.48479535e+00 -1.31775424e-05 
 5.36400000e-04  2.49977328e+00  4.44805773e+00  4.42369632e+00  2.47693507e+00  2.48033845e+00  2.48174131e+00 -1.32010450e-05 
 5.41400000e-04  2.49974280e+00  4.44830748e+00  4.42066993e+00  2.47391114e+00  2.47730008e+00  2.47869751e+00 -1.32244395e-05 
 5.46400000e-04  2.49971257e+00  4.44855492e+00  4.41766161e+00  2.47090557e+00  2.47427654e+00  2.47566709e+00 -1.32477014e-05 
 5.51400000e-04  2.49968263e+00  4.44879982e+00  4.41467449e+00  2.46792152e+00  2.47127100e+00  2.47265321e+00 -1.32708059e-05 
 5.56400000e-04  2.49965300e+00  4.44904195e+00  4.41171175e+00  2.46496213e+00  2.46828660e+00  2.46965903e+00 -1.32937286e-05 
 5.61400000e-04  2.49962371e+00  4.44928107e+00  4.40877651e+00  2.46203053e+00  2.46532648e+00  2.46668769e+00 -1.33164450e-05 
 5.66400000e-04  2.49959479e+00  4.44951696e+00  4.40587189e+00  2.45912986e+00  2.46239379e+00  2.46374232e+00 -1.33389306e-05 
 5.71400000e-04  2.49956628e+00  4.44974940e+00  4.40300101e+00  2.45626321e+00  2.45949164e+00  2.46082607e+00 -1.33611611e-05 
 5.76400000e-04  2.49953819e+00  4.44997816e+00  4.40016693e+00  2.45343365e+00  2.45662314e+00  2.45794203e+00 -1.33831125e-05 
 5.81400000e-04  2.49951056e+00  4.45020304e+00  4.39737272e+00  2.45064423e+00  2.45379135e+00  2.45509329e+00 -1.34047608e-05 
 5.86400000e-04  2.49948341e+00  4.45042382e+00  4.39462140e+00  2.44789798e+00  2.45099933e+00  2.45228292e+00 -1.34260823e-05 
 5.91400000e-04  2.49945677e+00  4.45064029e+00  4.39191595e+00  2.44519788e+00  2.44825009e+00  2.44951395e+00 -1.34470537e-05 
 5.96400000e-04  2.49943066e+00  4.45085227e+00  4.38925931e+00  2.44254686e+00  2.44554663e+00  2.44678938e+00 -1.34676516e-05 
 6.01400000e-04  2.49940512e+00  4.45105954e+00  4.38665440e+00  2.43994782e+00  2.44289187e+00  2.44411216e+00 -1.34878535e-05 
 6.06400000e-04  2.49938017e+00  4.45126192e+00  4.38410407e+00  2.43740362e+00  2.44028874e+00  2.44148523e+00 -1.35076367e-05 
 6.11400000e-04  2.49935582e+00  4.45145922e+00  4.38161112e+00  2.43491705e+00  2.43774007e+00  2.43891145e+00 -1.35269793e-05 
 6.16400000e-04  2.49933212e+00  4.45165126e+00  4.37917830e+00  2.43249086e+00  2.43524867e+00  2.43639365e+00 -1.35458596e-05 
 6.21400000e-04  2.49930907e+00  4.45183786e+00  4.37680830e+00  2.43012773e+00  2.43281728e+00  2.43393461e+00 -1.35642564e-05 
 6.26400000e-04  2.49928670e+00  4.45201885e+00  4.37450375e+00  2.42783029e+00  2.43044861e+00  2.43153704e+00 -1.35821489e-05 
 6.31400000e-04  2.49926504e+00  4.45219408e+00  4.37226722e+00  2.42560108e+00  2.42814526e+00  2.42920359e+00 -1.35995171e-05 
 6.36400000e-04  2.49924410e+00  4.45236337e+00  4.37010118e+00  2.42344260e+00  2.42590981e+00  2.42693686e+00 -1.36163413e-05 
 6.41400000e-04  2.49922391e+00  4.45252657e+00  4.36800808e+00  2.42135725e+00  2.42374474e+00  2.42473937e+00 -1.36326023e-05 
 6.46400000e-04  2.49920448e+00  4.45268354e+00  4.36599023e+00  2.41934737e+00  2.42165247e+00  2.42261357e+00 -1.36482816e-05 
 6.51400000e-04  2.49918584e+00  4.45283413e+00  4.36404992e+00  2.41741522e+00  2.41963534e+00  2.42056184e+00 -1.36633615e-05 
 6.56400000e-04  2.49916801e+00  4.45297821e+00  4.36218931e+00  2.41556296e+00  2.41769562e+00  2.41858647e+00 -1.36778246e-05 
 6.61400000e-04  2.49915099e+00  4.45311565e+00  4.36041051e+00  2.41379269e+00  2.41583549e+00  2.41668969e+00 -1.36916545e-05 
 6.66400000e-04  2.49913481e+00  4.45324632e+00  4.35871551e+00  2.41210640e+00  2.41405703e+00  2.41487362e+00 -1.37048352e-05 
 6.71400000e-04  2.49911949e+00  4.45337010e+00  4.35710623e+00  2.41050599e+00  2.41236226e+00  2.41314032e+00 -1.37173516e-05 
 6.76400000e-04  2.49910503e+00  4.45348690e+00  4.35558449e+00  2.40899328e+00  2.41075309e+00  2.41149173e+00 -1.37291894e-05 
 6.81400000e-04  2.49909146e+00  4.45359659e+00  4.35415202e+00  2.40756997e+00  2.40923133e+00  2.40992973e+00 -1.37403349e-05 
 6.86400000e-04  2.49907879e+00  4.45369909e+00  4.35281043e+00  2.40623769e+00  2.40779872e+00  2.40845608e+00 -1.37507752e-05 
 6.91400000e-04  2.49906702e+00  4.45379429e+00  4.35156125e+00  2.40499795e+00  2.40645687e+00  2.40707245e+00 -1.37604983e-05 
 6.96400000e-04  2.49905618e+00  4.45388212e+00  4.35040589e+00  2.40385215e+00  2.40520731e+00  2.40578041e+00 -1.37694929e-05 
 7.01400000e-04  2.49904626e+00  4.45396250e+00  4.34934568e+00  2.40280160e+00  2.40405146e+00  2.40458142e+00 -1.37777487e-05 
 7.06400000e-04  2.49903729e+00  4.45403536e+00  4.34838181e+00  2.40184750e+00  2.40299063e+00  2.40347686e+00 -1.37852561e-05 
 7.11400000e-04  2.49902927e+00  4.45410063e+00  4.34751538e+00  2.40099093e+00  2.40202603e+00  2.40246798e+00 -1.37920064e-05 
 7.16400000e-04  2.49902220e+00  4.45415825e+00  4.34674738e+00  2.40023287e+00  2.40115877e+00  2.40155592e+00 -1.37979917e-05 
 7.21400000e-04  2.49901610e+00  4.45420817e+00  4.34607874e+00  2.39957424e+00  2.40038984e+00  2.40074173e+00 -1.38032046e-05 
 7.26400000e-04  2.49901097e+00  4.45425035e+00  4.34551014e+00  2.39901571e+00  2.39972012e+00  2.40002636e+00 -1.38076399e-05 
 7.31400000e-04  2.49900682e+00  4.45428475e+00  4.34504218e+00  2.39855787e+00  2.39915033e+00  2.39941059e+00 -1.38112927e-05 
