 time            v(vin)          v(b1_collector) v(b2_collector) v(vout_drv)     v(vfilt1)       v(vout_final)   i(vdd)         
 0.00000000e+00  2.50000000e+00  4.46016824e+00  4.46016824e+00  2.50000000e+00  2.50000000e+00  2.50000000e+00 -2.50431858e-05 
 5.00000000e-08  2.50000031e+00  4.46016820e+00  4.46016825e+00  2.50000001e+00  2.50000000e+00  2.50000000e+00 -2.50431861e-05 
 1.00000000e-07  2.50000063e+00  4.46016810e+00  4.46016827e+00  2.50000003e+00  2.50000000e+00  2.50000000e+00 -2.50431867e-05 
 2.00000000e-07  2.50000126e+00  4.46016783e+00  4.46016835e+00  2.50000011e+00  2.50000000e+00  2.50000000e+00 -2.50431882e-05 
 4.00000000e-07  2.50000251e+00  4.46016675e+00  4.46016892e+00  2.50000067e+00  2.50000002e+00  2.50000000e+00 -2.50431924e-05 
 8.00000000e-07  2.50000503e+00  4.46016270e+00  4.46017292e+00  2.50000468e+00  2.50000031e+00  2.50000003e+00 -2.50431927e-05 
 1.60000000e-06  2.50001005e+00  4.46014832e+00  4.46019996e+00  2.50003171e+00  2.50000416e+00  2.50000068e+00 -2.50430865e-05 
 3.20000000e-06  2.50002010e+00  4.46010203e+00  4.46035996e+00  2.50019172e+00  2.50004449e+00  2.50001288e+00 -2.50421306e-05 
 6.40000000e-06  2.50004020e+00  4.45997349e+00  4.46111707e+00  2.50094878e+00  2.50035308e+00  2.50016542e+00 -2.50368399e-05 
 1.14000000e-05  2.50007157e+00  4.45973996e+00  4.46310613e+00  2.50293765e+00  2.50152412e+00  2.50097082e+00 -2.50220546e-05 
 1.64000000e-05  2.50010286e+00  4.45949940e+00  4.46554772e+00  2.50537883e+00  2.50337138e+00  2.50250929e+00 -2.50035130e-05 
 2.14000000e-05  2.50013406e+00  4.45925927e+00  4.46808836e+00  2.50791880e+00  2.50560223e+00  2.50456920e+00 -2.49841326e-05 
 2.64000000e-05  2.50016512e+00  4.45901985e+00  4.47063418e+00  2.51046370e+00  2.50801035e+00  2.50689950e+00 -2.49647023e-05 
 3.14000000e-05  2.50019601e+00  4.45878140e+00  4.47316715e+00  2.51299550e+00  2.51049004e+00  2.50934814e+00 -2.49453722e-05 
 3.64000000e-05  2.50022672e+00  4.45854415e+00  4.47568217e+00  2.51550910e+00  2.51299127e+00  2.51184035e+00 -2.49261833e-05 
 4.14000000e-05  2.50025720e+00  4.45830835e+00  4.47817636e+00  2.51800161e+00  2.51549040e+00  2.51434086e+00 -2.49071578e-05 
 4.64000000e-05  2.50028743e+00  4.45807422e+00  4.48064726e+00  2.52047059e+00  2.51797566e+00  2.51683271e+00 -2.48883144e-05 
 5.14000000e-05  2.50031737e+00  4.45784200e+00  4.48309251e+00  2.52291366e+00  2.52044060e+00  2.51930711e+00 -2.48696711e-05 
 5.64000000e-05  2.50034700e+00  4.45761194e+00  4.48550978e+00  2.52532853e+00  2.52288106e+00  2.52175890e+00 -2.48512454e-05 
 6.14000000e-05  2.50037629e+00  4.45738425e+00  4.48789682e+00  2.52771291e+00  2.52529396e+00  2.52418453e+00 -2.48330545e-05 
 6.64000000e-05  2.50040521e+00  4.45715918e+00  4.49025139e+00  2.53006459e+00  2.52767669e+00  2.52658119e+00 -2.48151151e-05 
 7.14000000e-05  2.50043372e+00  4.45693695e+00  4.49257131e+00  2.53238139e+00  2.53002688e+00  2.52894639e+00 -2.47974437e-05 
 7.64000000e-05  2.50046181e+00  4.45671779e+00  4.49485445e+00  2.53466118e+00  2.53234228e+00  2.53127783e+00 -2.47800564e-05 
 8.14000000e-05  2.50048944e+00  4.45650192e+00  4.49709870e+00  2.53690185e+00  2.53462073e+00  2.53357332e+00 -2.47629690e-05 
 8.64000000e-05  2.50051659e+00  4.45628956e+00  4.49930204e+00  2.53910139e+00  2.53686013e+00  2.53583073e+00 -2.47461968e-05 
 9.14000000e-05  2.50054323e+00  4.45608094e+00  4.50146246e+00  2.54125780e+00  2.53905845e+00  2.53804798e+00 -2.47297547e-05 
 9.64000000e-05  2.50056934e+00  4.45587627e+00  4.50357804e+00  2.54336914e+00  2.54121368e+00  2.54022307e+00 -2.47136572e-05 
 1.01400000e-04  2.50059488e+00  4.45567575e+00  4.50564688e+00  2.54543354e+00  2.54332390e+00  2.54235403e+00 -2.46979184e-05 
 1.06400000e-04  2.50061983e+00  4.45547960e+00  4.50766714e+00  2.54744916e+00  2.54538722e+00  2.54443896e+00 -2.46825521e-05 
 1.11400000e-04  2.50064418e+00  4.45528802e+00  4.50963706e+00  2.54941423e+00  2.54740182e+00  2.54647601e+00 -2.46675714e-05 
 1.16400000e-04  2.50066788e+00  4.45510121e+00  4.51155490e+00  2.55132704e+00  2.54936592e+00  2.54846337e+00 -2.46529894e-05 
 1.21400000e-04  2.50069093e+00  4.45491936e+00  4.51341900e+00  2.55318591e+00  2.55127781e+00  2.55039930e+00 -2.46388182e-05 
 1.26400000e-04  2.50071330e+00  4.45474267e+00  4.51522776e+00  2.55498926e+00  2.55313581e+00  2.55228212e+00 -2.46250699e-05 
 1.31400000e-04  2.50073496e+00  4.45457132e+00  4.51697961e+00  2.55673552e+00  2.55493834e+00  2.55411020e+00 -2.46117560e-05 
 1.36400000e-04  2.50075590e+00  4.45440549e+00  4.51867307e+00  2.55842322e+00  2.55668384e+00  2.55588196e+00 -2.45988876e-05 
 1.41400000e-04  2.50077609e+00  4.45424535e+00  4.52030669e+00  2.56005093e+00  2.55837082e+00  2.55759588e+00 -2.45864753e-05 
 1.46400000e-04  2.50079552e+00  4.45409107e+00  4.52187912e+00  2.56161727e+00  2.55999785e+00  2.55925052e+00 -2.45745292e-05 
 1.51400000e-04  2.50081416e+00  4.45394282e+00  4.52338901e+00  2.56312093e+00  2.56156357e+00  2.56084447e+00 -2.45630591e-05 
 1.56400000e-04  2.50083199e+00  4.45380074e+00  4.52483513e+00  2.56456066e+00  2.56306667e+00  2.56237640e+00 -2.45520742e-05 
 1.61400000e-04  2.50084901e+00  4.45366500e+00  4.52621627e+00  2.56593528e+00  2.56450589e+00  2.56384502e+00 -2.45415833e-05 
 1.66400000e-04  2.50086519e+00  4.45353574e+00  4.52753130e+00  2.56724364e+00  2.56588004e+00  2.56524913e+00 -2.45315949e-05 
 1.71400000e-04  2.50088051e+00  4.45341309e+00  4.52877913e+00  2.56848469e+00  2.56718799e+00  2.56658755e+00 -2.45221168e-05 
 1.76400000e-04  2.50089497e+00  4.45329718e+00  4.52995876e+00  2.56965741e+00  2.56842867e+00  2.56785920e+00 -2.45131565e-05 
 1.81400000e-04  2.50090854e+00  4.45318814e+00  4.53106922e+00  2.57076085e+00  2.56960107e+00  2.56906303e+00 -2.45047210e-05 
 1.86400000e-04  2.50092121e+00  4.45308608e+00  4.53210962e+00  2.57179412e+00  2.57070424e+00  2.57019806e+00 -2.44968168e-05 
 1.91400000e-04  2.50093298e+00  4.45299112e+00  4.53307911e+00  2.57275639e+00  2.57173730e+00  2.57126338e+00 -2.44894502e-05 
 1.96400000e-04  2.50094382e+00  4.45290334e+00  4.53397694e+00  2.57364689e+00  2.57269940e+00  2.57225814e+00 -2.44826267e-05 
 2.01400000e-04  2.50095374e+00  4.45282286e+00  4.53480237e+00  2.57446492e+00  2.57358978e+00  2.57318152e+00 -2.44763517e-05 
 2.06400000e-04  2.50096271e+00  4.45274976e+00  4.53555487e+00  2.57520993e+00  2.57440778e+00  2.57403283e+00 -2.44706289e-05 
 2.11400000e-04  2.50097073e+00  4.45268410e+00  4.53623370e+00  2.57588121e+00  2.57515273e+00  2.57481140e+00 -2.44654638e-05 
 2.16400000e-04  2.50097780e+00  4.45262597e+00  4.53683822e+00  2.57647811e+00  2.57582397e+00  2.57551655e+00 -2.44608615e-05 
 2.21400000e-04  2.50098390e+00  4.45257542e+00  4.53736808e+00  2.57700030e+00  2.57642096e+00  2.57614771e+00 -2.44568240e-05 
 2.26400000e-04  2.50098903e+00  4.45253251e+00  4.53782288e+00  2.57744737e+00  2.57694328e+00  2.57670438e+00 -2.44533546e-05 
 2.31400000e-04  2.50099318e+00  4.45249728e+00  4.53820225e+00  2.57781898e+00  2.57739051e+00  2.57718616e+00 -2.44504559e-05 
 2.36400000e-04  2.50099635e+00  4.45246978e+00  4.53850589e+00  2.57811482e+00  2.57776232e+00  2.57759268e+00 -2.44481299e-05 
 2.41400000e-04  2.50099854e+00  4.45245004e+00  4.53873356e+00  2.57833468e+00  2.57805841e+00  2.57792360e+00 -2.44463785e-05 
 2.46400000e-04  2.50099974e+00  4.45243807e+00  4.53888510e+00  2.57847837e+00  2.57827856e+00  2.57817869e+00 -2.44452031e-05 
 2.51400000e-04  2.50099996e+00  4.45243388e+00  4.53896037e+00  2.57854579e+00  2.57842259e+00  2.57835774e+00 -2.44446044e-05 
 2.56400000e-04  2.50099919e+00  4.45243749e+00  4.53895931e+00  2.57853688e+00  2.57849038e+00  2.57846060e+00 -2.44445831e-05 
 2.61400000e-04  2.50099744e+00  4.45244889e+00  4.53888193e+00  2.57845165e+00  2.57848189e+00  2.57848720e+00 -2.44451390e-05 
 2.66400000e-04  2.50099470e+00  4.45246807e+00  4.53872828e+00  2.57829016e+00  2.57839713e+00  2.57843752e+00 -2.44462720e-05 
 2.71400000e-04  2.50099097e+00  4.45249500e+00  4.53849847e+00  2.57805254e+00  2.57823614e+00  2.57831160e+00 -2.44479810e-05 
 2.76400000e-04  2.50098627e+00  4.45252965e+00  4.53819269e+00  2.57773897e+00  2.57799907e+00  2.57810952e+00 -2.44502650e-05 
 2.81400000e-04  2.50098060e+00  4.45257200e+00  4.53781117e+00  2.57734969e+00  2.57768609e+00  2.57783146e+00 -2.44531222e-05 
 2.86400000e-04  2.50097396e+00  4.45262200e+00  4.53735420e+00  2.57688501e+00  2.57729744e+00  2.57747761e+00 -2.44565506e-05 
 2.91400000e-04  2.50096636e+00  4.45267958e+00  4.53682206e+00  2.57634521e+00  2.57683341e+00  2.57704825e+00 -2.44605482e-05 
 2.96400000e-04  2.50095780e+00  4.45274468e+00  4.53621523e+00  2.57573078e+00  2.57629433e+00  2.57654369e+00 -2.44651116e-05 
 3.01400000e-04  2.50094830e+00  4.45281725e+00  4.53553425e+00  2.57504226e+00  2.57568068e+00  2.57596433e+00 -2.44702368e-05 
 3.06400000e-04  2.50093786e+00  4.45289720e+00  4.53477960e+00  2.57428014e+00  2.57499295e+00  2.57531067e+00 -2.44759204e-05 
 3.11400000e-04  2.50092650e+00  4.45298445e+00  4.53395187e+00  2.57344502e+00  2.57423166e+00  2.57458321e+00 -2.44821581e-05 
 3.16400000e-04  2.50091423e+00  4.45307890e+00  4.53305171e+00  2.57253757e+00  2.57339742e+00  2.57378251e+00 -2.44889452e-05 
 3.21400000e-04  2.50090105e+00  4.45318045e+00  4.53207985e+00  2.57155850e+00  2.57249088e+00  2.57290922e+00 -2.44962766e-05 
 3.26400000e-04  2.50088698e+00  4.45328899e+00  4.53103705e+00  2.57050860e+00  2.57151276e+00  2.57196401e+00 -2.45041466e-05 
 3.31400000e-04  2.50087204e+00  4.45340442e+00  4.52992416e+00  2.56938871e+00  2.57046385e+00  2.57094765e+00 -2.45125492e-05 
 3.36400000e-04  2.50085623e+00  4.45352659e+00  4.52874206e+00  2.56819973e+00  2.56934500e+00  2.56986096e+00 -2.45214778e-05 
 3.41400000e-04  2.50083958e+00  4.45365539e+00  4.52749172e+00  2.56694263e+00  2.56815709e+00  2.56870479e+00 -2.45309256e-05 
 3.46400000e-04  2.50082210e+00  4.45379068e+00  4.52617415e+00  2.56561843e+00  2.56690109e+00  2.56748010e+00 -2.45408850e-05 
 3.51400000e-04  2.50080382e+00  4.45393231e+00  4.52479043e+00  2.56422822e+00  2.56557804e+00  2.56618788e+00 -2.45513482e-05 
 3.56400000e-04  2.50078473e+00  4.45408014e+00  4.52334169e+00  2.56277314e+00  2.56418901e+00  2.56482917e+00 -2.45623069e-05 
 3.61400000e-04  2.50076488e+00  4.45423400e+00  4.52182915e+00  2.56125439e+00  2.56273514e+00  2.56340511e+00 -2.45737524e-05 
 3.66400000e-04  2.50074426e+00  4.45439374e+00  4.52025404e+00  2.55967324e+00  2.56121765e+00  2.56191686e+00 -2.45856753e-05 
 3.71400000e-04  2.50072292e+00  4.45455919e+00  4.51861771e+00  2.55803102e+00  2.55963779e+00  2.56036567e+00 -2.45980660e-05 
 3.76400000e-04  2.50070086e+00  4.45473017e+00  4.51692152e+00  2.55632911e+00  2.55799689e+00  2.55875283e+00 -2.46109143e-05 
 3.81400000e-04  2.50067811e+00  4.45490650e+00  4.51516690e+00  2.55456895e+00  2.55629634e+00  2.55707969e+00 -2.46242097e-05 
 3.86400000e-04  2.50065469e+00  4.45508801e+00  4.51335537e+00  2.55275205e+00  2.55453758e+00  2.55534768e+00 -2.46379411e-05 
 3.91400000e-04  2.50063062e+00  4.45527449e+00  4.51148848e+00  2.55087998e+00  2.55272211e+00  2.55355827e+00 -2.46520969e-05 
 3.96400000e-04  2.50060593e+00  4.45546576e+00  4.50956783e+00  2.54895434e+00  2.55085149e+00  2.55171299e+00 -2.46666653e-05 
 4.01400000e-04  2.50058065e+00  4.45566162e+00  4.50759510e+00  2.54697681e+00  2.54892735e+00  2.54981344e+00 -2.46816338e-05 
 4.06400000e-04  2.50055479e+00  4.45586186e+00  4.50557202e+00  2.54494914e+00  2.54695135e+00  2.54786126e+00 -2.46969896e-05 
 4.11400000e-04  2.50052838e+00  4.45606627e+00  4.50350038e+00  2.54287311e+00  2.54492523e+00  2.54585817e+00 -2.47127194e-05 
 4.16400000e-04  2.50050145e+00  4.45627465e+00  4.50138201e+00  2.54075056e+00  2.54285078e+00  2.54380591e+00 -2.47288094e-05 
 4.21400000e-04  2.50047403e+00  4.45648677e+00  4.49921881e+00  2.53858339e+00  2.54072984e+00  2.54170633e+00 -2.47452456e-05 
 4.26400000e-04  2.50044614e+00  4.45670243e+00  4.49701272e+00  2.53637355e+00  2.53856431e+00  2.53956127e+00 -2.47620134e-05 
 4.31400000e-04  2.50041780e+00  4.45692140e+00  4.49476574e+00  2.53412304e+00  2.53635614e+00  2.53737268e+00 -2.47790979e-05 
 4.36400000e-04  2.50038906e+00  4.45714345e+00  4.49247992e+00  2.53183393e+00  2.53410733e+00  2.53514253e+00 -2.47964835e-05 
 4.41400000e-04  2.50035993e+00  4.45736836e+00  4.49015736e+00  2.52950830e+00  2.53181993e+00  2.53287284e+00 -2.48141547e-05 
 4.46400000e-04  2.50033045e+00  4.45759591e+00  4.48780021e+00  2.52714832e+00  2.52949604e+00  2.53056570e+00 -2.48320952e-05 
 4.51400000e-04  2.50030064e+00  4.45782585e+00  4.48541065e+00  2.52475616e+00  2.52713782e+00  2.52822323e+00 -2.48502885e-05 
 4.56400000e-04  2.50027053e+00  4.45805795e+00  4.48299093e+00  2.52233409e+00  2.52474744e+00  2.52584760e+00 -2.48687178e-05 
 4.61400000e-04  2.50024016e+00  4.45829199e+00  4.48054332e+00  2.51988437e+00  2.52232716e+00  2.52344104e+00 -2.48873658e-05 
 4.66400000e-04  2.50020955e+00  4.45852772e+00  4.47807014e+00  2.51740932e+00  2.51987926e+00  2.52100580e+00 -2.49062150e-05 
 4.71400000e-04  2.50017873e+00  4.45876491e+00  4.47557375e+00  2.51491132e+00  2.51740604e+00  2.51854418e+00 -2.49252474e-05 
 4.76400000e-04  2.50014774e+00  4.45900332e+00  4.47305655e+00  2.51239275e+00  2.51490988e+00  2.51605854e+00 -2.49444450e-05 
 4.81400000e-04  2.50011660e+00  4.45924271e+00  4.47052097e+00  2.50985606e+00  2.51239317e+00  2.51355124e+00 -2.49637893e-05 
 4.86400000e-04  2.50008535e+00  4.45948284e+00  4.46796946e+00  2.50730369e+00  2.50985834e+00  2.51102469e+00 -2.49832615e-05 
 4.91400000e-04  2.50005401e+00  4.45972348e+00  4.46540452e+00  2.50473815e+00  2.50730785e+00  2.50848136e+00 -2.50028426e-05 
 4.96400000e-04  2.50002262e+00  4.45996439e+00  4.46282867e+00  2.50216196e+00  2.50474419e+00  2.50592371e+00 -2.50225135e-05 
 5.01400000e-04  2.49999120e+00  4.46020532e+00  4.46024446e+00  2.49957765e+00  2.50216988e+00  2.50335425e+00 -2.50422548e-05 
 5.06400000e-04  2.49995980e+00  4.46044604e+00  4.45765444e+00  2.49698781e+00  2.49958746e+00  2.50077552e+00 -2.50620467e-05 
 5.11400000e-04  2.49992843e+00  4.46068632e+00  4.45506120e+00  2.49439500e+00  2.49699950e+00  2.49819006e+00 -2.50818696e-05 
 5.16400000e-04  2.49989714e+00  4.46092591e+00  4.45246735e+00  2.49180184e+00  2.49440858e+00  2.49560045e+00 -2.51017034e-05 
 5.21400000e-04  2.49986594e+00  4.46116459e+00  4.44987550e+00  2.48921094e+00  2.49181729e+00  2.49300929e+00 -2.51215282e-05 
 5.26400000e-04  2.49983488e+00  4.46140211e+00  4.44728828e+00  2.48662492e+00  2.48922827e+00  2.49041918e+00 -2.51413237e-05 
 5.31400000e-04  2.49980399e+00  4.46163826e+00  4.44470831e+00  2.48404643e+00  2.48664412e+00  2.48783273e+00 -2.51610698e-05 
 5.36400000e-04  2.49977328e+00  4.46187279e+00  4.44213825e+00  2.48147809e+00  2.48406747e+00  2.48525259e+00 -2.51807461e-05 
 5.41400000e-04  2.49974280e+00  4.46210549e+00  4.43958073e+00  2.47892254e+00  2.48150098e+00  2.48268138e+00 -2.52003323e-05 
 5.46400000e-04  2.49971257e+00  4.46233613e+00  4.43703838e+00  2.47638243e+00  2.47894726e+00  2.48012173e+00 -2.52198080e-05 
 5.51400000e-04  2.49968263e+00  4.46256448e+00  4.43451385e+00  2.47386039e+00  2.47640896e+00  2.47757629e+00 -2.52391529e-05 
 5.56400000e-04  2.49965300e+00  4.46279033e+00  4.43200976e+00  2.47135904e+00  2.47388871e+00  2.47504769e+00 -2.52583467e-05 
 5.61400000e-04  2.49962371e+00  4.46301346e+00  4.42952873e+00  2.46888100e+00  2.47138913e+00  2.47253855e+00 -2.52773693e-05 
 5.66400000e-04  2.49959479e+00  4.46323366e+00  4.42707336e+00  2.46642886e+00  2.46891283e+00  2.47005150e+00 -2.52962004e-05 
 5.71400000e-04  2.49956628e+00  4.46345071e+00  4.42464624e+00  2.46400521e+00  2.46646241e+00  2.46758913e+00 -2.53148201e-05 
 5.76400000e-04  2.49953819e+00  4.46366442e+00  4.42224992e+00  2.46161261e+00  2.46404045e+00  2.46515403e+00 -2.53332085e-05 
 5.81400000e-04  2.49951056e+00  4.46387457e+00  4.41988694e+00  2.45925360e+00  2.46164951e+00  2.46274877e+00 -2.53513459e-05 
 5.86400000e-04  2.49948341e+00  4.46408098e+00  4.41755983e+00  2.45693068e+00  2.45929212e+00  2.46037590e+00 -2.53692128e-05 
 5.91400000e-04  2.49945677e+00  4.46428344e+00  4.41527107e+00  2.45464633e+00  2.45697079e+00  2.45803794e+00 -2.53867899e-05 
 5.96400000e-04  2.49943066e+00  4.46448176e+00  4.41302309e+00  2.45240301e+00  2.45468800e+00  2.45573737e+00 -2.54040583e-05 
 6.01400000e-04  2.49940512e+00  4.46467576e+00  4.41081832e+00  2.45020311e+00  2.45244619e+00  2.45347667e+00 -2.54209990e-05 
 6.06400000e-04  2.49938017e+00  4.46486526e+00  4.40865913e+00  2.44804901e+00  2.45024776e+00  2.45125824e+00 -2.54375938e-05 
 6.11400000e-04  2.49935582e+00  4.46505007e+00  4.40654785e+00  2.44594303e+00  2.44809509e+00  2.44908448e+00 -2.54538244e-05 
 6.16400000e-04  2.49933212e+00  4.46523003e+00  4.40448677e+00  2.44388745e+00  2.44599050e+00  2.44695772e+00 -2.54696730e-05 
 6.21400000e-04  2.49930907e+00  4.46540497e+00  4.40247811e+00  2.44188450e+00  2.44393626e+00  2.44488028e+00 -2.54851222e-05 
 6.26400000e-04  2.49928670e+00  4.46557472e+00  4.40052406e+00  2.43993636e+00  2.44193460e+00  2.44285439e+00 -2.55001550e-05 
 6.31400000e-04  2.49926504e+00  4.46573913e+00  4.39862676e+00  2.43804516e+00  2.43998770e+00  2.44088227e+00 -2.55147548e-05 
 6.36400000e-04  2.49924410e+00  4.46589805e+00  4.39678827e+00  2.43621296e+00  2.43809769e+00  2.43896605e+00 -2.55289054e-05 
 6.41400000e-04  2.49922391e+00  4.46605132e+00  4.39501061e+00  2.43444176e+00  2.43626662e+00  2.43710782e+00 -2.55425911e-05 
 6.46400000e-04  2.49920448e+00  4.46619881e+00  4.39329572e+00  2.43273351e+00  2.43449649e+00  2.43530963e+00 -2.55557967e-05 
 6.51400000e-04  2.49918584e+00  4.46634039e+00  4.39164548e+00  2.43109009e+00  2.43278926e+00  2.43357343e+00 -2.55685074e-05 
 6.56400000e-04  2.49916801e+00  4.46647591e+00  4.39006172e+00  2.42951329e+00  2.43114680e+00  2.43190114e+00 -2.55807090e-05 
 6.61400000e-04  2.49915099e+00  4.46660526e+00  4.38854617e+00  2.42800487e+00  2.42957090e+00  2.43029459e+00 -2.55923879e-05 
 6.66400000e-04  2.49913481e+00  4.46672831e+00  4.38710051e+00  2.42656648e+00  2.42806332e+00  2.42875555e+00 -2.56035311e-05 
 6.71400000e-04  2.49911949e+00  4.46684496e+00  4.38572634e+00  2.42519972e+00  2.42662571e+00  2.42728572e+00 -2.56141259e-05 
 6.76400000e-04  2.49910503e+00  4.46695510e+00  4.38442517e+00  2.42390610e+00  2.42525966e+00  2.42588672e+00 -2.56241605e-05 
 6.81400000e-04  2.49909146e+00  4.46705863e+00  4.38319845e+00  2.42268705e+00  2.42396668e+00  2.42456010e+00 -2.56336235e-05 
 6.86400000e-04  2.49907879e+00  4.46715544e+00  4.38204754e+00  2.42154392e+00  2.42274821e+00  2.42330734e+00 -2.56425044e-05 
 6.91400000e-04  2.49906702e+00  4.46724547e+00  4.38097386e+00  2.42047814e+00  2.42160566e+00  2.42212983e+00 -2.56507918e-05 
 6.96400000e-04  2.49905618e+00  4.46732862e+00  4.37997842e+00  2.41949071e+00  2.42054028e+00  2.42102893e+00 -2.56584780e-05 
 7.01400000e-04  2.49904626e+00  4.46740481e+00  4.37906220e+00  2.41858258e+00  2.41955315e+00  2.42000579e+00 -2.56655553e-05 
 7.06400000e-04  2.49903729e+00  4.46747398e+00  4.37822639e+00  2.41775496e+00  2.41864537e+00  2.41906149e+00 -2.56720143e-05 
 7.11400000e-04  2.49902927e+00  4.46753606e+00  4.37747192e+00  2.41700875e+00  2.41781800e+00  2.41819711e+00 -2.56778477e-05 
 7.16400000e-04  2.49902220e+00  4.46759099e+00  4.37679963e+00  2.41634479e+00  2.41707197e+00  2.41741365e+00 -2.56830489e-05 
 7.21400000e-04  2.49901610e+00  4.46763874e+00  4.37621026e+00  2.41576382e+00  2.41640811e+00  2.41671197e+00 -2.56876121e-05 
 7.26400000e-04  2.49901097e+00  4.46767925e+00  4.37570447e+00  2.41526648e+00  2.41582717e+00  2.41609288e+00 -2.56915320e-05 
 7.31400000e-04  2.49900682e+00  4.46771249e+00  4.37528283e+00  2.41485332e+00  2.41532979e+00  2.41555705e+00 -2.56948042e-05 
