 time            v(vin)          v(b1_collector) v(b2_collector) v(vout_drv)     v(vfilt1)       v(vout_final)   i(vdd)         
 0.00000000e+00  2.50000000e+00  4.44618444e+00  4.44618444e+00  2.50000000e+00  2.50000000e+00  2.50000000e+00 -1.30273249e-05 
 5.00000000e-08  2.50000031e+00  4.44618436e+00  4.44618446e+00  2.50000002e+00  2.50000000e+00  2.50000000e+00 -1.30273254e-05 
 1.00000000e-07  2.50000063e+00  4.44618419e+00  4.44618453e+00  2.50000009e+00  2.50000000e+00  2.50000000e+00 -1.30273262e-05 
 2.00000000e-07  2.50000126e+00  4.44618370e+00  4.44618480e+00  2.50000036e+00  2.50000000e+00  2.50000000e+00 -1.30273280e-05 
 4.00000000e-07  2.50000251e+00  4.44618182e+00  4.44618657e+00  2.50000213e+00  2.50000002e+00  2.50000000e+00 -1.30273289e-05 
 8.00000000e-07  2.50000503e+00  4.44617502e+00  4.44619851e+00  2.50001407e+00  2.50000035e+00  2.50000003e+00 -1.30272857e-05 
 1.60000000e-06  2.50001005e+00  4.44615252e+00  4.44627185e+00  2.50008740e+00  2.50000598e+00  2.50000096e+00 -1.30268585e-05 
 3.20000000e-06  2.50002010e+00  4.44608752e+00  4.44664185e+00  2.50045740e+00  2.50007380e+00  2.50002105e+00 -1.30242914e-05 
 6.40000000e-06  2.50004020e+00  4.44592952e+00  4.44803581e+00  2.50185129e+00  2.50058897e+00  2.50027568e+00 -1.30138817e-05 
 1.14000000e-05  2.50007157e+00  4.44566982e+00  4.45093751e+00  2.50475265e+00  2.50235221e+00  2.50152038e+00 -1.29916235e-05 
 1.64000000e-05  2.50010286e+00  4.44541075e+00  4.45398620e+00  2.50780072e+00  2.50484042e+00  2.50368281e+00 -1.29681203e-05 
 2.14000000e-05  2.50013406e+00  4.44515207e+00  4.45700383e+00  2.51081741e+00  2.50762765e+00  2.50634034e+00 -1.29448757e-05 
 2.64000000e-05  2.50016512e+00  4.44489421e+00  4.46000457e+00  2.51381693e+00  2.51053732e+00  2.50919674e+00 -1.29217666e-05 
 3.14000000e-05  2.50019601e+00  4.44463737e+00  4.46298334e+00  2.51679417e+00  2.51348919e+00  2.51213061e+00 -1.28988341e-05 
 3.64000000e-05  2.50022672e+00  4.44438184e+00  4.46593767e+00  2.51974667e+00  2.51644605e+00  2.51508583e+00 -1.28760967e-05 
 4.14000000e-05  2.50025720e+00  4.44412785e+00  4.46886464e+00  2.52267152e+00  2.51939029e+00  2.51803618e+00 -1.28535768e-05 
 4.64000000e-05  2.50028743e+00  4.44387567e+00  4.47176151e+00  2.52556597e+00  2.52231237e+00  2.52096863e+00 -1.28312954e-05 
 5.14000000e-05  2.50031737e+00  4.44362555e+00  4.47462554e+00  2.52842731e+00  2.52520671e+00  2.52387583e+00 -1.28092733e-05 
 5.64000000e-05  2.50034700e+00  4.44337775e+00  4.47745408e+00  2.53125286e+00  2.52806927e+00  2.52675308e+00 -1.27875309e-05 
 6.14000000e-05  2.50037629e+00  4.44313252e+00  4.48024449e+00  2.53404001e+00  2.53089684e+00  2.52959680e+00 -1.27660881e-05 
 6.64000000e-05  2.50040521e+00  4.44289012e+00  4.48299422e+00  2.53678619e+00  2.53368653e+00  2.53240397e+00 -1.27449644e-05 
 7.14000000e-05  2.50043372e+00  4.44265078e+00  4.48570076e+00  2.53948892e+00  2.53643570e+00  2.53517183e+00 -1.27241788e-05 
 7.64000000e-05  2.50046181e+00  4.44241476e+00  4.48836167e+00  2.54214575e+00  2.53914177e+00  2.53789777e+00 -1.27037497e-05 
 8.14000000e-05  2.50048944e+00  4.44218230e+00  4.49097457e+00  2.54475430e+00  2.54180229e+00  2.54057929e+00 -1.26836953e-05 
 8.64000000e-05  2.50051659e+00  4.44195365e+00  4.49353712e+00  2.54731226e+00  2.54441486e+00  2.54321396e+00 -1.26640330e-05 
 9.14000000e-05  2.50054323e+00  4.44172903e+00  4.49604709e+00  2.54981736e+00  2.54697715e+00  2.54579942e+00 -1.26447798e-05 
 9.64000000e-05  2.50056934e+00  4.44150868e+00  4.49850226e+00  2.55226743e+00  2.54948690e+00  2.54833338e+00 -1.26259523e-05 
 1.01400000e-04  2.50059488e+00  4.44129284e+00  4.50090051e+00  2.55466033e+00  2.55194192e+00  2.55081362e+00 -1.26075665e-05 
 1.06400000e-04  2.50061983e+00  4.44108174e+00  4.50323979e+00  2.55699403e+00  2.55434007e+00  2.55323797e+00 -1.25896378e-05 
 1.11400000e-04  2.50064418e+00  4.44087558e+00  4.50551810e+00  2.55926652e+00  2.55667930e+00  2.55560434e+00 -1.25721810e-05 
 1.16400000e-04  2.50066788e+00  4.44067459e+00  4.50773351e+00  2.56147590e+00  2.55895760e+00  2.55791070e+00 -1.25552106e-05 
 1.21400000e-04  2.50069093e+00  4.44047899e+00  4.50988417e+00  2.56362030e+00  2.56117306e+00  2.56015511e+00 -1.25387405e-05 
 1.26400000e-04  2.50071330e+00  4.44028897e+00  4.51196829e+00  2.56569796e+00  2.56332381e+00  2.56233566e+00 -1.25227839e-05 
 1.31400000e-04  2.50073496e+00  4.44010475e+00  4.51398416e+00  2.56770716e+00  2.56540807e+00  2.56445054e+00 -1.25073535e-05 
 1.36400000e-04  2.50075590e+00  4.43992652e+00  4.51593012e+00  2.56964625e+00  2.56742412e+00  2.56649800e+00 -1.24924617e-05 
 1.41400000e-04  2.50077609e+00  4.43975446e+00  4.51780460e+00  2.57151368e+00  2.56937031e+00  2.56847635e+00 -1.24781200e-05 
 1.46400000e-04  2.50079552e+00  4.43958877e+00  4.51960610e+00  2.57330793e+00  2.57124506e+00  2.57038399e+00 -1.24643397e-05 
 1.51400000e-04  2.50081416e+00  4.43942962e+00  4.52133316e+00  2.57502758e+00  2.57304687e+00  2.57221938e+00 -1.24511314e-05 
 1.56400000e-04  2.50083199e+00  4.43927718e+00  4.52298444e+00  2.57667127e+00  2.57477429e+00  2.57398104e+00 -1.24385050e-05 
 1.61400000e-04  2.50084901e+00  4.43913161e+00  4.52455862e+00  2.57823770e+00  2.57642595e+00  2.57566758e+00 -1.24264702e-05 
 1.66400000e-04  2.50086519e+00  4.43899308e+00  4.52605447e+00  2.57972566e+00  2.57800056e+00  2.57727766e+00 -1.24150360e-05 
 1.71400000e-04  2.50088051e+00  4.43886173e+00  4.52747085e+00  2.58113400e+00  2.57949688e+00  2.57881002e+00 -1.24042110e-05 
 1.76400000e-04  2.50089497e+00  4.43873771e+00  4.52880665e+00  2.58246162e+00  2.58091377e+00  2.58026346e+00 -1.23940030e-05 
 1.81400000e-04  2.50090854e+00  4.43862114e+00  4.53006086e+00  2.58370752e+00  2.58225012e+00  2.58163688e+00 -1.23844195e-05 
 1.86400000e-04  2.50092121e+00  4.43851217e+00  4.53123252e+00  2.58487075e+00  2.58350491e+00  2.58292920e+00 -1.23754676e-05 
 1.91400000e-04  2.50093298e+00  4.43841090e+00  4.53232075e+00  2.58595044e+00  2.58467719e+00  2.58413946e+00 -1.23671537e-05 
 1.96400000e-04  2.50094382e+00  4.43831744e+00  4.53332472e+00  2.58694576e+00  2.58576607e+00  2.58526672e+00 -1.23594837e-05 
 2.01400000e-04  2.50095374e+00  4.43823190e+00  4.53424369e+00  2.58785599e+00  2.58677073e+00  2.58631014e+00 -1.23524631e-05 
 2.06400000e-04  2.50096271e+00  4.43815438e+00  4.53507696e+00  2.58868044e+00  2.58769043e+00  2.58726894e+00 -1.23460970e-05 
 2.11400000e-04  2.50097073e+00  4.43808494e+00  4.53582393e+00  2.58941850e+00  2.58852448e+00  2.58814240e+00 -1.23403897e-05 
 2.16400000e-04  2.50097780e+00  4.43802369e+00  4.53648404e+00  2.59006963e+00  2.58927226e+00  2.58892987e+00 -1.23353453e-05 
 2.21400000e-04  2.50098390e+00  4.43797066e+00  4.53705679e+00  2.59063335e+00  2.58993322e+00  2.58963078e+00 -1.23309673e-05 
 2.26400000e-04  2.50098903e+00  4.43792594e+00  4.53754178e+00  2.59110925e+00  2.59050687e+00  2.59024460e+00 -1.23272589e-05 
 2.31400000e-04  2.50099318e+00  4.43788957e+00  4.53793869e+00  2.59149703e+00  2.59099280e+00  2.59077089e+00 -1.23242221e-05 
 2.36400000e-04  2.50099635e+00  4.43786158e+00  4.53824714e+00  2.59179632e+00  2.59139067e+00  2.59120927e+00 -1.23218598e-05 
 2.41400000e-04  2.50099854e+00  4.43784200e+00  4.53846692e+00  2.59200690e+00  2.59170013e+00  2.59155940e+00 -1.23201738e-05 
 2.46400000e-04  2.50099974e+00  4.43783086e+00  4.53859790e+00  2.59212868e+00  2.59192099e+00  2.59182102e+00 -1.23191645e-05 
 2.51400000e-04  2.50099996e+00  4.43782818e+00  4.53863999e+00  2.59216156e+00  2.59205309e+00  2.59199395e+00 -1.23188330e-05 
 2.56400000e-04  2.50099919e+00  4.43783395e+00  4.53859315e+00  2.59210551e+00  2.59209633e+00  2.59207808e+00 -1.23191793e-05 
 2.61400000e-04  2.50099744e+00  4.43784816e+00  4.53845742e+00  2.59196057e+00  2.59205070e+00  2.59207333e+00 -1.23202034e-05 
 2.66400000e-04  2.50099470e+00  4.43787081e+00  4.53823288e+00  2.59172685e+00  2.59191622e+00  2.59197972e+00 -1.23219045e-05 
 2.71400000e-04  2.50099097e+00  4.43790186e+00  4.53791967e+00  2.59140448e+00  2.59169298e+00  2.59179731e+00 -1.23242819e-05 
 2.76400000e-04  2.50098627e+00  4.43794129e+00  4.53751803e+00  2.59099372e+00  2.59138113e+00  2.59152622e+00 -1.23273336e-05 
 2.81400000e-04  2.50098060e+00  4.43798904e+00  4.53702828e+00  2.59049489e+00  2.59098092e+00  2.59116664e+00 -1.23310574e-05 
 2.86400000e-04  2.50097396e+00  4.43804507e+00  4.53645075e+00  2.58990834e+00  2.59049264e+00  2.59071887e+00 -1.23354510e-05 
 2.91400000e-04  2.50096636e+00  4.43810932e+00  4.53578586e+00  2.58923450e+00  2.58991663e+00  2.59018321e+00 -1.23405113e-05 
 2.96400000e-04  2.50095780e+00  4.43818171e+00  4.53503410e+00  2.58847385e+00  2.58925332e+00  2.58956005e+00 -1.23462348e-05 
 3.01400000e-04  2.50094830e+00  4.43826216e+00  4.53419602e+00  2.58762697e+00  2.58850321e+00  2.58884986e+00 -1.23526175e-05 
 3.06400000e-04  2.50093786e+00  4.43835059e+00  4.53327224e+00  2.58669447e+00  2.58766683e+00  2.58805315e+00 -1.23596550e-05 
 3.11400000e-04  2.50092650e+00  4.43844691e+00  4.53226345e+00  2.58567706e+00  2.58674482e+00  2.58717052e+00 -1.23673423e-05 
 3.16400000e-04  2.50091423e+00  4.43855099e+00  4.53117039e+00  2.58457549e+00  2.58573785e+00  2.58620262e+00 -1.23756739e-05 
 3.21400000e-04  2.50090105e+00  4.43866274e+00  4.52999389e+00  2.58339059e+00  2.58464668e+00  2.58515016e+00 -1.23846440e-05 
 3.26400000e-04  2.50088698e+00  4.43878204e+00  4.52873483e+00  2.58212325e+00  2.58347213e+00  2.58401396e+00 -1.23942460e-05 
 3.31400000e-04  2.50087204e+00  4.43890874e+00  4.52739417e+00  2.58077445e+00  2.58221509e+00  2.58279484e+00 -1.24044731e-05 
 3.36400000e-04  2.50085623e+00  4.43904271e+00  4.52597293e+00  2.57934520e+00  2.58087651e+00  2.58149375e+00 -1.24153177e-05 
 3.41400000e-04  2.50083958e+00  4.43918381e+00  4.52447221e+00  2.57783662e+00  2.57945742e+00  2.58011168e+00 -1.24267719e-05 
 3.46400000e-04  2.50082210e+00  4.43933189e+00  4.52289316e+00  2.57624987e+00  2.57795890e+00  2.57864968e+00 -1.24388272e-05 
 3.51400000e-04  2.50080382e+00  4.43948678e+00  4.52123702e+00  2.57458619e+00  2.57638214e+00  2.57710889e+00 -1.24514745e-05 
 3.56400000e-04  2.50078473e+00  4.43964832e+00  4.51950510e+00  2.57284690e+00  2.57472834e+00  2.57549050e+00 -1.24647043e-05 
 3.61400000e-04  2.50076488e+00  4.43981634e+00  4.51769876e+00  2.57103336e+00  2.57299883e+00  2.57379580e+00 -1.24785065e-05 
 3.66400000e-04  2.50074426e+00  4.43999065e+00  4.51581944e+00  2.56914704e+00  2.57119496e+00  2.57202610e+00 -1.24928705e-05 
 3.71400000e-04  2.50072292e+00  4.44017107e+00  4.51386867e+00  2.56718944e+00  2.56931818e+00  2.57018283e+00 -1.25077851e-05 
 3.76400000e-04  2.50070086e+00  4.44035741e+00  4.51184801e+00  2.56516217e+00  2.56736999e+00  2.56826747e+00 -1.25232386e-05 
 3.81400000e-04  2.50067811e+00  4.44054947e+00  4.50975913e+00  2.56306688e+00  2.56535200e+00  2.56628156e+00 -1.25392187e-05 
 3.86400000e-04  2.50065469e+00  4.44074703e+00  4.50760374e+00  2.56090529e+00  2.56326583e+00  2.56422672e+00 -1.25557126e-05 
 3.91400000e-04  2.50063062e+00  4.44094991e+00  4.50538365e+00  2.55867922e+00  2.56111322e+00  2.56210465e+00 -1.25727071e-05 
 3.96400000e-04  2.50060593e+00  4.44115787e+00  4.50310071e+00  2.55639053e+00  2.55889597e+00  2.55991709e+00 -1.25901882e-05 
 4.01400000e-04  2.50058065e+00  4.44137070e+00  4.50075686e+00  2.55404116e+00  2.55661591e+00  2.55766589e+00 -1.26081414e-05 
 4.06400000e-04  2.50055479e+00  4.44158818e+00  4.49835410e+00  2.55163311e+00  2.55427500e+00  2.55535294e+00 -1.26265519e-05 
 4.11400000e-04  2.50052838e+00  4.44181008e+00  4.49589449e+00  2.54916846e+00  2.55187523e+00  2.55298020e+00 -1.26454041e-05 
 4.16400000e-04  2.50050145e+00  4.44203617e+00  4.49338018e+00  2.54664936e+00  2.54941866e+00  2.55054972e+00 -1.26646820e-05 
 4.21400000e-04  2.50047403e+00  4.44226621e+00  4.49081336e+00  2.54407800e+00  2.54690742e+00  2.54806359e+00 -1.26843690e-05 
 4.26400000e-04  2.50044614e+00  4.44249996e+00  4.48819630e+00  2.54145667e+00  2.54434372e+00  2.54552399e+00 -1.27044480e-05 
 4.31400000e-04  2.50041780e+00  4.44273718e+00  4.48553134e+00  2.53878770e+00  2.54172983e+00  2.54293314e+00 -1.27249014e-05 
 4.36400000e-04  2.50038906e+00  4.44297763e+00  4.48282087e+00  2.53607348e+00  2.53906806e+00  2.54029335e+00 -1.27457111e-05 
 4.41400000e-04  2.50035993e+00  4.44322106e+00  4.48006734e+00  2.53331648e+00  2.53636081e+00  2.53760698e+00 -1.27668586e-05 
 4.46400000e-04  2.50033045e+00  4.44346722e+00  4.47727327e+00  2.53051922e+00  2.53361053e+00  2.53487645e+00 -1.27883246e-05 
 4.51400000e-04  2.50030064e+00  4.44371586e+00  4.47444123e+00  2.52768427e+00  2.53081973e+00  2.53210424e+00 -1.28100898e-05 
 4.56400000e-04  2.50027053e+00  4.44396672e+00  4.47157385e+00  2.52481427e+00  2.52799099e+00  2.52929291e+00 -1.28321340e-05 
 4.61400000e-04  2.50024016e+00  4.44421956e+00  4.46867382e+00  2.52191190e+00  2.52512692e+00  2.52644504e+00 -1.28544368e-05 
 4.66400000e-04  2.50020955e+00  4.44447410e+00  4.46574386e+00  2.51897990e+00  2.52223020e+00  2.52356329e+00 -1.28769774e-05 
 4.71400000e-04  2.50017873e+00  4.44473011e+00  4.46278676e+00  2.51602105e+00  2.51930356e+00  2.52065036e+00 -1.28997344e-05 
 4.76400000e-04  2.50014774e+00  4.44498731e+00  4.45980536e+00  2.51303819e+00  2.51634979e+00  2.51770902e+00 -1.29226862e-05 
 4.81400000e-04  2.50011660e+00  4.44524546e+00  4.45680252e+00  2.51003420e+00  2.51337170e+00  2.51474207e+00 -1.29458106e-05 
 4.86400000e-04  2.50008535e+00  4.44550429e+00  4.45378116e+00  2.50701199e+00  2.51037218e+00  2.51175235e+00 -1.29690854e-05 
 4.91400000e-04  2.50005401e+00  4.44576356e+00  4.45074424e+00  2.50397452e+00  2.50735412e+00  2.50874276e+00 -1.29924878e-05 
 4.96400000e-04  2.50002262e+00  4.44602299e+00  4.44769474e+00  2.50092478e+00  2.50432048e+00  2.50571624e+00 -1.30159948e-05 
 5.01400000e-04  2.49999120e+00  4.44628233e+00  4.44463570e+00  2.49786579e+00  2.50127425e+00  2.50267574e+00 -1.30395830e-05 
 5.06400000e-04  2.49995980e+00  4.44654134e+00  4.44157016e+00  2.49480062e+00  2.49821844e+00  2.49962428e+00 -1.30632289e-05 
 5.11400000e-04  2.49992843e+00  4.44679975e+00  4.43850120e+00  2.49173234e+00  2.49515610e+00  2.49656489e+00 -1.30869087e-05 
 5.16400000e-04  2.49989714e+00  4.44705731e+00  4.43543193e+00  2.48866404e+00  2.49209030e+00  2.49350063e+00 -1.31105984e-05 
 5.21400000e-04  2.49986594e+00  4.44731377e+00  4.43236545e+00  2.48559885e+00  2.48902415e+00  2.49043458e+00 -1.31342738e-05 
 5.26400000e-04  2.49983488e+00  4.44756889e+00  4.42930492e+00  2.48253991e+00  2.48596075e+00  2.48736986e+00 -1.31579106e-05 
 5.31400000e-04  2.49980399e+00  4.44782241e+00  4.42625346e+00  2.47949035e+00  2.48290324e+00  2.48430958e+00 -1.31814844e-05 
 5.36400000e-04  2.49977328e+00  4.44807409e+00  4.42321425e+00  2.47645334e+00  2.47985475e+00  2.48125689e+00 -1.32049706e-05 
 5.41400000e-04  2.49974280e+00  4.44832369e+00  4.42019044e+00  2.47343204e+00  2.47681845e+00  2.47821492e+00 -1.32283447e-05 
 5.46400000e-04  2.49971257e+00  4.44857097e+00  4.41718518e+00  2.47042959e+00  2.47379747e+00  2.47518684e+00 -1.32515820e-05 
 5.51400000e-04  2.49968263e+00  4.44881570e+00  4.41420164e+00  2.46744915e+00  2.47079499e+00  2.47217579e+00 -1.32746580e-05 
 5.56400000e-04  2.49965300e+00  4.44905763e+00  4.41124295e+00  2.46449387e+00  2.46781415e+00  2.46918493e+00 -1.32975481e-05 
 5.61400000e-04  2.49962371e+00  4.44929655e+00  4.40831227e+00  2.46156688e+00  2.46485808e+00  2.46621741e+00 -1.33202278e-05 
 5.66400000e-04  2.49959479e+00  4.44953222e+00  4.40541270e+00  2.45867130e+00  2.46192994e+00  2.46327637e+00 -1.33426727e-05 
 5.71400000e-04  2.49956628e+00  4.44976442e+00  4.40254734e+00  2.45581022e+00  2.45903282e+00  2.46036492e+00 -1.33648586e-05 
 5.76400000e-04  2.49953819e+00  4.44999293e+00  4.39971928e+00  2.45298672e+00  2.45616983e+00  2.45748617e+00 -1.33867614e-05 
 5.81400000e-04  2.49951056e+00  4.45021755e+00  4.39693156e+00  2.45020384e+00  2.45334404e+00  2.45464322e+00 -1.34083572e-05 
 5.86400000e-04  2.49948341e+00  4.45043805e+00  4.39418720e+00  2.44746459e+00  2.45055849e+00  2.45183910e+00 -1.34296224e-05 
 5.91400000e-04  2.49945677e+00  4.45065424e+00  4.39148917e+00  2.44477196e+00  2.44781620e+00  2.44907686e+00 -1.34505335e-05 
 5.96400000e-04  2.49943066e+00  4.45086591e+00  4.38884043e+00  2.44212886e+00  2.44512015e+00  2.44635948e+00 -1.34710676e-05 
 6.01400000e-04  2.49940512e+00  4.45107287e+00  4.38624385e+00  2.43953821e+00  2.44247327e+00  2.44368993e+00 -1.34912017e-05 
 6.06400000e-04  2.49938017e+00  4.45127493e+00  4.38370230e+00  2.43700283e+00  2.43987845e+00  2.44107111e+00 -1.35109137e-05 
 6.11400000e-04  2.49935582e+00  4.45147189e+00  4.38121856e+00  2.43452551e+00  2.43733855e+00  2.43850589e+00 -1.35301814e-05 
 6.16400000e-04  2.49933212e+00  4.45166358e+00  4.37879539e+00  2.43210901e+00  2.43485634e+00  2.43599709e+00 -1.35489833e-05 
 6.21400000e-04  2.49930907e+00  4.45184983e+00  4.37643545e+00  2.42975597e+00  2.43243458e+00  2.43354748e+00 -1.35672983e-05 
 6.26400000e-04  2.49928670e+00  4.45203046e+00  4.37414137e+00  2.42746903e+00  2.43007595e+00  2.43115976e+00 -1.35851058e-05 
 6.31400000e-04  2.49926504e+00  4.45220530e+00  4.37191569e+00  2.42525072e+00  2.42778305e+00  2.42883657e+00 -1.36023856e-05 
 6.36400000e-04  2.49924410e+00  4.45237420e+00  4.36976091e+00  2.42310352e+00  2.42555844e+00  2.42658050e+00 -1.36191182e-05 
 6.41400000e-04  2.49922391e+00  4.45253701e+00  4.36767942e+00  2.42102982e+00  2.42340460e+00  2.42439406e+00 -1.36352846e-05 
 6.46400000e-04  2.49920448e+00  4.45269357e+00  4.36567355e+00  2.41903195e+00  2.42132393e+00  2.42227969e+00 -1.36508664e-05 
 6.51400000e-04  2.49918584e+00  4.45284375e+00  4.36374557e+00  2.41711216e+00  2.41931877e+00  2.42023975e+00 -1.36658459e-05 
 6.56400000e-04  2.49916801e+00  4.45298741e+00  4.36189762e+00  2.41527260e+00  2.41739136e+00  2.41827653e+00 -1.36802058e-05 
 6.61400000e-04  2.49915099e+00  4.45312442e+00  4.36013180e+00  2.41351534e+00  2.41554387e+00  2.41639224e+00 -1.36939298e-05 
 6.66400000e-04  2.49913481e+00  4.45325465e+00  4.35845010e+00  2.41184236e+00  2.41377838e+00  2.41458899e+00 -1.37070022e-05 
 6.71400000e-04  2.49911949e+00  4.45337799e+00  4.35685441e+00  2.41025557e+00  2.41209688e+00  2.41286882e+00 -1.37194079e-05 
 6.76400000e-04  2.49910503e+00  4.45349433e+00  4.35534653e+00  2.40875674e+00  2.41050127e+00  2.41123367e+00 -1.37311326e-05 
 6.81400000e-04  2.49909146e+00  4.45360357e+00  4.35392819e+00  2.40734759e+00  2.40899336e+00  2.40968539e+00 -1.37421628e-05 
 6.86400000e-04  2.49907879e+00  4.45370560e+00  4.35260097e+00  2.40602971e+00  2.40757486e+00  2.40822572e+00 -1.37524858e-05 
 6.91400000e-04  2.49906702e+00  4.45380034e+00  4.35136640e+00  2.40480459e+00  2.40624737e+00  2.40685634e+00 -1.37620898e-05 
 6.96400000e-04  2.49905618e+00  4.45388770e+00  4.35022587e+00  2.40367364e+00  2.40501240e+00  2.40557878e+00 -1.37709634e-05 
 7.01400000e-04  2.49904626e+00  4.45396760e+00  4.34918068e+00  2.40263813e+00  2.40387135e+00  2.40439450e+00 -1.37790966e-05 
 7.06400000e-04  2.49903729e+00  4.45403997e+00  4.34823201e+00  2.40169925e+00  2.40282553e+00  2.40330486e+00 -1.37864799e-05 
 7.11400000e-04  2.49902927e+00  4.45410475e+00  4.34738096e+00  2.40085807e+00  2.40187612e+00  2.40231108e+00 -1.37931046e-05 
 7.16400000e-04  2.49902220e+00  4.45416188e+00  4.34662848e+00  2.40011554e+00  2.40102421e+00  2.40141430e+00 -1.37989632e-05 
 7.21400000e-04  2.49901610e+00  4.45421131e+00  4.34597544e+00  2.39947252e+00  2.40027077e+00  2.40061554e+00 -1.38040489e-05 
 7.26400000e-04  2.49901097e+00  4.45425300e+00  4.34542262e+00  2.39892978e+00  2.39961667e+00  2.39991572e+00 -1.38083553e-05 
 7.31400000e-04  2.49900682e+00  4.45428690e+00  4.34497058e+00  2.39848787e+00  2.39906265e+00  2.39931565e+00 -1.38118781e-05 
