 time            v(vin)          v(b1_base)      v(b1_emitter)   v(b1_collector) v(b1_out)      
 0.00000000e+00  2.50000000e+00  1.12920737e+00  3.35518978e-01  3.36582829e+00  3.36582829e+00 
 1.00000000e-08  2.50000006e+00  1.12920743e+00  3.35519049e-01  3.36582800e+00  3.36582800e+00 
 2.00000000e-08  2.50000013e+00  1.12920749e+00  3.35519107e-01  3.36582773e+00  3.36582773e+00 
 4.00000000e-08  2.50000025e+00  1.12920762e+00  3.35519223e-01  3.36582717e+00  3.36582717e+00 
 8.00000000e-08  2.50000050e+00  1.12920787e+00  3.35519454e-01  3.36582604e+00  3.36582604e+00 
 1.60000000e-07  2.50000101e+00  1.12920837e+00  3.35519918e-01  3.36582379e+00  3.36582379e+00 
 3.20000000e-07  2.50000201e+00  1.12920938e+00  3.35520844e-01  3.36581928e+00  3.36581928e+00 
 6.40000000e-07  2.50000402e+00  1.12921139e+00  3.35522696e-01  3.36581027e+00  3.36581027e+00 
 1.28000000e-06  2.50000804e+00  1.12921541e+00  3.35526401e-01  3.36579225e+00  3.36579225e+00 
 2.28000000e-06  2.50001433e+00  1.12922169e+00  3.35532189e-01  3.36576409e+00  3.36576409e+00 
 3.28000000e-06  2.50002061e+00  1.12922797e+00  3.35537976e-01  3.36573593e+00  3.36573593e+00 
 4.28000000e-06  2.50002689e+00  1.12923426e+00  3.35543763e-01  3.36570778e+00  3.36570778e+00 
 5.28000000e-06  2.50003317e+00  1.12924054e+00  3.35549549e-01  3.36567963e+00  3.36567963e+00 
 6.28000000e-06  2.50003945e+00  1.12924681e+00  3.35555333e-01  3.36565149e+00  3.36565149e+00 
 7.28000000e-06  2.50004573e+00  1.12925309e+00  3.35561116e-01  3.36562335e+00  3.36562335e+00 
 8.28000000e-06  2.50005200e+00  1.12925937e+00  3.35566897e-01  3.36559523e+00  3.36559523e+00 
 9.28000000e-06  2.50005827e+00  1.12926564e+00  3.35572677e-01  3.36556711e+00  3.36556711e+00 
 1.02800000e-05  2.50006455e+00  1.12927191e+00  3.35578454e-01  3.36553900e+00  3.36553900e+00 
 1.12800000e-05  2.50007082e+00  1.12927818e+00  3.35584228e-01  3.36551091e+00  3.36551091e+00 
 1.22800000e-05  2.50007708e+00  1.12928444e+00  3.35590000e-01  3.36548283e+00  3.36548283e+00 
 1.32800000e-05  2.50008334e+00  1.12929070e+00  3.35595769e-01  3.36545476e+00  3.36545476e+00 
 1.42800000e-05  2.50008960e+00  1.12929696e+00  3.35601535e-01  3.36542671e+00  3.36542671e+00 
 1.52800000e-05  2.50009586e+00  1.12930322e+00  3.35607298e-01  3.36539867e+00  3.36539867e+00 
 1.62800000e-05  2.50010211e+00  1.12930947e+00  3.35613057e-01  3.36537066e+00  3.36537066e+00 
 1.72800000e-05  2.50010836e+00  1.12931571e+00  3.35618812e-01  3.36534266e+00  3.36534266e+00 
 1.82800000e-05  2.50011460e+00  1.12932196e+00  3.35624564e-01  3.36531468e+00  3.36531468e+00 
 1.92800000e-05  2.50012084e+00  1.12932819e+00  3.35630311e-01  3.36528671e+00  3.36528671e+00 
 2.02800000e-05  2.50012708e+00  1.12933443e+00  3.35636053e-01  3.36525878e+00  3.36525878e+00 
 2.12800000e-05  2.50013331e+00  1.12934066e+00  3.35641791e-01  3.36523086e+00  3.36523086e+00 
 2.22800000e-05  2.50013953e+00  1.12934688e+00  3.35647524e-01  3.36520297e+00  3.36520297e+00 
 2.32800000e-05  2.50014575e+00  1.12935309e+00  3.35653252e-01  3.36517510e+00  3.36517510e+00 
 2.42800000e-05  2.50015196e+00  1.12935931e+00  3.35658974e-01  3.36514726e+00  3.36514726e+00 
 2.52800000e-05  2.50015817e+00  1.12936551e+00  3.35664691e-01  3.36511945e+00  3.36511945e+00 
 2.62800000e-05  2.50016437e+00  1.12937171e+00  3.35670402e-01  3.36509167e+00  3.36509167e+00 
 2.72800000e-05  2.50017057e+00  1.12937790e+00  3.35676107e-01  3.36506391e+00  3.36506391e+00 
 2.82800000e-05  2.50017675e+00  1.12938409e+00  3.35681805e-01  3.36503619e+00  3.36503619e+00 
 2.92800000e-05  2.50018294e+00  1.12939026e+00  3.35687498e-01  3.36500849e+00  3.36500849e+00 
 3.02800000e-05  2.50018911e+00  1.12939644e+00  3.35693183e-01  3.36498084e+00  3.36498084e+00 
 3.12800000e-05  2.50019528e+00  1.12940260e+00  3.35698861e-01  3.36495321e+00  3.36495321e+00 
 3.22800000e-05  2.50020143e+00  1.12940875e+00  3.35704533e-01  3.36492562e+00  3.36492562e+00 
 3.32800000e-05  2.50020758e+00  1.12941490e+00  3.35710197e-01  3.36489806e+00  3.36489806e+00 
 3.42800000e-05  2.50021373e+00  1.12942104e+00  3.35715853e-01  3.36487054e+00  3.36487054e+00 
 3.52800000e-05  2.50021986e+00  1.12942717e+00  3.35721501e-01  3.36484306e+00  3.36484306e+00 
 3.62800000e-05  2.50022598e+00  1.12943329e+00  3.35727142e-01  3.36481562e+00  3.36481562e+00 
 3.72800000e-05  2.50023210e+00  1.12943941e+00  3.35732774e-01  3.36478822e+00  3.36478822e+00 
 3.82800000e-05  2.50023821e+00  1.12944551e+00  3.35738397e-01  3.36476086e+00  3.36476086e+00 
 3.92800000e-05  2.50024431e+00  1.12945160e+00  3.35744012e-01  3.36473355e+00  3.36473355e+00 
 4.02800000e-05  2.50025039e+00  1.12945769e+00  3.35749618e-01  3.36470627e+00  3.36470627e+00 
 4.12800000e-05  2.50025647e+00  1.12946376e+00  3.35755214e-01  3.36467904e+00  3.36467904e+00 
 4.22800000e-05  2.50026254e+00  1.12946983e+00  3.35760802e-01  3.36465186e+00  3.36465186e+00 
 4.32800000e-05  2.50026860e+00  1.12947588e+00  3.35766379e-01  3.36462473e+00  3.36462473e+00 
 4.42800000e-05  2.50027464e+00  1.12948192e+00  3.35771947e-01  3.36459764e+00  3.36459764e+00 
 4.52800000e-05  2.50028068e+00  1.12948796e+00  3.35777505e-01  3.36457060e+00  3.36457060e+00 
 4.62800000e-05  2.50028671e+00  1.12949398e+00  3.35783052e-01  3.36454361e+00  3.36454361e+00 
 4.72800000e-05  2.50029272e+00  1.12949999e+00  3.35788589e-01  3.36451667e+00  3.36451667e+00 
 4.82800000e-05  2.50029872e+00  1.12950598e+00  3.35794115e-01  3.36448979e+00  3.36448979e+00 
 4.92800000e-05  2.50030471e+00  1.12951197e+00  3.35799631e-01  3.36446295e+00  3.36446295e+00 
 5.02800000e-05  2.50031069e+00  1.12951794e+00  3.35805135e-01  3.36443618e+00  3.36443618e+00 
 5.12800000e-05  2.50031666e+00  1.12952391e+00  3.35810628e-01  3.36440945e+00  3.36440945e+00 
 5.22800000e-05  2.50032261e+00  1.12952986e+00  3.35816109e-01  3.36438279e+00  3.36438279e+00 
 5.32800000e-05  2.50032855e+00  1.12953579e+00  3.35821578e-01  3.36435618e+00  3.36435618e+00 
 5.42800000e-05  2.50033448e+00  1.12954171e+00  3.35827035e-01  3.36432963e+00  3.36432963e+00 
 5.52800000e-05  2.50034039e+00  1.12954762e+00  3.35832481e-01  3.36430314e+00  3.36430314e+00 
 5.62800000e-05  2.50034629e+00  1.12955352e+00  3.35837913e-01  3.36427671e+00  3.36427671e+00 
 5.72800000e-05  2.50035218e+00  1.12955940e+00  3.35843333e-01  3.36425034e+00  3.36425034e+00 
 5.82800000e-05  2.50035806e+00  1.12956527e+00  3.35848740e-01  3.36422403e+00  3.36422403e+00 
 5.92800000e-05  2.50036391e+00  1.12957113e+00  3.35854134e-01  3.36419779e+00  3.36419779e+00 
 6.02800000e-05  2.50036976e+00  1.12957697e+00  3.35859515e-01  3.36417161e+00  3.36417161e+00 
 6.12800000e-05  2.50037559e+00  1.12958279e+00  3.35864882e-01  3.36414550e+00  3.36414550e+00 
 6.22800000e-05  2.50038141e+00  1.12958860e+00  3.35870236e-01  3.36411945e+00  3.36411945e+00 
 6.32800000e-05  2.50038721e+00  1.12959440e+00  3.35875575e-01  3.36409348e+00  3.36409348e+00 
 6.42800000e-05  2.50039299e+00  1.12960018e+00  3.35880901e-01  3.36406757e+00  3.36406757e+00 
 6.52800000e-05  2.50039876e+00  1.12960594e+00  3.35886212e-01  3.36404173e+00  3.36404173e+00 
 6.62800000e-05  2.50040452e+00  1.12961169e+00  3.35891508e-01  3.36401596e+00  3.36401596e+00 
 6.72800000e-05  2.50041025e+00  1.12961742e+00  3.35896790e-01  3.36399027e+00  3.36399027e+00 
 6.82800000e-05  2.50041598e+00  1.12962314e+00  3.35902056e-01  3.36396464e+00  3.36396464e+00 
 6.92800000e-05  2.50042168e+00  1.12962884e+00  3.35907308e-01  3.36393909e+00  3.36393909e+00 
 7.02800000e-05  2.50042737e+00  1.12963452e+00  3.35912544e-01  3.36391362e+00  3.36391362e+00 
 7.12800000e-05  2.50043304e+00  1.12964019e+00  3.35917764e-01  3.36388822e+00  3.36388822e+00 
 7.22800000e-05  2.50043870e+00  1.12964583e+00  3.35922969e-01  3.36386290e+00  3.36386290e+00 
 7.32800000e-05  2.50044433e+00  1.12965147e+00  3.35928157e-01  3.36383766e+00  3.36383766e+00 
 7.42800000e-05  2.50044996e+00  1.12965708e+00  3.35933330e-01  3.36381249e+00  3.36381249e+00 
 7.52800000e-05  2.50045556e+00  1.12966268e+00  3.35938485e-01  3.36378741e+00  3.36378741e+00 
 7.62800000e-05  2.50046114e+00  1.12966825e+00  3.35943625e-01  3.36376241e+00  3.36376241e+00 
 7.72800000e-05  2.50046671e+00  1.12967381e+00  3.35948747e-01  3.36373749e+00  3.36373749e+00 
 7.82800000e-05  2.50047226e+00  1.12967935e+00  3.35953853e-01  3.36371265e+00  3.36371265e+00 
 7.92800000e-05  2.50047778e+00  1.12968488e+00  3.35958941e-01  3.36368789e+00  3.36368789e+00 
 8.02800000e-05  2.50048329e+00  1.12969038e+00  3.35964011e-01  3.36366322e+00  3.36366322e+00 
 8.12800000e-05  2.50048879e+00  1.12969586e+00  3.35969064e-01  3.36363864e+00  3.36363864e+00 
 8.22800000e-05  2.50049426e+00  1.12970133e+00  3.35974100e-01  3.36361414e+00  3.36361414e+00 
 8.32800000e-05  2.50049971e+00  1.12970677e+00  3.35979117e-01  3.36358973e+00  3.36358973e+00 
 8.42800000e-05  2.50050514e+00  1.12971220e+00  3.35984116e-01  3.36356541e+00  3.36356541e+00 
 8.52800000e-05  2.50051055e+00  1.12971760e+00  3.35989096e-01  3.36354118e+00  3.36354118e+00 
 8.62800000e-05  2.50051595e+00  1.12972299e+00  3.35994058e-01  3.36351704e+00  3.36351704e+00 
 8.72800000e-05  2.50052132e+00  1.12972835e+00  3.35999001e-01  3.36349299e+00  3.36349299e+00 
 8.82800000e-05  2.50052667e+00  1.12973370e+00  3.36003925e-01  3.36346904e+00  3.36346904e+00 
 8.92800000e-05  2.50053200e+00  1.12973902e+00  3.36008830e-01  3.36344518e+00  3.36344518e+00 
 9.02800000e-05  2.50053731e+00  1.12974432e+00  3.36013715e-01  3.36342141e+00  3.36342141e+00 
 9.12800000e-05  2.50054260e+00  1.12974960e+00  3.36018581e-01  3.36339774e+00  3.36339774e+00 
 9.22800000e-05  2.50054787e+00  1.12975486e+00  3.36023427e-01  3.36337416e+00  3.36337416e+00 
 9.32800000e-05  2.50055311e+00  1.12976010e+00  3.36028253e-01  3.36335068e+00  3.36335068e+00 
 9.42800000e-05  2.50055834e+00  1.12976532e+00  3.36033058e-01  3.36332730e+00  3.36332730e+00 
 9.52800000e-05  2.50056354e+00  1.12977051e+00  3.36037844e-01  3.36330402e+00  3.36330402e+00 
 9.62800000e-05  2.50056872e+00  1.12977568e+00  3.36042609e-01  3.36328084e+00  3.36328084e+00 
 9.72800000e-05  2.50057387e+00  1.12978083e+00  3.36047353e-01  3.36325776e+00  3.36325776e+00 
 9.82800000e-05  2.50057901e+00  1.12978596e+00  3.36052076e-01  3.36323478e+00  3.36323478e+00 
 9.92800000e-05  2.50058412e+00  1.12979106e+00  3.36056778e-01  3.36321190e+00  3.36321190e+00 
 1.00280000e-04  2.50058921e+00  1.12979614e+00  3.36061458e-01  3.36318913e+00  3.36318913e+00 
 1.01280000e-04  2.50059427e+00  1.12980120e+00  3.36066118e-01  3.36316646e+00  3.36316646e+00 
 1.02280000e-04  2.50059931e+00  1.12980623e+00  3.36070755e-01  3.36314390e+00  3.36314390e+00 
 1.03280000e-04  2.50060433e+00  1.12981124e+00  3.36075371e-01  3.36312145e+00  3.36312145e+00 
 1.04280000e-04  2.50060933e+00  1.12981622e+00  3.36079964e-01  3.36309910e+00  3.36309910e+00 
 1.05280000e-04  2.50061430e+00  1.12982118e+00  3.36084536e-01  3.36307686e+00  3.36307686e+00 
 1.06280000e-04  2.50061924e+00  1.12982612e+00  3.36089085e-01  3.36305473e+00  3.36305473e+00 
 1.07280000e-04  2.50062416e+00  1.12983103e+00  3.36093611e-01  3.36303270e+00  3.36303270e+00 
 1.08280000e-04  2.50062906e+00  1.12983592e+00  3.36098115e-01  3.36301079e+00  3.36301079e+00 
 1.09280000e-04  2.50063393e+00  1.12984078e+00  3.36102595e-01  3.36298899e+00  3.36298899e+00 
 1.10280000e-04  2.50063878e+00  1.12984562e+00  3.36107053e-01  3.36296731e+00  3.36296731e+00 
 1.11280000e-04  2.50064360e+00  1.12985044e+00  3.36111487e-01  3.36294573e+00  3.36294573e+00 
 1.12280000e-04  2.50064840e+00  1.12985522e+00  3.36115898e-01  3.36292427e+00  3.36292427e+00 
 1.13280000e-04  2.50065317e+00  1.12985998e+00  3.36120285e-01  3.36290293e+00  3.36290293e+00 
 1.14280000e-04  2.50065791e+00  1.12986472e+00  3.36124649e-01  3.36288170e+00  3.36288170e+00 
 1.15280000e-04  2.50066263e+00  1.12986943e+00  3.36128988e-01  3.36286059e+00  3.36286059e+00 
 1.16280000e-04  2.50066732e+00  1.12987411e+00  3.36133303e-01  3.36283960e+00  3.36283960e+00 
 1.17280000e-04  2.50067199e+00  1.12987877e+00  3.36137594e-01  3.36281872e+00  3.36281872e+00 
 1.18280000e-04  2.50067663e+00  1.12988340e+00  3.36141860e-01  3.36279796e+00  3.36279796e+00 
 1.19280000e-04  2.50068124e+00  1.12988800e+00  3.36146102e-01  3.36277733e+00  3.36277733e+00 
 1.20280000e-04  2.50068583e+00  1.12989258e+00  3.36150319e-01  3.36275681e+00  3.36275681e+00 
 1.21280000e-04  2.50069039e+00  1.12989713e+00  3.36154511e-01  3.36273642e+00  3.36273642e+00 
 1.22280000e-04  2.50069492e+00  1.12990165e+00  3.36158677e-01  3.36271615e+00  3.36271615e+00 
 1.23280000e-04  2.50069942e+00  1.12990614e+00  3.36162819e-01  3.36269600e+00  3.36269600e+00 
 1.24280000e-04  2.50070390e+00  1.12991061e+00  3.36166935e-01  3.36267598e+00  3.36267598e+00 
 1.25280000e-04  2.50070835e+00  1.12991505e+00  3.36171025e-01  3.36265608e+00  3.36265608e+00 
 1.26280000e-04  2.50071277e+00  1.12991946e+00  3.36175089e-01  3.36263630e+00  3.36263630e+00 
 1.27280000e-04  2.50071716e+00  1.12992384e+00  3.36179127e-01  3.36261665e+00  3.36261665e+00 
 1.28280000e-04  2.50072153e+00  1.12992820e+00  3.36183140e-01  3.36259713e+00  3.36259713e+00 
 1.29280000e-04  2.50072586e+00  1.12993252e+00  3.36187126e-01  3.36257774e+00  3.36257774e+00 
 1.30280000e-04  2.50073017e+00  1.12993682e+00  3.36191085e-01  3.36255848e+00  3.36255848e+00 
 1.31280000e-04  2.50073445e+00  1.12994109e+00  3.36195018e-01  3.36253934e+00  3.36253934e+00 
 1.32280000e-04  2.50073870e+00  1.12994533e+00  3.36198924e-01  3.36252034e+00  3.36252034e+00 
 1.33280000e-04  2.50074292e+00  1.12994954e+00  3.36202803e-01  3.36250147e+00  3.36250147e+00 
 1.34280000e-04  2.50074711e+00  1.12995372e+00  3.36206655e-01  3.36248273e+00  3.36248273e+00 
 1.35280000e-04  2.50075127e+00  1.12995787e+00  3.36210480e-01  3.36246412e+00  3.36246412e+00 
 1.36280000e-04  2.50075541e+00  1.12996199e+00  3.36214278e-01  3.36244564e+00  3.36244564e+00 
 1.37280000e-04  2.50075951e+00  1.12996608e+00  3.36218048e-01  3.36242730e+00  3.36242730e+00 
 1.38280000e-04  2.50076358e+00  1.12997014e+00  3.36221790e-01  3.36240910e+00  3.36240910e+00 
 1.39280000e-04  2.50076762e+00  1.12997417e+00  3.36225504e-01  3.36239102e+00  3.36239102e+00 
 1.40280000e-04  2.50077163e+00  1.12997818e+00  3.36229191e-01  3.36237309e+00  3.36237309e+00 
 1.41280000e-04  2.50077561e+00  1.12998215e+00  3.36232849e-01  3.36235529e+00  3.36235529e+00 
 1.42280000e-04  2.50077957e+00  1.12998608e+00  3.36236479e-01  3.36233763e+00  3.36233763e+00 
 1.43280000e-04  2.50078349e+00  1.12998999e+00  3.36240081e-01  3.36232011e+00  3.36232011e+00 
 1.44280000e-04  2.50078737e+00  1.12999387e+00  3.36243654e-01  3.36230272e+00  3.36230272e+00 
 1.45280000e-04  2.50079123e+00  1.12999772e+00  3.36247199e-01  3.36228548e+00  3.36228548e+00 
 1.46280000e-04  2.50079506e+00  1.13000153e+00  3.36250714e-01  3.36226837e+00  3.36226837e+00 
 1.47280000e-04  2.50079885e+00  1.13000532e+00  3.36254201e-01  3.36225141e+00  3.36225141e+00 
 1.48280000e-04  2.50080262e+00  1.13000907e+00  3.36257658e-01  3.36223459e+00  3.36223459e+00 
 1.49280000e-04  2.50080635e+00  1.13001279e+00  3.36261087e-01  3.36221791e+00  3.36221791e+00 
 1.50280000e-04  2.50081005e+00  1.13001648e+00  3.36264486e-01  3.36220137e+00  3.36220137e+00 
 1.51280000e-04  2.50081372e+00  1.13002014e+00  3.36267855e-01  3.36218498e+00  3.36218498e+00 
 1.52280000e-04  2.50081735e+00  1.13002376e+00  3.36271195e-01  3.36216873e+00  3.36216873e+00 
 1.53280000e-04  2.50082096e+00  1.13002735e+00  3.36274505e-01  3.36215263e+00  3.36215263e+00 
 1.54280000e-04  2.50082453e+00  1.13003091e+00  3.36277785e-01  3.36213667e+00  3.36213667e+00 
 1.55280000e-04  2.50082807e+00  1.13003444e+00  3.36281035e-01  3.36212086e+00  3.36212086e+00 
 1.56280000e-04  2.50083157e+00  1.13003793e+00  3.36284255e-01  3.36210519e+00  3.36210519e+00 
 1.57280000e-04  2.50083505e+00  1.13004139e+00  3.36287444e-01  3.36208968e+00  3.36208968e+00 
 1.58280000e-04  2.50083849e+00  1.13004482e+00  3.36290603e-01  3.36207431e+00  3.36207431e+00 
 1.59280000e-04  2.50084190e+00  1.13004822e+00  3.36293732e-01  3.36205908e+00  3.36205908e+00 
 1.60280000e-04  2.50084527e+00  1.13005158e+00  3.36296830e-01  3.36204401e+00  3.36204401e+00 
 1.61280000e-04  2.50084861e+00  1.13005491e+00  3.36299897e-01  3.36202909e+00  3.36202909e+00 
 1.62280000e-04  2.50085192e+00  1.13005820e+00  3.36302933e-01  3.36201432e+00  3.36201432e+00 
 1.63280000e-04  2.50085519e+00  1.13006147e+00  3.36305938e-01  3.36199970e+00  3.36199970e+00 
 1.64280000e-04  2.50085843e+00  1.13006469e+00  3.36308913e-01  3.36198523e+00  3.36198523e+00 
 1.65280000e-04  2.50086164e+00  1.13006789e+00  3.36311855e-01  3.36197091e+00  3.36197091e+00 
 1.66280000e-04  2.50086481e+00  1.13007105e+00  3.36314767e-01  3.36195675e+00  3.36195675e+00 
 1.67280000e-04  2.50086795e+00  1.13007417e+00  3.36317647e-01  3.36194273e+00  3.36194273e+00 
 1.68280000e-04  2.50087105e+00  1.13007726e+00  3.36320495e-01  3.36192888e+00  3.36192888e+00 
 1.69280000e-04  2.50087412e+00  1.13008032e+00  3.36323311e-01  3.36191517e+00  3.36191517e+00 
 1.70280000e-04  2.50087715e+00  1.13008334e+00  3.36326096e-01  3.36190163e+00  3.36190163e+00 
 1.71280000e-04  2.50088015e+00  1.13008633e+00  3.36328849e-01  3.36188823e+00  3.36188823e+00 
 1.72280000e-04  2.50088312e+00  1.13008928e+00  3.36331570e-01  3.36187500e+00  3.36187500e+00 
 1.73280000e-04  2.50088605e+00  1.13009220e+00  3.36334258e-01  3.36186192e+00  3.36186192e+00 
 1.74280000e-04  2.50088894e+00  1.13009508e+00  3.36336915e-01  3.36184899e+00  3.36184899e+00 
 1.75280000e-04  2.50089180e+00  1.13009793e+00  3.36339538e-01  3.36183623e+00  3.36183623e+00 
 1.76280000e-04  2.50089463e+00  1.13010074e+00  3.36342130e-01  3.36182362e+00  3.36182362e+00 
 1.77280000e-04  2.50089742e+00  1.13010352e+00  3.36344689e-01  3.36181117e+00  3.36181117e+00 
 1.78280000e-04  2.50090017e+00  1.13010626e+00  3.36347215e-01  3.36179888e+00  3.36179888e+00 
 1.79280000e-04  2.50090289e+00  1.13010897e+00  3.36349708e-01  3.36178675e+00  3.36178675e+00 
 1.80280000e-04  2.50090557e+00  1.13011164e+00  3.36352169e-01  3.36177478e+00  3.36177478e+00 
 1.81280000e-04  2.50090822e+00  1.13011427e+00  3.36354596e-01  3.36176297e+00  3.36176297e+00 
 1.82280000e-04  2.50091083e+00  1.13011687e+00  3.36356991e-01  3.36175132e+00  3.36175132e+00 
 1.83280000e-04  2.50091341e+00  1.13011943e+00  3.36359352e-01  3.36173983e+00  3.36173983e+00 
 1.84280000e-04  2.50091595e+00  1.13012196e+00  3.36361680e-01  3.36172850e+00  3.36172850e+00 
 1.85280000e-04  2.50091845e+00  1.13012445e+00  3.36363975e-01  3.36171734e+00  3.36171734e+00 
 1.86280000e-04  2.50092092e+00  1.13012690e+00  3.36366236e-01  3.36170634e+00  3.36170634e+00 
 1.87280000e-04  2.50092335e+00  1.13012932e+00  3.36368464e-01  3.36169550e+00  3.36169550e+00 
 1.88280000e-04  2.50092574e+00  1.13013170e+00  3.36370658e-01  3.36168482e+00  3.36168482e+00 
 1.89280000e-04  2.50092810e+00  1.13013404e+00  3.36372818e-01  3.36167431e+00  3.36167431e+00 
 1.90280000e-04  2.50093042e+00  1.13013635e+00  3.36374945e-01  3.36166397e+00  3.36166397e+00 
 1.91280000e-04  2.50093271e+00  1.13013862e+00  3.36377038e-01  3.36165378e+00  3.36165378e+00 
 1.92280000e-04  2.50093495e+00  1.13014086e+00  3.36379096e-01  3.36164377e+00  3.36164377e+00 
 1.93280000e-04  2.50093717e+00  1.13014306e+00  3.36381121e-01  3.36163392e+00  3.36163392e+00 
 1.94280000e-04  2.50093934e+00  1.13014522e+00  3.36383112e-01  3.36162423e+00  3.36162423e+00 
 1.95280000e-04  2.50094148e+00  1.13014734e+00  3.36385068e-01  3.36161471e+00  3.36161471e+00 
 1.96280000e-04  2.50094357e+00  1.13014942e+00  3.36386990e-01  3.36160536e+00  3.36160536e+00 
 1.97280000e-04  2.50094564e+00  1.13015147e+00  3.36388878e-01  3.36159618e+00  3.36159618e+00 
