 time            v(vin)          v(b1_collector) v(b2_collector) v(vout_drv)     v(vfilt1)       v(vout_final)   i(vdd)         
 0.00000000e+00  2.50000000e+00  4.59418658e+00  4.59418658e+00  2.50000000e+00  2.50000000e+00  2.50000000e+00 -2.06581662e-05 
 5.00000000e-08  2.50000031e+00  4.59418652e+00  4.59418659e+00  2.50000001e+00  2.50000000e+00  2.50000000e+00 -2.06581666e-05 
 1.00000000e-07  2.50000063e+00  4.59418641e+00  4.59418662e+00  2.50000004e+00  2.50000000e+00  2.50000000e+00 -2.06581674e-05 
 2.00000000e-07  2.50000126e+00  4.59418609e+00  4.59418673e+00  2.50000015e+00  2.50000001e+00  2.50000000e+00 -2.06581694e-05 
 4.00000000e-07  2.50000251e+00  4.59418487e+00  4.59418748e+00  2.50000090e+00  2.50000005e+00  2.50000000e+00 -2.06581741e-05 
 8.00000000e-07  2.50000503e+00  4.59418047e+00  4.59419244e+00  2.50000587e+00  2.50000055e+00  2.50000005e+00 -2.06581683e-05 
 1.60000000e-06  2.50001005e+00  4.59416603e+00  4.59422216e+00  2.50003559e+00  2.50000583e+00  2.50000094e+00 -2.06580145e-05 
 3.20000000e-06  2.50002010e+00  4.59412491e+00  4.59436598e+00  2.50017940e+00  2.50004879e+00  2.50001413e+00 -2.06569797e-05 
 6.40000000e-06  2.50004020e+00  4.59402642e+00  4.59487793e+00  2.50069132e+00  2.50029213e+00  2.50013919e+00 -2.06528106e-05 
 1.14000000e-05  2.50007157e+00  4.59386599e+00  4.59588975e+00  2.50170302e+00  2.50098686e+00  2.50064971e+00 -2.06442230e-05 
 1.64000000e-05  2.50010286e+00  4.59370625e+00  4.59692694e+00  2.50273999e+00  2.50188192e+00  2.50145040e+00 -2.06353722e-05 
 2.14000000e-05  2.50013406e+00  4.59354682e+00  4.59795430e+00  2.50376702e+00  2.50285291e+00  2.50238613e+00 -2.06266174e-05 
 2.64000000e-05  2.50016512e+00  4.59338804e+00  4.59897811e+00  2.50479041e+00  2.50385482e+00  2.50337361e+00 -2.06178919e-05 
 3.14000000e-05  2.50019601e+00  4.59322999e+00  4.59999570e+00  2.50580747e+00  2.50486614e+00  2.50438062e+00 -2.06092218e-05 
 3.64000000e-05  2.50022672e+00  4.59307286e+00  4.60100649e+00  2.50681762e+00  2.50587761e+00  2.50539210e+00 -2.06006111e-05 
 4.14000000e-05  2.50025720e+00  4.59291680e+00  4.60200937e+00  2.50781977e+00  2.50688463e+00  2.50640130e+00 -2.05920693e-05 
 4.64000000e-05  2.50028743e+00  4.59276197e+00  4.60300341e+00  2.50881299e+00  2.50788473e+00  2.50740475e+00 -2.05836043e-05 
 5.14000000e-05  2.50031737e+00  4.59260851e+00  4.60398764e+00  2.50979628e+00  2.50887629e+00  2.50840042e+00 -2.05752245e-05 
 5.64000000e-05  2.50034700e+00  4.59245659e+00  4.60496110e+00  2.51076871e+00  2.50985807e+00  2.50938691e+00 -2.05669379e-05 
 6.14000000e-05  2.50037629e+00  4.59230635e+00  4.60592286e+00  2.51172934e+00  2.51082902e+00  2.51036307e+00 -2.05587523e-05 
 6.64000000e-05  2.50040521e+00  4.59215794e+00  4.60687198e+00  2.51267725e+00  2.51178814e+00  2.51132788e+00 -2.05506757e-05 
 7.14000000e-05  2.50043372e+00  4.59201152e+00  4.60780756e+00  2.51361152e+00  2.51273450e+00  2.51228037e+00 -2.05427157e-05 
 7.64000000e-05  2.50046181e+00  4.59186722e+00  4.60872871e+00  2.51453125e+00  2.51366718e+00  2.51321963e+00 -2.05348799e-05 
 8.14000000e-05  2.50048944e+00  4.59172520e+00  4.60963453e+00  2.51543558e+00  2.51458527e+00  2.51414473e+00 -2.05271757e-05 
 8.64000000e-05  2.50051659e+00  4.59158559e+00  4.61052418e+00  2.51632364e+00  2.51548791e+00  2.51505479e+00 -2.05196103e-05 
 9.14000000e-05  2.50054323e+00  4.59144854e+00  4.61139679e+00  2.51719458e+00  2.51637423e+00  2.51594895e+00 -2.05121910e-05 
 9.64000000e-05  2.50056934e+00  4.59131419e+00  4.61225155e+00  2.51804757e+00  2.51724338e+00  2.51682635e+00 -2.05049246e-05 
 1.01400000e-04  2.50059488e+00  4.59118266e+00  4.61308765e+00  2.51888183e+00  2.51809455e+00  2.51768616e+00 -2.04978179e-05 
 1.06400000e-04  2.50061983e+00  4.59105410e+00  4.61390429e+00  2.51969654e+00  2.51892693e+00  2.51852757e+00 -2.04908775e-05 
 1.11400000e-04  2.50064418e+00  4.59092863e+00  4.61470072e+00  2.52049095e+00  2.51973973e+00  2.51934977e+00 -2.04841100e-05 
 1.16400000e-04  2.50066788e+00  4.59080637e+00  4.61547617e+00  2.52126431e+00  2.52053219e+00  2.52015200e+00 -2.04775216e-05 
 1.21400000e-04  2.50069093e+00  4.59068746e+00  4.61622992e+00  2.52201590e+00  2.52130356e+00  2.52093350e+00 -2.04711183e-05 
 1.26400000e-04  2.50071330e+00  4.59057201e+00  4.61696127e+00  2.52274502e+00  2.52205312e+00  2.52169354e+00 -2.04649060e-05 
 1.31400000e-04  2.50073496e+00  4.59046015e+00  4.61766968e+00  2.52345111e+00  2.52278023e+00  2.52243143e+00 -2.04588890e-05 
 1.36400000e-04  2.50075590e+00  4.59035197e+00  4.61835428e+00  2.52413334e+00  2.52348419e+00  2.52314651e+00 -2.04530749e-05 
 1.41400000e-04  2.50077609e+00  4.59024759e+00  4.61901437e+00  2.52479099e+00  2.52416423e+00  2.52383804e+00 -2.04474698e-05 
 1.46400000e-04  2.50079552e+00  4.59014712e+00  4.61964952e+00  2.52542362e+00  2.52481977e+00  2.52450535e+00 -2.04420768e-05 
 1.51400000e-04  2.50081416e+00  4.59005066e+00  4.62025908e+00  2.52603061e+00  2.52545023e+00  2.52514785e+00 -2.04369016e-05 
 1.56400000e-04  2.50083199e+00  4.58995831e+00  4.62084249e+00  2.52661139e+00  2.52605502e+00  2.52576497e+00 -2.04319486e-05 
 1.61400000e-04  2.50084901e+00  4.58987015e+00  4.62139923e+00  2.52716543e+00  2.52663359e+00  2.52635613e+00 -2.04272224e-05 
 1.66400000e-04  2.50086519e+00  4.58978629e+00  4.62192877e+00  2.52769223e+00  2.52718539e+00  2.52692078e+00 -2.04227271e-05 
 1.71400000e-04  2.50088051e+00  4.58970681e+00  4.62243063e+00  2.52819130e+00  2.52770993e+00  2.52745841e+00 -2.04184670e-05 
 1.76400000e-04  2.50089497e+00  4.58963178e+00  4.62290436e+00  2.52866218e+00  2.52820673e+00  2.52796853e+00 -2.04144456e-05 
 1.81400000e-04  2.50090854e+00  4.58956129e+00  4.62334951e+00  2.52910444e+00  2.52867532e+00  2.52845066e+00 -2.04106668e-05 
 1.86400000e-04  2.50092121e+00  4.58949540e+00  4.62376568e+00  2.52951768e+00  2.52911528e+00  2.52890437e+00 -2.04071338e-05 
 1.91400000e-04  2.50093298e+00  4.58943419e+00  4.62415249e+00  2.52990152e+00  2.52952621e+00  2.52932924e+00 -2.04038498e-05 
 1.96400000e-04  2.50094382e+00  4.58937771e+00  4.62450958e+00  2.53025561e+00  2.52990774e+00  2.52972489e+00 -2.04008177e-05 
 2.01400000e-04  2.50095374e+00  4.58932602e+00  4.62483664e+00  2.53057963e+00  2.53025950e+00  2.53009094e+00 -2.03980403e-05 
 2.06400000e-04  2.50096271e+00  4.58927918e+00  4.62513337e+00  2.53087328e+00  2.53058120e+00  2.53042707e+00 -2.03955199e-05 
 2.11400000e-04  2.50097073e+00  4.58923724e+00  4.62539949e+00  2.53113630e+00  2.53087253e+00  2.53073298e+00 -2.03932589e-05 
 2.16400000e-04  2.50097780e+00  4.58920023e+00  4.62563476e+00  2.53136845e+00  2.53113322e+00  2.53100838e+00 -2.03912592e-05 
 2.21400000e-04  2.50098390e+00  4.58916819e+00  4.62583898e+00  2.53156952e+00  2.53136305e+00  2.53125303e+00 -2.03895227e-05 
 2.26400000e-04  2.50098903e+00  4.58914117e+00  4.62601195e+00  2.53173932e+00  2.53156180e+00  2.53146670e+00 -2.03880508e-05 
 2.31400000e-04  2.50099318e+00  4.58911917e+00  4.62615351e+00  2.53187771e+00  2.53172929e+00  2.53164919e+00 -2.03868448e-05 
 2.36400000e-04  2.50099635e+00  4.58910224e+00  4.62626355e+00  2.53198455e+00  2.53186538e+00  2.53180036e+00 -2.03859058e-05 
 2.41400000e-04  2.50099854e+00  4.58909038e+00  4.62634196e+00  2.53205976e+00  2.53196993e+00  2.53192005e+00 -2.03852347e-05 
 2.46400000e-04  2.50099974e+00  4.58908360e+00  4.62638867e+00  2.53210326e+00  2.53204286e+00  2.53200816e+00 -2.03848320e-05 
 2.51400000e-04  2.50099996e+00  4.58908192e+00  4.62640363e+00  2.53211501e+00  2.53208410e+00  2.53206461e+00 -2.03846981e-05 
 2.56400000e-04  2.50099919e+00  4.58908534e+00  4.62638684e+00  2.53209501e+00  2.53209361e+00  2.53208935e+00 -2.03848332e-05 
 2.61400000e-04  2.50099744e+00  4.58909385e+00  4.62633830e+00  2.53204326e+00  2.53207138e+00  2.53208236e+00 -2.03852370e-05 
 2.66400000e-04  2.50099470e+00  4.58910744e+00  4.62625807e+00  2.53195983e+00  2.53201744e+00  2.53204363e+00 -2.03859092e-05 
 2.71400000e-04  2.50099097e+00  4.58912610e+00  4.62614621e+00  2.53184478e+00  2.53193182e+00  2.53197322e+00 -2.03868494e-05 
 2.76400000e-04  2.50098627e+00  4.58914981e+00  4.62600283e+00  2.53169822e+00  2.53181462e+00  2.53187118e+00 -2.03880565e-05 
 2.81400000e-04  2.50098060e+00  4.58917855e+00  4.62582805e+00  2.53152028e+00  2.53166594e+00  2.53173761e+00 -2.03895297e-05 
 2.86400000e-04  2.50097396e+00  4.58921228e+00  4.62562203e+00  2.53131113e+00  2.53148590e+00  2.53157262e+00 -2.03912674e-05 
 2.91400000e-04  2.50096636e+00  4.58925097e+00  4.62538497e+00  2.53107094e+00  2.53127468e+00  2.53137636e+00 -2.03932684e-05 
 2.96400000e-04  2.50095780e+00  4.58929459e+00  4.62511707e+00  2.53079995e+00  2.53103246e+00  2.53114902e+00 -2.03955307e-05 
 3.01400000e-04  2.50094830e+00  4.58934309e+00  4.62481857e+00  2.53049839e+00  2.53075947e+00  2.53089080e+00 -2.03980523e-05 
 3.06400000e-04  2.50093786e+00  4.58939641e+00  4.62448976e+00  2.53016654e+00  2.53045595e+00  2.53060193e+00 -2.04008311e-05 
 3.11400000e-04  2.50092650e+00  4.58945451e+00  4.62413092e+00  2.52980471e+00  2.53012218e+00  2.53028268e+00 -2.04038646e-05 
 3.16400000e-04  2.50091423e+00  4.58951732e+00  4.62374239e+00  2.52941321e+00  2.52975846e+00  2.52993333e+00 -2.04071501e-05 
 3.21400000e-04  2.50090105e+00  4.58958478e+00  4.62332451e+00  2.52899241e+00  2.52936512e+00  2.52955421e+00 -2.04106845e-05 
 3.26400000e-04  2.50088698e+00  4.58965683e+00  4.62287768e+00  2.52854270e+00  2.52894253e+00  2.52914566e+00 -2.04144649e-05 
 3.31400000e-04  2.50087204e+00  4.58973338e+00  4.62240229e+00  2.52806448e+00  2.52849107e+00  2.52870805e+00 -2.04184878e-05 
 3.36400000e-04  2.50085623e+00  4.58981436e+00  4.62189878e+00  2.52755820e+00  2.52801115e+00  2.52824179e+00 -2.04227497e-05 
 3.41400000e-04  2.50083958e+00  4.58989969e+00  4.62136762e+00  2.52702431e+00  2.52750321e+00  2.52774729e+00 -2.04272466e-05 
 3.46400000e-04  2.50082210e+00  4.58998928e+00  4.62080929e+00  2.52646331e+00  2.52696772e+00  2.52722502e+00 -2.04319746e-05 
 3.51400000e-04  2.50080382e+00  4.59008304e+00  4.62022431e+00  2.52587571e+00  2.52640517e+00  2.52667545e+00 -2.04369293e-05 
 3.56400000e-04  2.50078473e+00  4.59018088e+00  4.61961322e+00  2.52526206e+00  2.52581608e+00  2.52609910e+00 -2.04421064e-05 
 3.61400000e-04  2.50076488e+00  4.59028269e+00  4.61897657e+00  2.52462292e+00  2.52520099e+00  2.52549648e+00 -2.04475010e-05 
 3.66400000e-04  2.50074426e+00  4.59038837e+00  4.61831497e+00  2.52395888e+00  2.52456047e+00  2.52486816e+00 -2.04531084e-05 
 3.71400000e-04  2.50072292e+00  4.59049781e+00  4.61762888e+00  2.52327043e+00  2.52389505e+00  2.52421469e+00 -2.04589249e-05 
 3.76400000e-04  2.50070086e+00  4.59061090e+00  4.61691912e+00  2.52255838e+00  2.52320538e+00  2.52353665e+00 -2.04649433e-05 
 3.81400000e-04  2.50067811e+00  4.59072754e+00  4.61618643e+00  2.52182347e+00  2.52249218e+00  2.52283474e+00 -2.04711572e-05 
 3.86400000e-04  2.50065469e+00  4.59084760e+00  4.61543133e+00  2.52106623e+00  2.52175610e+00  2.52210964e+00 -2.04775626e-05 
 3.91400000e-04  2.50063062e+00  4.59097096e+00  4.61465459e+00  2.52028742e+00  2.52099778e+00  2.52136199e+00 -2.04841530e-05 
 3.96400000e-04  2.50060593e+00  4.59109750e+00  4.61385692e+00  2.51948776e+00  2.52021796e+00  2.52059248e+00 -2.04909226e-05 
 4.01400000e-04  2.50058065e+00  4.59122708e+00  4.61303906e+00  2.51866800e+00  2.51941735e+00  2.51980184e+00 -2.04978650e-05 
 4.06400000e-04  2.50055479e+00  4.59135958e+00  4.61220180e+00  2.51782891e+00  2.51859672e+00  2.51899081e+00 -2.05049737e-05 
 4.11400000e-04  2.50052838e+00  4.59149486e+00  4.61134592e+00  2.51697129e+00  2.51775682e+00  2.51816016e+00 -2.05122422e-05 
 4.16400000e-04  2.50050145e+00  4.59163279e+00  4.61047224e+00  2.51609595e+00  2.51689847e+00  2.51731065e+00 -2.05196636e-05 
 4.21400000e-04  2.50047403e+00  4.59177323e+00  4.60958157e+00  2.51520372e+00  2.51602246e+00  2.51644311e+00 -2.05272309e-05 
 4.26400000e-04  2.50044614e+00  4.59191604e+00  4.60867478e+00  2.51429545e+00  2.51512963e+00  2.51555835e+00 -2.05349371e-05 
 4.31400000e-04  2.50041780e+00  4.59206107e+00  4.60775272e+00  2.51337201e+00  2.51422084e+00  2.51465721e+00 -2.05427748e-05 
 4.36400000e-04  2.50038906e+00  4.59220817e+00  4.60681627e+00  2.51243428e+00  2.51329694e+00  2.51374056e+00 -2.05507367e-05 
 4.41400000e-04  2.50035993e+00  4.59235722e+00  4.60586634e+00  2.51148315e+00  2.51235883e+00  2.51280926e+00 -2.05588151e-05 
 4.46400000e-04  2.50033045e+00  4.59250804e+00  4.60490384e+00  2.51051954e+00  2.51140740e+00  2.51186421e+00 -2.05670024e-05 
 4.51400000e-04  2.50030064e+00  4.59266049e+00  4.60392969e+00  2.50954439e+00  2.51044356e+00  2.51090632e+00 -2.05752908e-05 
 4.56400000e-04  2.50027053e+00  4.59281443e+00  4.60294483e+00  2.50855863e+00  2.50946825e+00  2.50993651e+00 -2.05836722e-05 
 4.61400000e-04  2.50024016e+00  4.59296969e+00  4.60195022e+00  2.50756322e+00  2.50848241e+00  2.50895572e+00 -2.05921386e-05 
 4.66400000e-04  2.50020955e+00  4.59312612e+00  4.60094683e+00  2.50655911e+00  2.50748699e+00  2.50796489e+00 -2.06006818e-05 
 4.71400000e-04  2.50017873e+00  4.59328357e+00  4.59993562e+00  2.50554730e+00  2.50648296e+00  2.50696498e+00 -2.06092935e-05 
 4.76400000e-04  2.50014774e+00  4.59344188e+00  4.59891760e+00  2.50452877e+00  2.50547130e+00  2.50595697e+00 -2.06179655e-05 
 4.81400000e-04  2.50011660e+00  4.59360089e+00  4.59789374e+00  2.50350451e+00  2.50445299e+00  2.50494184e+00 -2.06266892e-05 
 4.86400000e-04  2.50008535e+00  4.59376044e+00  4.59686505e+00  2.50247553e+00  2.50342903e+00  2.50392058e+00 -2.06354560e-05 
 4.91400000e-04  2.50005401e+00  4.59392038e+00  4.59583256e+00  2.50144283e+00  2.50240042e+00  2.50289419e+00 -2.06442575e-05 
 4.96400000e-04  2.50002262e+00  4.59408056e+00  4.59479726e+00  2.50040745e+00  2.50136817e+00  2.50186368e+00 -2.06530849e-05 
 5.01400000e-04  2.49999120e+00  4.59424080e+00  4.59376019e+00  2.49937038e+00  2.50033331e+00  2.50083007e+00 -2.06619295e-05 
 5.06400000e-04  2.49995980e+00  4.59440095e+00  4.59272236e+00  2.49833267e+00  2.49929684e+00  2.49979436e+00 -2.06707826e-05 
 5.11400000e-04  2.49992843e+00  4.59456086e+00  4.59168482e+00  2.49729535e+00  2.49825981e+00  2.49875759e+00 -2.06796354e-05 
 5.16400000e-04  2.49989714e+00  4.59472036e+00  4.59064858e+00  2.49625943e+00  2.49722323e+00  2.49772078e+00 -2.06884790e-05 
 5.21400000e-04  2.49986594e+00  4.59487931e+00  4.58961468e+00  2.49522596e+00  2.49618814e+00  2.49668497e+00 -2.06973047e-05 
 5.26400000e-04  2.49983488e+00  4.59503753e+00  4.58858416e+00  2.49419597e+00  2.49515556e+00  2.49565117e+00 -2.07061036e-05 
 5.31400000e-04  2.49980399e+00  4.59519489e+00  4.58755804e+00  2.49317048e+00  2.49412653e+00  2.49462043e+00 -2.07148669e-05 
 5.36400000e-04  2.49977328e+00  4.59535122e+00  4.58653736e+00  2.49215053e+00  2.49310208e+00  2.49359377e+00 -2.07235858e-05 
 5.41400000e-04  2.49974280e+00  4.59550637e+00  4.58552313e+00  2.49113714e+00  2.49208323e+00  2.49257223e+00 -2.07322515e-05 
 5.46400000e-04  2.49971257e+00  4.59566020e+00  4.58451637e+00  2.49013132e+00  2.49107101e+00  2.49155682e+00 -2.07408551e-05 
 5.51400000e-04  2.49968263e+00  4.59581254e+00  4.58351811e+00  2.48913410e+00  2.49006644e+00  2.49054856e+00 -2.07493880e-05 
 5.56400000e-04  2.49965300e+00  4.59596325e+00  4.58252935e+00  2.48814647e+00  2.48907053e+00  2.48954848e+00 -2.07578416e-05 
 5.61400000e-04  2.49962371e+00  4.59611219e+00  4.58155109e+00  2.48716945e+00  2.48808428e+00  2.48855758e+00 -2.07662071e-05 
 5.66400000e-04  2.49959479e+00  4.59625920e+00  4.58058433e+00  2.48620401e+00  2.48710869e+00  2.48757687e+00 -2.07744761e-05 
 5.71400000e-04  2.49956628e+00  4.59640415e+00  4.57963004e+00  2.48525115e+00  2.48614476e+00  2.48660734e+00 -2.07826402e-05 
 5.76400000e-04  2.49953819e+00  4.59654689e+00  4.57868919e+00  2.48431182e+00  2.48519346e+00  2.48564996e+00 -2.07906908e-05 
 5.81400000e-04  2.49951056e+00  4.59668730e+00  4.57776275e+00  2.48338700e+00  2.48425576e+00  2.48470572e+00 -2.07986198e-05 
 5.86400000e-04  2.49948341e+00  4.59682522e+00  4.57685165e+00  2.48247761e+00  2.48333261e+00  2.48377558e+00 -2.08064190e-05 
 5.91400000e-04  2.49945677e+00  4.59696052e+00  4.57595684e+00  2.48158460e+00  2.48242497e+00  2.48286049e+00 -2.08140803e-05 
 5.96400000e-04  2.49943066e+00  4.59709309e+00  4.57507923e+00  2.48070887e+00  2.48153374e+00  2.48196137e+00 -2.08215959e-05 
 6.01400000e-04  2.49940512e+00  4.59722278e+00  4.57421971e+00  2.47985132e+00  2.48065986e+00  2.48107916e+00 -2.08289578e-05 
 6.06400000e-04  2.49938017e+00  4.59734948e+00  4.57337933e+00  2.47901300e+00  2.47980428e+00  2.48021478e+00 -2.08361569e-05 
 6.11400000e-04  2.49935582e+00  4.59747306e+00  4.57255873e+00  2.47819453e+00  2.47896785e+00  2.47936915e+00 -2.08431880e-05 
 6.16400000e-04  2.49933212e+00  4.59759339e+00  4.57175867e+00  2.47739670e+00  2.47815131e+00  2.47854306e+00 -2.08500447e-05 
 6.21400000e-04  2.49930907e+00  4.59771036e+00  4.57098018e+00  2.47662050e+00  2.47735556e+00  2.47773732e+00 -2.08567176e-05 
 6.26400000e-04  2.49928670e+00  4.59782387e+00  4.57022399e+00  2.47586669e+00  2.47658145e+00  2.47695282e+00 -2.08632005e-05 
 6.31400000e-04  2.49926504e+00  4.59793380e+00  4.56949090e+00  2.47513605e+00  2.47582976e+00  2.47619036e+00 -2.08694865e-05 
 6.36400000e-04  2.49924410e+00  4.59804005e+00  4.56878167e+00  2.47442934e+00  2.47510129e+00  2.47545073e+00 -2.08755691e-05 
 6.41400000e-04  2.49922391e+00  4.59814251e+00  4.56809702e+00  2.47374729e+00  2.47439678e+00  2.47473471e+00 -2.08814417e-05 
 6.46400000e-04  2.49920448e+00  4.59824109e+00  4.56743768e+00  2.47309060e+00  2.47371696e+00  2.47404304e+00 -2.08870983e-05 
 6.51400000e-04  2.49918584e+00  4.59833569e+00  4.56680433e+00  2.47245997e+00  2.47306254e+00  2.47337642e+00 -2.08925329e-05 
 6.56400000e-04  2.49916801e+00  4.59842622e+00  4.56619761e+00  2.47185604e+00  2.47243420e+00  2.47273556e+00 -2.08977398e-05 
 6.61400000e-04  2.49915099e+00  4.59851260e+00  4.56561817e+00  2.47127945e+00  2.47183260e+00  2.47212111e+00 -2.09027135e-05 
 6.66400000e-04  2.49913481e+00  4.59859474e+00  4.56506661e+00  2.47073078e+00  2.47125835e+00  2.47153373e+00 -2.09074487e-05 
 6.71400000e-04  2.49911949e+00  4.59867256e+00  4.56454350e+00  2.47021062e+00  2.47071205e+00  2.47097401e+00 -2.09119405e-05 
 6.76400000e-04  2.49910503e+00  4.59874600e+00  4.56404938e+00  2.46971951e+00  2.47019428e+00  2.47044254e+00 -2.09161841e-05 
 6.81400000e-04  2.49909146e+00  4.59881497e+00  4.56358478e+00  2.46925796e+00  2.46970558e+00  2.46993988e+00 -2.09201749e-05 
 6.86400000e-04  2.49907879e+00  4.59887941e+00  4.56315017e+00  2.46882645e+00  2.46924645e+00  2.46946654e+00 -2.09239089e-05 
 6.91400000e-04  2.49906702e+00  4.59893927e+00  4.56274601e+00  2.46842542e+00  2.46881737e+00  2.46902304e+00 -2.09273820e-05 
 6.96400000e-04  2.49905618e+00  4.59899448e+00  4.56237273e+00  2.46805531e+00  2.46841879e+00  2.46860981e+00 -2.09305905e-05 
 7.01400000e-04  2.49904626e+00  4.59904499e+00  4.56203070e+00  2.46771650e+00  2.46805113e+00  2.46822731e+00 -2.09335311e-05 
 7.06400000e-04  2.49903729e+00  4.59909075e+00  4.56172030e+00  2.46740934e+00  2.46771477e+00  2.46787592e+00 -2.09362005e-05 
 7.11400000e-04  2.49902927e+00  4.59913173e+00  4.56144183e+00  2.46713415e+00  2.46741006e+00  2.46755602e+00 -2.09385961e-05 
 7.16400000e-04  2.49902220e+00  4.59916787e+00  4.56119561e+00  2.46689122e+00  2.46713733e+00  2.46726793e+00 -2.09407152e-05 
 7.21400000e-04  2.49901610e+00  4.59919915e+00  4.56098188e+00  2.46668081e+00  2.46689686e+00  2.46701197e+00 -2.09425556e-05 
 7.26400000e-04  2.49901097e+00  4.59922554e+00  4.56080086e+00  2.46650314e+00  2.46668889e+00  2.46678840e+00 -2.09441153e-05 
 7.31400000e-04  2.49900682e+00  4.59924701e+00  4.56065275e+00  2.46635839e+00  2.46651366e+00  2.46659746e+00 -2.09453926e-05 
