 time            v(vin)          v(b1_collector) v(b2_collector) v(vout_drv)     v(vfilt1)       v(vout_final)   i(vdd)         
 0.00000000e+00  2.50000000e+00  4.42601261e+00  4.42601261e+00  2.50000000e+00  2.50000000e+00  2.50000000e+00 -1.24556587e-05 
 5.00000000e-08  2.50000031e+00  4.42601256e+00  4.42601262e+00  2.50000001e+00  2.50000000e+00  2.50000000e+00 -1.24556590e-05 
 1.00000000e-07  2.50000063e+00  4.42601245e+00  4.42601265e+00  2.50000004e+00  2.50000000e+00  2.50000000e+00 -1.24556596e-05 
 2.00000000e-07  2.50000126e+00  4.42601212e+00  4.42601277e+00  2.50000016e+00  2.50000000e+00  2.50000000e+00 -1.24556612e-05 
 4.00000000e-07  2.50000251e+00  4.42601084e+00  4.42601357e+00  2.50000096e+00  2.50000001e+00  2.50000000e+00 -1.24556650e-05 
 8.00000000e-07  2.50000503e+00  4.42600604e+00  4.42601923e+00  2.50000662e+00  2.50000013e+00  2.50000001e+00 -1.24556579e-05 
 1.60000000e-06  2.50001005e+00  4.42598920e+00  4.42605700e+00  2.50004438e+00  2.50000259e+00  2.50000045e+00 -1.24554893e-05 
 3.20000000e-06  2.50002010e+00  4.42593591e+00  4.42627572e+00  2.50026310e+00  2.50003771e+00  2.50001136e+00 -1.24541531e-05 
 6.40000000e-06  2.50004020e+00  4.42579129e+00  4.42727794e+00  2.50126528e+00  2.50037086e+00  2.50017866e+00 -1.24472186e-05 
 1.14000000e-05  2.50007157e+00  4.42553382e+00  4.42981979e+00  2.50380687e+00  2.50177425e+00  2.50115240e+00 -1.24287375e-05 
 1.64000000e-05  2.50010286e+00  4.42527099e+00  4.43285614e+00  2.50684269e+00  2.50406910e+00  2.50307971e+00 -1.24062950e-05 
 2.14000000e-05  2.50013406e+00  4.42500884e+00  4.43597414e+00  2.50995985e+00  2.50684793e+00  2.50567100e+00 -1.23831856e-05 
 2.64000000e-05  2.50016512e+00  4.42474743e+00  4.43908626e+00  2.51307081e+00  2.50982905e+00  2.50857676e+00 -1.23601178e-05 
 3.14000000e-05  2.50019601e+00  4.42448702e+00  4.44217904e+00  2.51616213e+00  2.51288163e+00  2.51160353e+00 -1.23371985e-05 
 3.64000000e-05  2.50022672e+00  4.42422788e+00  4.44524799e+00  2.51922931e+00  2.51594900e+00  2.51466648e+00 -1.23144618e-05 
 4.14000000e-05  2.50025720e+00  4.42397027e+00  4.44828996e+00  2.52226921e+00  2.51900667e+00  2.51772896e+00 -1.22919311e-05 
 4.64000000e-05  2.50028743e+00  4.42371445e+00  4.45130204e+00  2.52527891e+00  2.52204297e+00  2.52077456e+00 -1.22696279e-05 
 5.14000000e-05  2.50031737e+00  4.42346068e+00  4.45428137e+00  2.52825557e+00  2.52505159e+00  2.52379495e+00 -1.22475733e-05 
 5.64000000e-05  2.50034700e+00  4.42320922e+00  4.45722517e+00  2.53119640e+00  2.52802831e+00  2.52678515e+00 -1.22257875e-05 
 6.14000000e-05  2.50037629e+00  4.42296032e+00  4.46013071e+00  2.53409866e+00  2.53096979e+00  2.52974147e+00 -1.22042908e-05 
 6.64000000e-05  2.50040521e+00  4.42271424e+00  4.46299529e+00  2.53695969e+00  2.53387307e+00  2.53266082e+00 -1.21831027e-05 
 7.14000000e-05  2.50043372e+00  4.42247123e+00  4.46581631e+00  2.53977687e+00  2.53673540e+00  2.53554036e+00 -1.21622424e-05 
 7.64000000e-05  2.50046181e+00  4.42223154e+00  4.46859119e+00  2.54254764e+00  2.53955411e+00  2.53837739e+00 -1.21417286e-05 
 8.14000000e-05  2.50048944e+00  4.42199542e+00  4.47131745e+00  2.54526951e+00  2.54232664e+00  2.54116931e+00 -1.21215795e-05 
 8.64000000e-05  2.50051659e+00  4.42176310e+00  4.47399265e+00  2.54794005e+00  2.54505048e+00  2.54391359e+00 -1.21018128e-05 
 9.14000000e-05  2.50054323e+00  4.42153484e+00  4.47661442e+00  2.55055689e+00  2.54772320e+00  2.54660776e+00 -1.20824457e-05 
 9.64000000e-05  2.50056934e+00  4.42131088e+00  4.47918045e+00  2.55311774e+00  2.55034243e+00  2.54924943e+00 -1.20634950e-05 
 1.01400000e-04  2.50059488e+00  4.42109143e+00  4.48168851e+00  2.55562037e+00  2.55290586e+00  2.55183627e+00 -1.20449768e-05 
 1.06400000e-04  2.50061983e+00  4.42087674e+00  4.48413644e+00  2.55806261e+00  2.55541127e+00  2.55436600e+00 -1.20269068e-05 
 1.11400000e-04  2.50064418e+00  4.42066704e+00  4.48652213e+00  2.56044238e+00  2.55785648e+00  2.55683645e+00 -1.20093001e-05 
 1.16400000e-04  2.50066788e+00  4.42046253e+00  4.48884356e+00  2.56275765e+00  2.56023941e+00  2.55924549e+00 -1.19921714e-05 
 1.21400000e-04  2.50069093e+00  4.42026344e+00  4.49109878e+00  2.56500647e+00  2.56255802e+00  2.56159105e+00 -1.19755347e-05 
 1.26400000e-04  2.50071330e+00  4.42006997e+00  4.49328588e+00  2.56718697e+00  2.56481036e+00  2.56387116e+00 -1.19594036e-05 
 1.31400000e-04  2.50073496e+00  4.41988234e+00  4.49540307e+00  2.56929734e+00  2.56699455e+00  2.56608390e+00 -1.19437911e-05 
 1.36400000e-04  2.50075590e+00  4.41970075e+00  4.49744861e+00  2.57133584e+00  2.56910878e+00  2.56822743e+00 -1.19287096e-05 
 1.41400000e-04  2.50077609e+00  4.41952538e+00  4.49942081e+00  2.57330081e+00  2.57115130e+00  2.57029999e+00 -1.19141711e-05 
 1.46400000e-04  2.50079552e+00  4.41935643e+00  4.50131809e+00  2.57519066e+00  2.57312045e+00  2.57229987e+00 -1.19001870e-05 
 1.51400000e-04  2.50081416e+00  4.41919407e+00  4.50313892e+00  2.57700388e+00  2.57501464e+00  2.57422544e+00 -1.18867682e-05 
 1.56400000e-04  2.50083199e+00  4.41903848e+00  4.50488184e+00  2.57873902e+00  2.57683234e+00  2.57607517e+00 -1.18739249e-05 
 1.61400000e-04  2.50084901e+00  4.41888983e+00  4.50654549e+00  2.58039471e+00  2.57857211e+00  2.57784756e+00 -1.18616670e-05 
 1.66400000e-04  2.50086519e+00  4.41874827e+00  4.50812854e+00  2.58196965e+00  2.58023256e+00  2.57954121e+00 -1.18500038e-05 
 1.71400000e-04  2.50088051e+00  4.41861397e+00  4.50962977e+00  2.58346260e+00  2.58181239e+00  2.58115479e+00 -1.18389441e-05 
 1.76400000e-04  2.50089497e+00  4.41848707e+00  4.51104801e+00  2.58487243e+00  2.58331038e+00  2.58268703e+00 -1.18284960e-05 
 1.81400000e-04  2.50090854e+00  4.41836769e+00  4.51238217e+00  2.58619803e+00  2.58472535e+00  2.58413674e+00 -1.18186673e-05 
 1.86400000e-04  2.50092121e+00  4.41825599e+00  4.51363122e+00  2.58743840e+00  2.58605621e+00  2.58550280e+00 -1.18094652e-05 
 1.91400000e-04  2.50093298e+00  4.41815206e+00  4.51479421e+00  2.58859259e+00  2.58730196e+00  2.58678416e+00 -1.18008964e-05 
 1.96400000e-04  2.50094382e+00  4.41805604e+00  4.51587027e+00  2.58965973e+00  2.58846163e+00  2.58797984e+00 -1.17929672e-05 
 2.01400000e-04  2.50095374e+00  4.41796802e+00  4.51685857e+00  2.59063902e+00  2.58953436e+00  2.58908894e+00 -1.17856832e-05 
 2.06400000e-04  2.50096271e+00  4.41788810e+00  4.51775838e+00  2.59152972e+00  2.59051933e+00  2.59011062e+00 -1.17790497e-05 
 2.11400000e-04  2.50097073e+00  4.41781637e+00  4.51856903e+00  2.59233118e+00  2.59141581e+00  2.59104412e+00 -1.17730714e-05 
 2.16400000e-04  2.50097780e+00  4.41775290e+00  4.51928990e+00  2.59304278e+00  2.59222312e+00  2.59188872e+00 -1.17677525e-05 
 2.21400000e-04  2.50098390e+00  4.41769777e+00  4.51992048e+00  2.59366402e+00  2.59294067e+00  2.59264381e+00 -1.17630969e-05 
 2.26400000e-04  2.50098903e+00  4.41765103e+00  4.52046028e+00  2.59419443e+00  2.59356793e+00  2.59330883e+00 -1.17591078e-05 
 2.31400000e-04  2.50099318e+00  4.41761274e+00  4.52090894e+00  2.59463365e+00  2.59410444e+00  2.59388329e+00 -1.17557877e-05 
 2.36400000e-04  2.50099635e+00  4.41758294e+00  4.52126609e+00  2.59498131e+00  2.59454980e+00  2.59436677e+00 -1.17531394e-05 
 2.41400000e-04  2.50099854e+00  4.41756166e+00  4.52153141e+00  2.59523713e+00  2.59490367e+00  2.59475889e+00 -1.17511651e-05 
 2.46400000e-04  2.50099974e+00  4.41754893e+00  4.52170479e+00  2.59540097e+00  2.59516578e+00  2.59505936e+00 -1.17498657e-05 
 2.51400000e-04  2.50099996e+00  4.41754475e+00  4.52178607e+00  2.59547271e+00  2.59533595e+00  2.59526797e+00 -1.17492420e-05 
 2.56400000e-04  2.50099919e+00  4.41754914e+00  4.52177520e+00  2.59545230e+00  2.59541407e+00  2.59538457e+00 -1.17492947e-05 
 2.61400000e-04  2.50099744e+00  4.41756209e+00  4.52167219e+00  2.59533975e+00  2.59540008e+00  2.59540908e+00 -1.17500236e-05 
 2.66400000e-04  2.50099470e+00  4.41758359e+00  4.52147710e+00  2.59513513e+00  2.59529398e+00  2.59534149e+00 -1.17514284e-05 
 2.71400000e-04  2.50099097e+00  4.41761360e+00  4.52119004e+00  2.59483858e+00  2.59509585e+00  2.59518182e+00 -1.17535084e-05 
 2.76400000e-04  2.50098627e+00  4.41765211e+00  4.52081124e+00  2.59445031e+00  2.59480582e+00  2.59493020e+00 -1.17562620e-05 
 2.81400000e-04  2.50098060e+00  4.41769906e+00  4.52034099e+00  2.59397064e+00  2.59442410e+00  2.59458680e+00 -1.17596872e-05 
 2.86400000e-04  2.50097396e+00  4.41775441e+00  4.51977961e+00  2.59339989e+00  2.59395099e+00  2.59415188e+00 -1.17637817e-05 
 2.91400000e-04  2.50096636e+00  4.41781809e+00  4.51912752e+00  2.59273849e+00  2.59338682e+00  2.59362577e+00 -1.17685428e-05 
 2.96400000e-04  2.50095780e+00  4.41789003e+00  4.51838519e+00  2.59198692e+00  2.59273201e+00  2.59300883e+00 -1.17739672e-05 
 3.01400000e-04  2.50094830e+00  4.41797017e+00  4.51755316e+00  2.59114574e+00  2.59198704e+00  2.59230153e+00 -1.17800510e-05 
 3.06400000e-04  2.50093786e+00  4.41805840e+00  4.51663206e+00  2.59021557e+00  2.59115245e+00  2.59150438e+00 -1.17867901e-05 
 3.11400000e-04  2.50092650e+00  4.41815463e+00  4.51562256e+00  2.58919710e+00  2.59022887e+00  2.59061797e+00 -1.17941796e-05 
 3.16400000e-04  2.50091423e+00  4.41825876e+00  4.51452541e+00  2.58809109e+00  2.58921698e+00  2.58964298e+00 -1.18022144e-05 
 3.21400000e-04  2.50090105e+00  4.41837067e+00  4.51334145e+00  2.58689838e+00  2.58811755e+00  2.58858011e+00 -1.18108886e-05 
 3.26400000e-04  2.50088698e+00  4.41849025e+00  4.51207156e+00  2.58561987e+00  2.58693139e+00  2.58743017e+00 -1.18201961e-05 
 3.31400000e-04  2.50087204e+00  4.41861736e+00  4.51071672e+00  2.58425652e+00  2.58565941e+00  2.58619404e+00 -1.18301301e-05 
 3.36400000e-04  2.50085623e+00  4.41875186e+00  4.50927794e+00  2.58280940e+00  2.58430257e+00  2.58487264e+00 -1.18406834e-05 
 3.41400000e-04  2.50083958e+00  4.41889361e+00  4.50775635e+00  2.58127960e+00  2.58286192e+00  2.58346698e+00 -1.18518481e-05 
 3.46400000e-04  2.50082210e+00  4.41904246e+00  4.50615312e+00  2.57966833e+00  2.58133856e+00  2.58197816e+00 -1.18636160e-05 
 3.51400000e-04  2.50080382e+00  4.41919824e+00  4.50446951e+00  2.57797683e+00  2.57973368e+00  2.58040731e+00 -1.18759782e-05 
 3.56400000e-04  2.50078473e+00  4.41936079e+00  4.50270682e+00  2.57620644e+00  2.57804853e+00  2.57875567e+00 -1.18889255e-05 
 3.61400000e-04  2.50076488e+00  4.41952993e+00  4.50086648e+00  2.57435856e+00  2.57628444e+00  2.57702453e+00 -1.19024478e-05 
 3.66400000e-04  2.50074426e+00  4.41970549e+00  4.49894993e+00  2.57243467e+00  2.57444281e+00  2.57521527e+00 -1.19165348e-05 
 3.71400000e-04  2.50072292e+00  4.41988727e+00  4.49695873e+00  2.57043633e+00  2.57252511e+00  2.57332931e+00 -1.19311756e-05 
 3.76400000e-04  2.50070086e+00  4.42007507e+00  4.49489449e+00  2.56836515e+00  2.57053288e+00  2.57136818e+00 -1.19463586e-05 
 3.81400000e-04  2.50067811e+00  4.42026871e+00  4.49275889e+00  2.56622283e+00  2.56846774e+00  2.56933346e+00 -1.19620719e-05 
 3.86400000e-04  2.50065469e+00  4.42046797e+00  4.49055371e+00  2.56401113e+00  2.56633139e+00  2.56722682e+00 -1.19783027e-05 
 3.91400000e-04  2.50063062e+00  4.42067265e+00  4.48828077e+00  2.56173191e+00  2.56412558e+00  2.56504999e+00 -1.19950380e-05 
 3.96400000e-04  2.50060593e+00  4.42088252e+00  4.48594199e+00  2.55938706e+00  2.56185216e+00  2.56280476e+00 -1.20122642e-05 
 4.01400000e-04  2.50058065e+00  4.42109736e+00  4.48353933e+00  2.55697858e+00  2.55951303e+00  2.56049303e+00 -1.20299670e-05 
 4.06400000e-04  2.50055479e+00  4.42131696e+00  4.48107485e+00  2.55450853e+00  2.55711016e+00  2.55811674e+00 -1.20481316e-05 
 4.11400000e-04  2.50052838e+00  4.42154107e+00  4.47855066e+00  2.55197902e+00  2.55464562e+00  2.55567791e+00 -1.20667428e-05 
 4.16400000e-04  2.50050145e+00  4.42176948e+00  4.47596897e+00  2.54939226e+00  2.55212151e+00  2.55317862e+00 -1.20857847e-05 
 4.21400000e-04  2.50047403e+00  4.42200193e+00  4.47333202e+00  2.54675050e+00  2.54954004e+00  2.55062106e+00 -1.21052411e-05 
 4.26400000e-04  2.50044614e+00  4.42223818e+00  4.47064215e+00  2.54405609e+00  2.54690346e+00  2.54800743e+00 -1.21250949e-05 
 4.31400000e-04  2.50041780e+00  4.42247800e+00  4.46790174e+00  2.54131142e+00  2.54421409e+00  2.54534005e+00 -1.21453289e-05 
 4.36400000e-04  2.50038906e+00  4.42272113e+00  4.46511326e+00  2.53851895e+00  2.54147434e+00  2.54262127e+00 -1.21659252e-05 
 4.41400000e-04  2.50035993e+00  4.42296732e+00  4.46227923e+00  2.53568120e+00  2.53868665e+00  2.53985354e+00 -1.21868653e-05 
 4.46400000e-04  2.50033045e+00  4.42321633e+00  4.45940223e+00  2.53280078e+00  2.53585355e+00  2.53703933e+00 -1.22081304e-05 
 4.51400000e-04  2.50030064e+00  4.42346789e+00  4.45648492e+00  2.52988033e+00  2.53297763e+00  2.53418122e+00 -1.22297012e-05 
 4.56400000e-04  2.50027053e+00  4.42372175e+00  4.45352998e+00  2.52692255e+00  2.53006152e+00  2.53128182e+00 -1.22515578e-05 
 4.61400000e-04  2.50024016e+00  4.42397766e+00  4.45054018e+00  2.52393021e+00  2.52710794e+00  2.52834381e+00 -1.22736801e-05 
 4.66400000e-04  2.50020955e+00  4.42423535e+00  4.44751834e+00  2.52090613e+00  2.52411963e+00  2.52536993e+00 -1.22960473e-05 
 4.71400000e-04  2.50017873e+00  4.42449456e+00  4.44446732e+00  2.51785318e+00  2.52109942e+00  2.52236295e+00 -1.23186384e-05 
 4.76400000e-04  2.50014774e+00  4.42475503e+00  4.44139004e+00  2.51477426e+00  2.51805016e+00  2.51932573e+00 -1.23414318e-05 
 4.81400000e-04  2.50011660e+00  4.42501651e+00  4.43828946e+00  2.51167236e+00  2.51497476e+00  2.51626116e+00 -1.23644058e-05 
 4.86400000e-04  2.50008535e+00  4.42527873e+00  4.43516858e+00  2.50855047e+00  2.51187619e+00  2.51317218e+00 -1.23875382e-05 
 4.91400000e-04  2.50005401e+00  4.42554142e+00  4.43203045e+00  2.50541164e+00  2.50875745e+00  2.51006177e+00 -1.24108063e-05 
 4.96400000e-04  2.50002262e+00  4.42580434e+00  4.42887815e+00  2.50225896e+00  2.50562159e+00  2.50693296e+00 -1.24341873e-05 
 5.01400000e-04  2.49999120e+00  4.42606721e+00  4.42571480e+00  2.49909554e+00  2.50247168e+00  2.50378881e+00 -1.24576582e-05 
 5.06400000e-04  2.49995980e+00  4.42632978e+00  4.42254356e+00  2.49592455e+00  2.49931083e+00  2.50063243e+00 -1.24811955e-05 
 5.11400000e-04  2.49992843e+00  4.42659180e+00  4.41936759e+00  2.49274915e+00  2.49614220e+00  2.49746695e+00 -1.25047756e-05 
 5.16400000e-04  2.49989714e+00  4.42685300e+00  4.41619011e+00  2.48957254e+00  2.49296897e+00  2.49429553e+00 -1.25283747e-05 
 5.21400000e-04  2.49986594e+00  4.42711313e+00  4.41301433e+00  2.48639796e+00  2.48979431e+00  2.49112136e+00 -1.25519687e-05 
 5.26400000e-04  2.49983488e+00  4.42737194e+00  4.40984349e+00  2.48322864e+00  2.48662147e+00  2.48794765e+00 -1.25755335e-05 
 5.31400000e-04  2.49980399e+00  4.42762918e+00  4.40668085e+00  2.48006784e+00  2.48345367e+00  2.48477763e+00 -1.25990448e-05 
 5.36400000e-04  2.49977328e+00  4.42788459e+00  4.40352966e+00  2.47691880e+00  2.48029416e+00  2.48161454e+00 -1.26224781e-05 
 5.41400000e-04  2.49974280e+00  4.42813794e+00  4.40039320e+00  2.47378481e+00  2.47714621e+00  2.47846165e+00 -1.26458091e-05 
 5.46400000e-04  2.49971257e+00  4.42838897e+00  4.39727474e+00  2.47066912e+00  2.47401306e+00  2.47532220e+00 -1.26690132e-05 
 5.51400000e-04  2.49968263e+00  4.42863746e+00  4.39417754e+00  2.46757501e+00  2.47089800e+00  2.47219947e+00 -1.26920660e-05 
 5.56400000e-04  2.49965300e+00  4.42888316e+00  4.39110485e+00  2.46450572e+00  2.46780427e+00  2.46909671e+00 -1.27149430e-05 
 5.61400000e-04  2.49962371e+00  4.42912584e+00  4.38805994e+00  2.46146451e+00  2.46473514e+00  2.46601719e+00 -1.27376197e-05 
 5.66400000e-04  2.49959479e+00  4.42936527e+00  4.38504603e+00  2.45845460e+00  2.46169386e+00  2.46296415e+00 -1.27600720e-05 
 5.71400000e-04  2.49956628e+00  4.42960122e+00  4.38206633e+00  2.45547921e+00  2.45868364e+00  2.45994083e+00 -1.27822755e-05 
 5.76400000e-04  2.49953819e+00  4.42983348e+00  4.37912404e+00  2.45254152e+00  2.45570770e+00  2.45695046e+00 -1.28042064e-05 
 5.81400000e-04  2.49951056e+00  4.43006181e+00  4.37622232e+00  2.44964469e+00  2.45276922e+00  2.45399621e+00 -1.28258406e-05 
 5.86400000e-04  2.49948341e+00  4.43028602e+00  4.37336430e+00  2.44679185e+00  2.44987137e+00  2.45108127e+00 -1.28471547e-05 
 5.91400000e-04  2.49945677e+00  4.43050589e+00  4.37055308e+00  2.44398609e+00  2.44701727e+00  2.44820878e+00 -1.28681252e-05 
 5.96400000e-04  2.49943066e+00  4.43072121e+00  4.36779171e+00  2.44123045e+00  2.44421001e+00  2.44538183e+00 -1.28887292e-05 
 6.01400000e-04  2.49940512e+00  4.43093179e+00  4.36508320e+00  2.43852796e+00  2.44145265e+00  2.44260351e+00 -1.29089438e-05 
 6.06400000e-04  2.49938017e+00  4.43113743e+00  4.36243051e+00  2.43588155e+00  2.43874818e+00  2.43987682e+00 -1.29287466e-05 
 6.11400000e-04  2.49935582e+00  4.43133794e+00  4.35983656e+00  2.43329414e+00  2.43609957e+00  2.43720476e+00 -1.29481157e-05 
 6.16400000e-04  2.49933212e+00  4.43153314e+00  4.35730420e+00  2.43076858e+00  2.43350972e+00  2.43459025e+00 -1.29670293e-05 
 6.21400000e-04  2.49930907e+00  4.43172284e+00  4.35483623e+00  2.42830765e+00  2.43098148e+00  2.43203616e+00 -1.29854665e-05 
 6.26400000e-04  2.49928670e+00  4.43190688e+00  4.35243536e+00  2.42591407e+00  2.42851764e+00  2.42954531e+00 -1.30034064e-05 
 6.31400000e-04  2.49926504e+00  4.43208508e+00  4.35010427e+00  2.42359051e+00  2.42612094e+00  2.42712045e+00 -1.30208288e-05 
 6.36400000e-04  2.49924410e+00  4.43225729e+00  4.34784555e+00  2.42133953e+00  2.42379401e+00  2.42476427e+00 -1.30377142e-05 
 6.41400000e-04  2.49922391e+00  4.43242334e+00  4.34566170e+00  2.41916367e+00  2.42153946e+00  2.42247938e+00 -1.30540434e-05 
 6.46400000e-04  2.49920448e+00  4.43258309e+00  4.34355518e+00  2.41706533e+00  2.41935979e+00  2.42026832e+00 -1.30697980e-05 
 6.51400000e-04  2.49918584e+00  4.43273639e+00  4.34152833e+00  2.41504688e+00  2.41725744e+00  2.41813357e+00 -1.30849599e-05 
 6.56400000e-04  2.49916801e+00  4.43288310e+00  4.33958343e+00  2.41311057e+00  2.41523476e+00  2.41607751e+00 -1.30995120e-05 
 6.61400000e-04  2.49915099e+00  4.43302309e+00  4.33772266e+00  2.41125858e+00  2.41329402e+00  2.41410244e+00 -1.31134377e-05 
 6.66400000e-04  2.49913481e+00  4.43315623e+00  4.33594811e+00  2.40949300e+00  2.41143739e+00  2.41221057e+00 -1.31267210e-05 
 6.71400000e-04  2.49911949e+00  4.43328241e+00  4.33426178e+00  2.40781580e+00  2.40966696e+00  2.41040404e+00 -1.31393468e-05 
 6.76400000e-04  2.49910503e+00  4.43340151e+00  4.33266557e+00  2.40622889e+00  2.40798473e+00  2.40868488e+00 -1.31513005e-05 
 6.81400000e-04  2.49909146e+00  4.43351342e+00  4.33116129e+00  2.40473405e+00  2.40639260e+00  2.40705502e+00 -1.31625685e-05 
 6.86400000e-04  2.49907879e+00  4.43361804e+00  4.32975062e+00  2.40333298e+00  2.40489236e+00  2.40551630e+00 -1.31731378e-05 
 6.91400000e-04  2.49906702e+00  4.43371529e+00  4.32843517e+00  2.40202727e+00  2.40348570e+00  2.40407047e+00 -1.31829962e-05 
 6.96400000e-04  2.49905618e+00  4.43380506e+00  4.32721643e+00  2.40081839e+00  2.40217423e+00  2.40271916e+00 -1.31921325e-05 
 7.01400000e-04  2.49904626e+00  4.43388729e+00  4.32609578e+00  2.39970771e+00  2.40095943e+00  2.40146390e+00 -1.32005360e-05 
 7.06400000e-04  2.49903729e+00  4.43396190e+00  4.32507449e+00  2.39869649e+00  2.39984267e+00  2.40030611e+00 -1.32081970e-05 
 7.11400000e-04  2.49902927e+00  4.43402882e+00  4.32415371e+00  2.39778590e+00  2.39882522e+00  2.39924711e+00 -1.32151068e-05 
 7.16400000e-04  2.49902220e+00  4.43408799e+00  4.32333450e+00  2.39697694e+00  2.39790824e+00  2.39828809e+00 -1.32212574e-05 
 7.21400000e-04  2.49901610e+00  4.43413937e+00  4.32261784e+00  2.39627062e+00  2.39709279e+00  2.39743017e+00 -1.32266411e-05 
 7.26400000e-04  2.49901097e+00  4.43418290e+00  4.32200446e+00  2.39566765e+00  2.39637980e+00  2.39667432e+00 -1.32312524e-05 
 7.31400000e-04  2.49900682e+00  4.43421855e+00  4.32149501e+00  2.39516866e+00  2.39577003e+00  2.39602137e+00 -1.32350865e-05 
