 time            v(vin)          v(b1_collector) v(b2_collector) v(vout_drv)     v(vfilt1)       v(vout_final)   i(vdd)         
 0.00000000e+00  2.50000000e+00  4.46016824e+00  4.46016824e+00  2.50000000e+00  2.50000000e+00  2.50000000e+00 -2.50431858e-05 
 5.00000000e-08  2.50000031e+00  4.46016820e+00  4.46016825e+00  2.50000001e+00  2.50000000e+00  2.50000000e+00 -2.50431861e-05 
 1.00000000e-07  2.50000063e+00  4.46016810e+00  4.46016827e+00  2.50000003e+00  2.50000000e+00  2.50000000e+00 -2.50431867e-05 
 2.00000000e-07  2.50000126e+00  4.46016783e+00  4.46016835e+00  2.50000011e+00  2.50000000e+00  2.50000000e+00 -2.50431882e-05 
 4.00000000e-07  2.50000251e+00  4.46016675e+00  4.46016892e+00  2.50000067e+00  2.50000004e+00  2.50000000e+00 -2.50431924e-05 
 8.00000000e-07  2.50000503e+00  4.46016270e+00  4.46017292e+00  2.50000468e+00  2.50000044e+00  2.50000004e+00 -2.50431927e-05 
 1.60000000e-06  2.50001005e+00  4.46014832e+00  4.46019996e+00  2.50003171e+00  2.50000518e+00  2.50000086e+00 -2.50430865e-05 
 3.20000000e-06  2.50002010e+00  4.46010203e+00  4.46035996e+00  2.50019172e+00  2.50005119e+00  2.50001496e+00 -2.50421306e-05 
 6.40000000e-06  2.50004020e+00  4.45997349e+00  4.46111707e+00  2.50094878e+00  2.50038693e+00  2.50018243e+00 -2.50368399e-05 
 1.14000000e-05  2.50007157e+00  4.45973996e+00  4.46310613e+00  2.50293765e+00  2.50162321e+00  2.50103935e+00 -2.50220546e-05 
 1.64000000e-05  2.50010286e+00  4.45949940e+00  4.46554772e+00  2.50537883e+00  2.50353512e+00  2.50264333e+00 -2.50035130e-05 
 2.14000000e-05  2.50013406e+00  4.45925927e+00  4.46808836e+00  2.50791880e+00  2.50581252e+00  2.50475842e+00 -2.49841326e-05 
 2.64000000e-05  2.50016512e+00  4.45901985e+00  4.47063418e+00  2.51046370e+00  2.50824867e+00  2.50712527e+00 -2.49647023e-05 
 3.14000000e-05  2.50019601e+00  4.45878140e+00  4.47316715e+00  2.51299550e+00  2.51074331e+00  2.50959477e+00 -2.49453722e-05 
 3.64000000e-05  2.50022672e+00  4.45854415e+00  4.47568217e+00  2.51550910e+00  2.51325153e+00  2.51209753e+00 -2.49261833e-05 
 4.14000000e-05  2.50025720e+00  4.45830835e+00  4.47817636e+00  2.51800161e+00  2.51575315e+00  2.51460254e+00 -2.49071578e-05 
 4.64000000e-05  2.50028743e+00  4.45807422e+00  4.48064726e+00  2.52047059e+00  2.51823845e+00  2.51709552e+00 -2.48883144e-05 
 5.14000000e-05  2.50031737e+00  4.45784200e+00  4.48309251e+00  2.52291366e+00  2.52070205e+00  2.51956919e+00 -2.48696711e-05 
 5.64000000e-05  2.50034700e+00  4.45761194e+00  4.48550978e+00  2.52532853e+00  2.52314038e+00  2.52201922e+00 -2.48512454e-05 
 6.14000000e-05  2.50037629e+00  4.45738425e+00  4.48789682e+00  2.52771291e+00  2.52555065e+00  2.52444245e+00 -2.48330545e-05 
 6.64000000e-05  2.50040521e+00  4.45715918e+00  4.49025139e+00  2.53006459e+00  2.52793038e+00  2.52683627e+00 -2.48151151e-05 
 7.14000000e-05  2.50043372e+00  4.45693695e+00  4.49257131e+00  2.53238139e+00  2.53027727e+00  2.52919831e+00 -2.47974437e-05 
 7.64000000e-05  2.50046181e+00  4.45671779e+00  4.49485445e+00  2.53466118e+00  2.53258911e+00  2.53152631e+00 -2.47800564e-05 
 8.14000000e-05  2.50048944e+00  4.45650192e+00  4.49709870e+00  2.53690185e+00  2.53486377e+00  2.53381811e+00 -2.47629690e-05 
 8.64000000e-05  2.50051659e+00  4.45628956e+00  4.49930204e+00  2.53910139e+00  2.53709914e+00  2.53607159e+00 -2.47461968e-05 
 9.14000000e-05  2.50054323e+00  4.45608094e+00  4.50146246e+00  2.54125780e+00  2.53929321e+00  2.53828470e+00 -2.47297547e-05 
 9.64000000e-05  2.50056934e+00  4.45587627e+00  4.50357804e+00  2.54336914e+00  2.54144398e+00  2.54045542e+00 -2.47136572e-05 
 1.01400000e-04  2.50059488e+00  4.45567575e+00  4.50564688e+00  2.54543354e+00  2.54354953e+00  2.54258181e+00 -2.46979184e-05 
 1.06400000e-04  2.50061983e+00  4.45547960e+00  4.50766714e+00  2.54744916e+00  2.54560798e+00  2.54466196e+00 -2.46825521e-05 
 1.11400000e-04  2.50064418e+00  4.45528802e+00  4.50963706e+00  2.54941423e+00  2.54761751e+00  2.54669403e+00 -2.46675714e-05 
 1.16400000e-04  2.50066788e+00  4.45510121e+00  4.51155490e+00  2.55132704e+00  2.54957636e+00  2.54867622e+00 -2.46529894e-05 
 1.21400000e-04  2.50069093e+00  4.45491936e+00  4.51341900e+00  2.55318591e+00  2.55148280e+00  2.55060680e+00 -2.46388182e-05 
 1.26400000e-04  2.50071330e+00  4.45474267e+00  4.51522776e+00  2.55498926e+00  2.55333518e+00  2.55248408e+00 -2.46250699e-05 
 1.31400000e-04  2.50073496e+00  4.45457132e+00  4.51697961e+00  2.55673552e+00  2.55513191e+00  2.55430644e+00 -2.46117560e-05 
 1.36400000e-04  2.50075590e+00  4.45440549e+00  4.51867307e+00  2.55842322e+00  2.55687145e+00  2.55607231e+00 -2.45988876e-05 
 1.41400000e-04  2.50077609e+00  4.45424535e+00  4.52030669e+00  2.56005093e+00  2.55855230e+00  2.55778019e+00 -2.45864753e-05 
 1.46400000e-04  2.50079552e+00  4.45409107e+00  4.52187912e+00  2.56161727e+00  2.56017306e+00  2.55942862e+00 -2.45745292e-05 
 1.51400000e-04  2.50081416e+00  4.45394282e+00  4.52338901e+00  2.56312093e+00  2.56173236e+00  2.56101622e+00 -2.45630591e-05 
 1.56400000e-04  2.50083199e+00  4.45380074e+00  4.52483513e+00  2.56456066e+00  2.56322889e+00  2.56254164e+00 -2.45520742e-05 
 1.61400000e-04  2.50084901e+00  4.45366500e+00  4.52621627e+00  2.56593528e+00  2.56466141e+00  2.56400363e+00 -2.45415833e-05 
 1.66400000e-04  2.50086519e+00  4.45353574e+00  4.52753130e+00  2.56724364e+00  2.56602873e+00  2.56540096e+00 -2.45315949e-05 
 1.71400000e-04  2.50088051e+00  4.45341309e+00  4.52877913e+00  2.56848469e+00  2.56732973e+00  2.56673249e+00 -2.45221168e-05 
 1.76400000e-04  2.50089497e+00  4.45329718e+00  4.52995876e+00  2.56965741e+00  2.56856334e+00  2.56799712e+00 -2.45131565e-05 
 1.81400000e-04  2.50090854e+00  4.45318814e+00  4.53106922e+00  2.57076085e+00  2.56972856e+00  2.56919382e+00 -2.45047210e-05 
 1.86400000e-04  2.50092121e+00  4.45308608e+00  4.53210962e+00  2.57179412e+00  2.57082445e+00  2.57032162e+00 -2.44968168e-05 
 1.91400000e-04  2.50093298e+00  4.45299112e+00  4.53307911e+00  2.57275639e+00  2.57185012e+00  2.57137960e+00 -2.44894502e-05 
 1.96400000e-04  2.50094382e+00  4.45290334e+00  4.53397694e+00  2.57364689e+00  2.57280475e+00  2.57236693e+00 -2.44826267e-05 
 2.01400000e-04  2.50095374e+00  4.45282287e+00  4.53480251e+00  2.57446506e+00  2.57368763e+00  2.57328283e+00 -2.44763505e-05 
 2.06400000e-04  2.50096271e+00  4.45274976e+00  4.53555501e+00  2.57521007e+00  2.57449806e+00  2.57412660e+00 -2.44706276e-05 
 2.11400000e-04  2.50097073e+00  4.45268410e+00  4.53623370e+00  2.57588121e+00  2.57523526e+00  2.57489749e+00 -2.44654638e-05 
 2.16400000e-04  2.50097780e+00  4.45262597e+00  4.53683822e+00  2.57647811e+00  2.57589868e+00  2.57559486e+00 -2.44608615e-05 
 2.21400000e-04  2.50098390e+00  4.45257542e+00  4.53736808e+00  2.57700030e+00  2.57648783e+00  2.57621818e+00 -2.44568240e-05 
 2.26400000e-04  2.50098903e+00  4.45253251e+00  4.53782288e+00  2.57744737e+00  2.57700225e+00  2.57676699e+00 -2.44533546e-05 
 2.31400000e-04  2.50099318e+00  4.45249728e+00  4.53820225e+00  2.57781898e+00  2.57744156e+00  2.57724086e+00 -2.44504559e-05 
 2.36400000e-04  2.50099635e+00  4.45246978e+00  4.53850589e+00  2.57811482e+00  2.57780540e+00  2.57763942e+00 -2.44481299e-05 
 2.41400000e-04  2.50099854e+00  4.45245004e+00  4.53873356e+00  2.57833468e+00  2.57809349e+00  2.57796236e+00 -2.44463785e-05 
 2.46400000e-04  2.50099974e+00  4.45243807e+00  4.53888510e+00  2.57847837e+00  2.57830560e+00  2.57820943e+00 -2.44452031e-05 
 2.51400000e-04  2.50099996e+00  4.45243388e+00  4.53896037e+00  2.57854579e+00  2.57844158e+00  2.57838043e+00 -2.44446044e-05 
 2.56400000e-04  2.50099919e+00  4.45243749e+00  4.53895931e+00  2.57853688e+00  2.57850131e+00  2.57847524e+00 -2.44445831e-05 
 2.61400000e-04  2.50099744e+00  4.45244889e+00  4.53888193e+00  2.57845165e+00  2.57848475e+00  2.57849377e+00 -2.44451390e-05 
 2.66400000e-04  2.50099470e+00  4.45246807e+00  4.53872828e+00  2.57829016e+00  2.57839190e+00  2.57843601e+00 -2.44462720e-05 
 2.71400000e-04  2.50099097e+00  4.45249500e+00  4.53849847e+00  2.57805254e+00  2.57822284e+00  2.57830201e+00 -2.44479810e-05 
 2.76400000e-04  2.50098627e+00  4.45252965e+00  4.53819269e+00  2.57773897e+00  2.57797771e+00  2.57809187e+00 -2.44502650e-05 
 2.81400000e-04  2.50098060e+00  4.45257200e+00  4.53781117e+00  2.57734969e+00  2.57765668e+00  2.57780575e+00 -2.44531222e-05 
 2.86400000e-04  2.50097396e+00  4.45262200e+00  4.53735420e+00  2.57688501e+00  2.57726001e+00  2.57744387e+00 -2.44565506e-05 
 2.91400000e-04  2.50096636e+00  4.45267958e+00  4.53682214e+00  2.57634529e+00  2.57678801e+00  2.57700652e+00 -2.44605475e-05 
 2.96400000e-04  2.50095780e+00  4.45274469e+00  4.53621541e+00  2.57573095e+00  2.57624105e+00  2.57649403e+00 -2.44651101e-05 
 3.01400000e-04  2.50094830e+00  4.45281726e+00  4.53553435e+00  2.57504235e+00  2.57561950e+00  2.57590678e+00 -2.44702359e-05 
 3.06400000e-04  2.50093786e+00  4.45289720e+00  4.53477960e+00  2.57428014e+00  2.57492383e+00  2.57524520e+00 -2.44759204e-05 
 3.11400000e-04  2.50092650e+00  4.45298445e+00  4.53395187e+00  2.57344502e+00  2.57415469e+00  2.57450985e+00 -2.44821581e-05 
 3.16400000e-04  2.50091423e+00  4.45307890e+00  4.53305171e+00  2.57253757e+00  2.57331269e+00  2.57370135e+00 -2.44889452e-05 
 3.21400000e-04  2.50090105e+00  4.45318045e+00  4.53207985e+00  2.57155850e+00  2.57239845e+00  2.57282033e+00 -2.44962766e-05 
 3.26400000e-04  2.50088698e+00  4.45328899e+00  4.53103705e+00  2.57050860e+00  2.57141272e+00  2.57186747e+00 -2.45041466e-05 
 3.31400000e-04  2.50087204e+00  4.45340442e+00  4.52992416e+00  2.56938871e+00  2.57035628e+00  2.57084354e+00 -2.45125492e-05 
 3.36400000e-04  2.50085623e+00  4.45352659e+00  4.52874206e+00  2.56819973e+00  2.56922997e+00  2.56974936e+00 -2.45214778e-05 
 3.41400000e-04  2.50083958e+00  4.45365539e+00  4.52749172e+00  2.56694263e+00  2.56803471e+00  2.56858579e+00 -2.45309256e-05 
 3.46400000e-04  2.50082210e+00  4.45379068e+00  4.52617415e+00  2.56561843e+00  2.56677146e+00  2.56735380e+00 -2.45408850e-05 
 3.51400000e-04  2.50080382e+00  4.45393231e+00  4.52479043e+00  2.56422822e+00  2.56544125e+00  2.56605438e+00 -2.45513482e-05 
 3.56400000e-04  2.50078473e+00  4.45408014e+00  4.52334169e+00  2.56277314e+00  2.56404518e+00  2.56468858e+00 -2.45623069e-05 
 3.61400000e-04  2.50076488e+00  4.45423400e+00  4.52182915e+00  2.56125439e+00  2.56258439e+00  2.56325754e+00 -2.45737524e-05 
 3.66400000e-04  2.50074426e+00  4.45439374e+00  4.52025404e+00  2.55967324e+00  2.56106010e+00  2.56176244e+00 -2.45856753e-05 
 3.71400000e-04  2.50072292e+00  4.45455919e+00  4.51861771e+00  2.55803102e+00  2.55947358e+00  2.56020453e+00 -2.45980660e-05 
 3.76400000e-04  2.50070086e+00  4.45473017e+00  4.51692152e+00  2.55632911e+00  2.55782616e+00  2.55858509e+00 -2.46109143e-05 
 3.81400000e-04  2.50067811e+00  4.45490650e+00  4.51516690e+00  2.55456895e+00  2.55611922e+00  2.55690551e+00 -2.46242097e-05 
 3.86400000e-04  2.50065469e+00  4.45508801e+00  4.51335537e+00  2.55275205e+00  2.55435423e+00  2.55516719e+00 -2.46379411e-05 
 3.91400000e-04  2.50063062e+00  4.45527449e+00  4.51148848e+00  2.55087998e+00  2.55253268e+00  2.55337163e+00 -2.46520969e-05 
 3.96400000e-04  2.50060593e+00  4.45546576e+00  4.50956783e+00  2.54895434e+00  2.55065615e+00  2.55152036e+00 -2.46666653e-05 
 4.01400000e-04  2.50058065e+00  4.45566162e+00  4.50759510e+00  2.54697681e+00  2.54872626e+00  2.54961499e+00 -2.46816338e-05 
 4.06400000e-04  2.50055479e+00  4.45586186e+00  4.50557202e+00  2.54494914e+00  2.54674468e+00  2.54765716e+00 -2.46969896e-05 
 4.11400000e-04  2.50052838e+00  4.45606627e+00  4.50350038e+00  2.54287311e+00  2.54471317e+00  2.54564859e+00 -2.47127194e-05 
 4.16400000e-04  2.50050145e+00  4.45627465e+00  4.50138201e+00  2.54075056e+00  2.54263352e+00  2.54359105e+00 -2.47288094e-05 
 4.21400000e-04  2.50047403e+00  4.45648677e+00  4.49921881e+00  2.53858339e+00  2.54050757e+00  2.54148636e+00 -2.47452456e-05 
 4.26400000e-04  2.50044614e+00  4.45670243e+00  4.49701272e+00  2.53637355e+00  2.53833723e+00  2.53933640e+00 -2.47620134e-05 
 4.31400000e-04  2.50041780e+00  4.45692140e+00  4.49476574e+00  2.53412304e+00  2.53612444e+00  2.53714310e+00 -2.47790979e-05 
 4.36400000e-04  2.50038906e+00  4.45714345e+00  4.49247992e+00  2.53183393e+00  2.53387123e+00  2.53490845e+00 -2.47964835e-05 
 4.41400000e-04  2.50035993e+00  4.45736836e+00  4.49015736e+00  2.52950830e+00  2.53157965e+00  2.53263448e+00 -2.48141547e-05 
 4.46400000e-04  2.50033045e+00  4.45759591e+00  4.48780021e+00  2.52714832e+00  2.52925179e+00  2.53032327e+00 -2.48320952e-05 
 4.51400000e-04  2.50030064e+00  4.45782585e+00  4.48541065e+00  2.52475616e+00  2.52688983e+00  2.52797696e+00 -2.48502885e-05 
 4.56400000e-04  2.50027053e+00  4.45805795e+00  4.48299093e+00  2.52233409e+00  2.52449594e+00  2.52559772e+00 -2.48687178e-05 
 4.61400000e-04  2.50024016e+00  4.45829199e+00  4.48054332e+00  2.51988437e+00  2.52207239e+00  2.52318777e+00 -2.48873658e-05 
 4.66400000e-04  2.50020955e+00  4.45852772e+00  4.47807014e+00  2.51740932e+00  2.51962145e+00  2.52074938e+00 -2.49062150e-05 
 4.71400000e-04  2.50017873e+00  4.45876491e+00  4.47557375e+00  2.51491132e+00  2.51714544e+00  2.51828486e+00 -2.49252474e-05 
 4.76400000e-04  2.50014774e+00  4.45900332e+00  4.47305655e+00  2.51239275e+00  2.51464673e+00  2.51579655e+00 -2.49444450e-05 
 4.81400000e-04  2.50011660e+00  4.45924271e+00  4.47052097e+00  2.50985606e+00  2.51212773e+00  2.51328684e+00 -2.49637893e-05 
 4.86400000e-04  2.50008535e+00  4.45948284e+00  4.46796946e+00  2.50730369e+00  2.50959086e+00  2.51075815e+00 -2.49832615e-05 
 4.91400000e-04  2.50005401e+00  4.45972348e+00  4.46540452e+00  2.50473815e+00  2.50703859e+00  2.50821292e+00 -2.50028426e-05 
 4.96400000e-04  2.50002262e+00  4.45996439e+00  4.46282867e+00  2.50216196e+00  2.50447341e+00  2.50565363e+00 -2.50225135e-05 
 5.01400000e-04  2.49999120e+00  4.46020532e+00  4.46024446e+00  2.49957765e+00  2.50189785e+00  2.50308280e+00 -2.50422548e-05 
 5.06400000e-04  2.49995980e+00  4.46044604e+00  4.45765444e+00  2.49698781e+00  2.49931445e+00  2.50050296e+00 -2.50620467e-05 
 5.11400000e-04  2.49992843e+00  4.46068632e+00  4.45506120e+00  2.49439500e+00  2.49672578e+00  2.49791666e+00 -2.50818696e-05 
 5.16400000e-04  2.49989714e+00  4.46092591e+00  4.45246735e+00  2.49180184e+00  2.49413442e+00  2.49532649e+00 -2.51017034e-05 
 5.21400000e-04  2.49986594e+00  4.46116459e+00  4.44987550e+00  2.48921094e+00  2.49154297e+00  2.49273504e+00 -2.51215282e-05 
 5.26400000e-04  2.49983488e+00  4.46140211e+00  4.44728828e+00  2.48662492e+00  2.48895405e+00  2.49014491e+00 -2.51413237e-05 
 5.31400000e-04  2.49980399e+00  4.46163826e+00  4.44470831e+00  2.48404643e+00  2.48637029e+00  2.48755873e+00 -2.51610698e-05 
 5.36400000e-04  2.49977328e+00  4.46187279e+00  4.44213825e+00  2.48147809e+00  2.48379432e+00  2.48497912e+00 -2.51807461e-05 
 5.41400000e-04  2.49974280e+00  4.46210549e+00  4.43958073e+00  2.47892254e+00  2.48122876e+00  2.48240872e+00 -2.52003323e-05 
 5.46400000e-04  2.49971257e+00  4.46233613e+00  4.43703838e+00  2.47638243e+00  2.47867627e+00  2.47985017e+00 -2.52198080e-05 
 5.51400000e-04  2.49968263e+00  4.46256448e+00  4.43451385e+00  2.47386039e+00  2.47613947e+00  2.47730611e+00 -2.52391529e-05 
 5.56400000e-04  2.49965300e+00  4.46279033e+00  4.43200976e+00  2.47135904e+00  2.47362101e+00  2.47477916e+00 -2.52583467e-05 
 5.61400000e-04  2.49962371e+00  4.46301346e+00  4.42952873e+00  2.46888100e+00  2.47112348e+00  2.47227196e+00 -2.52773693e-05 
 5.66400000e-04  2.49959479e+00  4.46323366e+00  4.42707336e+00  2.46642886e+00  2.46864952e+00  2.46978711e+00 -2.52962004e-05 
 5.71400000e-04  2.49956628e+00  4.46345071e+00  4.42464624e+00  2.46400521e+00  2.46620172e+00  2.46732722e+00 -2.53148201e-05 
 5.76400000e-04  2.49953819e+00  4.46366442e+00  4.42224992e+00  2.46161261e+00  2.46378264e+00  2.46489489e+00 -2.53332085e-05 
 5.81400000e-04  2.49951056e+00  4.46387457e+00  4.41988694e+00  2.45925360e+00  2.46139486e+00  2.46249266e+00 -2.53513459e-05 
 5.86400000e-04  2.49948341e+00  4.46408098e+00  4.41755983e+00  2.45693068e+00  2.45904090e+00  2.46012310e+00 -2.53692128e-05 
 5.91400000e-04  2.49945677e+00  4.46428344e+00  4.41527107e+00  2.45464633e+00  2.45672327e+00  2.45778871e+00 -2.53867899e-05 
 5.96400000e-04  2.49943066e+00  4.46448176e+00  4.41302309e+00  2.45240301e+00  2.45444443e+00  2.45549198e+00 -2.54040583e-05 
 6.01400000e-04  2.49940512e+00  4.46467576e+00  4.41081832e+00  2.45020311e+00  2.45220684e+00  2.45323537e+00 -2.54209990e-05 
 6.06400000e-04  2.49938017e+00  4.46486526e+00  4.40865913e+00  2.44804900e+00  2.45001289e+00  2.45102130e+00 -2.54375938e-05 
 6.11400000e-04  2.49935582e+00  4.46505007e+00  4.40654785e+00  2.44594303e+00  2.44786495e+00  2.44885215e+00 -2.54538244e-05 
 6.16400000e-04  2.49933212e+00  4.46523003e+00  4.40448677e+00  2.44388745e+00  2.44576533e+00  2.44673026e+00 -2.54696730e-05 
 6.21400000e-04  2.49930907e+00  4.46540497e+00  4.40247811e+00  2.44188450e+00  2.44371631e+00  2.44465792e+00 -2.54851222e-05 
 6.26400000e-04  2.49928670e+00  4.46557472e+00  4.40052406e+00  2.43993636e+00  2.44172011e+00  2.44263739e+00 -2.55001550e-05 
 6.31400000e-04  2.49926504e+00  4.46573913e+00  4.39862676e+00  2.43804516e+00  2.43977890e+00  2.44067084e+00 -2.55147548e-05 
 6.36400000e-04  2.49924410e+00  4.46589805e+00  4.39678827e+00  2.43621296e+00  2.43789480e+00  2.43876044e+00 -2.55289054e-05 
 6.41400000e-04  2.49922391e+00  4.46605132e+00  4.39501061e+00  2.43444176e+00  2.43606987e+00  2.43690825e+00 -2.55425911e-05 
 6.46400000e-04  2.49920448e+00  4.46619881e+00  4.39329572e+00  2.43273351e+00  2.43430610e+00  2.43511631e+00 -2.55557967e-05 
 6.51400000e-04  2.49918584e+00  4.46634039e+00  4.39164548e+00  2.43109009e+00  2.43260543e+00  2.43338658e+00 -2.55685074e-05 
 6.56400000e-04  2.49916801e+00  4.46647591e+00  4.39006172e+00  2.42951329e+00  2.43096973e+00  2.43172096e+00 -2.55807090e-05 
 6.61400000e-04  2.49915099e+00  4.46660526e+00  4.38854617e+00  2.42800487e+00  2.42940080e+00  2.43012128e+00 -2.55923879e-05 
 6.66400000e-04  2.49913481e+00  4.46672831e+00  4.38710051e+00  2.42656648e+00  2.42790036e+00  2.42858930e+00 -2.56035311e-05 
 6.71400000e-04  2.49911949e+00  4.46684496e+00  4.38572634e+00  2.42519972e+00  2.42647007e+00  2.42712671e+00 -2.56141259e-05 
 6.76400000e-04  2.49910503e+00  4.46695511e+00  4.38442540e+00  2.42390632e+00  2.42511162e+00  2.42573519e+00 -2.56241585e-05 
 6.81400000e-04  2.49909146e+00  4.46705865e+00  4.38319886e+00  2.42268746e+00  2.42382647e+00  2.42441629e+00 -2.56336199e-05 
 6.86400000e-04  2.49907879e+00  4.46715546e+00  4.38204788e+00  2.42154427e+00  2.42261588e+00  2.42317138e+00 -2.56425014e-05 
 6.91400000e-04  2.49906702e+00  4.46724548e+00  4.38097400e+00  2.42047829e+00  2.42148122e+00  2.42200177e+00 -2.56507905e-05 
 6.96400000e-04  2.49905618e+00  4.46732862e+00  4.37997841e+00  2.41949069e+00  2.42042381e+00  2.42090880e+00 -2.56584781e-05 
 7.01400000e-04  2.49904626e+00  4.46740481e+00  4.37906220e+00  2.41858258e+00  2.41944483e+00  2.41989372e+00 -2.56655553e-05 
 7.06400000e-04  2.49903729e+00  4.46747398e+00  4.37822639e+00  2.41775496e+00  2.41854538e+00  2.41895767e+00 -2.56720143e-05 
 7.11400000e-04  2.49902927e+00  4.46753606e+00  4.37747192e+00  2.41700875e+00  2.41772647e+00  2.41810169e+00 -2.56778477e-05 
 7.16400000e-04  2.49902220e+00  4.46759099e+00  4.37679963e+00  2.41634479e+00  2.41698900e+00  2.41732674e+00 -2.56830490e-05 
 7.21400000e-04  2.49901610e+00  4.46763874e+00  4.37621026e+00  2.41576381e+00  2.41633380e+00  2.41663368e+00 -2.56876121e-05 
 7.26400000e-04  2.49901097e+00  4.46767925e+00  4.37570447e+00  2.41526647e+00  2.41576159e+00  2.41602328e+00 -2.56915320e-05 
 7.31400000e-04  2.49900682e+00  4.46771249e+00  4.37528283e+00  2.41485332e+00  2.41527303e+00  2.41549623e+00 -2.56948042e-05 
