 time            v(vin)          v(b3_collector) v(vout_drv)     v(vout_final)   i(vdd)         
 0.00000000e+00  2.50000000e+00  3.82990743e+00  2.50000000e+00  2.50000000e+00 -3.31711234e-05 
 5.00000000e-08  2.50000031e+00  3.82990743e+00  2.50000000e+00  2.50000000e+00 -3.31711235e-05 
 1.00000000e-07  2.50000063e+00  3.82990743e+00  2.50000000e+00  2.50000000e+00 -3.31711238e-05 
 2.00000000e-07  2.50000126e+00  3.82990742e+00  2.50000000e+00  2.50000000e+00 -3.31711247e-05 
 4.00000000e-07  2.50000251e+00  3.82990740e+00  2.49999997e+00  2.50000000e+00 -3.31711280e-05 
 8.00000000e-07  2.50000503e+00  3.82990706e+00  2.49999963e+00  2.49999998e+00 -3.31711393e-05 
 1.60000000e-06  2.50001005e+00  3.82990302e+00  2.49999560e+00  2.49999954e+00 -3.31711782e-05 
 3.20000000e-06  2.50002010e+00  3.82986367e+00  2.49995630e+00  2.49999146e+00 -3.31713830e-05 
 6.40000000e-06  2.50004020e+00  3.82957637e+00  2.49966960e+00  2.49988714e+00 -3.31728620e-05 
 1.14000000e-05  2.50007157e+00  3.82850860e+00  2.49860527e+00  2.49929923e+00 -3.31790625e-05 
 1.64000000e-05  2.50010286e+00  3.82681269e+00  2.49691646e+00  2.49809286e+00 -3.31898428e-05 
 2.14000000e-05  2.50013406e+00  3.82469680e+00  2.49481095e+00  2.49634477e+00 -3.32040399e-05 
 2.64000000e-05  2.50016512e+00  3.82230722e+00  2.49243417e+00  2.49421004e+00 -3.32205463e-05 
 3.14000000e-05  2.50019601e+00  3.81973734e+00  2.48987882e+00  2.49181548e+00 -3.32385886e-05 
 3.64000000e-05  2.50022672e+00  3.81705084e+00  2.48720809e+00  2.48924959e+00 -3.32576342e-05 
 4.14000000e-05  2.50025720e+00  3.81429161e+00  2.48446553e+00  2.48657332e+00 -3.32773165e-05 
 4.64000000e-05  2.50028743e+00  3.81149029e+00  2.48168155e+00  2.48382883e+00 -3.32973807e-05 
 5.14000000e-05  2.50031737e+00  3.80866851e+00  2.47887761e+00  2.48104554e+00 -3.33176476e-05 
 5.64000000e-05  2.50034700e+00  3.80584185e+00  2.47606917e+00  2.47824429e+00 -3.33379897e-05 
 6.14000000e-05  2.50037629e+00  3.80302174e+00  2.47326758e+00  2.47544009e+00 -3.33583137e-05 
 6.64000000e-05  2.50040521e+00  3.80021682e+00  2.47048140e+00  2.47264398e+00 -3.33785503e-05 
 7.14000000e-05  2.50043372e+00  3.79743381e+00  2.46771733e+00  2.46986433e+00 -3.33986461e-05 
 7.64000000e-05  2.50046181e+00  3.79467817e+00  2.46498077e+00  2.46710768e+00 -3.34185584e-05 
 8.14000000e-05  2.50048944e+00  3.79195443e+00  2.46227622e+00  2.46437933e+00 -3.34382522e-05 
 8.64000000e-05  2.50051659e+00  3.78926654e+00  2.45960760e+00  2.46168374e+00 -3.34576975e-05 
 9.14000000e-05  2.50054323e+00  3.78661799e+00  2.45697837e+00  2.45902474e+00 -3.34768680e-05 
 9.64000000e-05  2.50056934e+00  3.78401198e+00  2.45439173e+00  2.45640579e+00 -3.34957397e-05 
 1.01400000e-04  2.50059488e+00  3.78145150e+00  2.45185061e+00  2.45383002e+00 -3.35142906e-05 
 1.06400000e-04  2.50061983e+00  3.77893934e+00  2.44935781e+00  2.45130037e+00 -3.35325001e-05 
 1.11400000e-04  2.50064418e+00  3.77647819e+00  2.44691599e+00  2.44881961e+00 -3.35503483e-05 
 1.16400000e-04  2.50066788e+00  3.77407063e+00  2.44452770e+00  2.44639037e+00 -3.35678165e-05 
 1.21400000e-04  2.50069093e+00  3.77171913e+00  2.44219540e+00  2.44401520e+00 -3.35848865e-05 
 1.26400000e-04  2.50071330e+00  3.76942610e+00  2.43992149e+00  2.44169654e+00 -3.36015407e-05 
 1.31400000e-04  2.50073496e+00  3.76719387e+00  2.43770825e+00  2.43943676e+00 -3.36177621e-05 
 1.36400000e-04  2.50075590e+00  3.76502469e+00  2.43555795e+00  2.43723816e+00 -3.36335342e-05 
 1.41400000e-04  2.50077609e+00  3.76292076e+00  2.43347273e+00  2.43510295e+00 -3.36488411e-05 
 1.46400000e-04  2.50079552e+00  3.76088418e+00  2.43145470e+00  2.43303329e+00 -3.36636672e-05 
 1.51400000e-04  2.50081416e+00  3.75891700e+00  2.42950589e+00  2.43103125e+00 -3.36779977e-05 
 1.56400000e-04  2.50083199e+00  3.75702120e+00  2.42762824e+00  2.42909886e+00 -3.36918181e-05 
 1.61400000e-04  2.50084901e+00  3.75519868e+00  2.42582366e+00  2.42723805e+00 -3.37051145e-05 
 1.66400000e-04  2.50086519e+00  3.75345126e+00  2.42409393e+00  2.42545068e+00 -3.37178734e-05 
 1.71400000e-04  2.50088051e+00  3.75178070e+00  2.42244080e+00  2.42373854e+00 -3.37300820e-05 
 1.76400000e-04  2.50089497e+00  3.75018867e+00  2.42086593e+00  2.42210337e+00 -3.37417281e-05 
 1.81400000e-04  2.50090854e+00  3.74867677e+00  2.41937089e+00  2.42054678e+00 -3.37528000e-05 
 1.86400000e-04  2.50092121e+00  3.74724652e+00  2.41795719e+00  2.41907035e+00 -3.37632864e-05 
 1.91400000e-04  2.50093298e+00  3.74589934e+00  2.41662623e+00  2.41767556e+00 -3.37731768e-05 
 1.96400000e-04  2.50094382e+00  3.74463660e+00  2.41537936e+00  2.41636379e+00 -3.37824612e-05 
 2.01400000e-04  2.50095374e+00  3.74345955e+00  2.41421783e+00  2.41513638e+00 -3.37911304e-05 
 2.06400000e-04  2.50096271e+00  3.74236937e+00  2.41314280e+00  2.41399455e+00 -3.37991755e-05 
 2.11400000e-04  2.50097073e+00  3.74136717e+00  2.41215534e+00  2.41293944e+00 -3.38065885e-05 
 2.16400000e-04  2.50097780e+00  3.74045394e+00  2.41125646e+00  2.41197211e+00 -3.38133619e-05 
 2.21400000e-04  2.50098390e+00  3.73963060e+00  2.41044704e+00  2.41109353e+00 -3.38194889e-05 
 2.26400000e-04  2.50098903e+00  3.73889798e+00  2.40972791e+00  2.41030459e+00 -3.38249634e-05 
 2.31400000e-04  2.50099318e+00  3.73825682e+00  2.40909978e+00  2.40960608e+00 -3.38297797e-05 
 2.36400000e-04  2.50099635e+00  3.73770774e+00  2.40856329e+00  2.40899869e+00 -3.38339331e-05 
 2.41400000e-04  2.50099854e+00  3.73725132e+00  2.40811897e+00  2.40848304e+00 -3.38374193e-05 
 2.46400000e-04  2.50099974e+00  3.73688799e+00  2.40776726e+00  2.40805963e+00 -3.38402350e-05 
 2.51400000e-04  2.50099996e+00  3.73661814e+00  2.40750853e+00  2.40772891e+00 -3.38423771e-05 
 2.56400000e-04  2.50099919e+00  3.73644202e+00  2.40734302e+00  2.40749119e+00 -3.38438437e-05 
 2.61400000e-04  2.50099744e+00  3.73635981e+00  2.40727091e+00  2.40734672e+00 -3.38446332e-05 
 2.66400000e-04  2.50099470e+00  3.73637160e+00  2.40729226e+00  2.40729564e+00 -3.38447449e-05 
 2.71400000e-04  2.50099097e+00  3.73647738e+00  2.40740706e+00  2.40733800e+00 -3.38441786e-05 
 2.76400000e-04  2.50098627e+00  3.73667703e+00  2.40761519e+00  2.40747376e+00 -3.38429349e-05 
 2.81400000e-04  2.50098060e+00  3.73697035e+00  2.40791643e+00  2.40770278e+00 -3.38410151e-05 
 2.86400000e-04  2.50097396e+00  3.73735706e+00  2.40831049e+00  2.40802483e+00 -3.38384211e-05 
 2.91400000e-04  2.50096636e+00  3.73783675e+00  2.40879696e+00  2.40843958e+00 -3.38351557e-05 
 2.96400000e-04  2.50095780e+00  3.73840896e+00  2.40937537e+00  2.40894663e+00 -3.38312220e-05 
 3.01400000e-04  2.50094830e+00  3.73907309e+00  2.41004512e+00  2.40954545e+00 -3.38266241e-05 
 3.06400000e-04  2.50093786e+00  3.73982849e+00  2.41080554e+00  2.41023544e+00 -3.38213666e-05 
 3.11400000e-04  2.50092650e+00  3.74067440e+00  2.41165588e+00  2.41101592e+00 -3.38154549e-05 
 3.16400000e-04  2.50091423e+00  3.74160996e+00  2.41259526e+00  2.41188610e+00 -3.38088949e-05 
 3.21400000e-04  2.50090105e+00  3.74263424e+00  2.41362277e+00  2.41284510e+00 -3.38016932e-05 
 3.26400000e-04  2.50088698e+00  3.74374620e+00  2.41473735e+00  2.41389196e+00 -3.37938571e-05 
 3.31400000e-04  2.50087204e+00  3.74494474e+00  2.41593789e+00  2.41502563e+00 -3.37853946e-05 
 3.36400000e-04  2.50085623e+00  3.74622864e+00  2.41722318e+00  2.41624497e+00 -3.37763141e-05 
 3.41400000e-04  2.50083958e+00  3.74759663e+00  2.41859194e+00  2.41754876e+00 -3.37666249e-05 
 3.46400000e-04  2.50082210e+00  3.74904731e+00  2.42004279e+00  2.41893569e+00 -3.37563367e-05 
 3.51400000e-04  2.50080382e+00  3.75057925e+00  2.42157428e+00  2.42040436e+00 -3.37454599e-05 
 3.56400000e-04  2.50078473e+00  3.75219091e+00  2.42318487e+00  2.42195331e+00 -3.37340054e-05 
 3.61400000e-04  2.50076488e+00  3.75388066e+00  2.42487294e+00  2.42358097e+00 -3.37219848e-05 
 3.66400000e-04  2.50074426e+00  3.75564681e+00  2.42663680e+00  2.42528572e+00 -3.37094102e-05 
 3.71400000e-04  2.50072292e+00  3.75748760e+00  2.42847469e+00  2.42706585e+00 -3.36962943e-05 
 3.76400000e-04  2.50070086e+00  3.75940118e+00  2.43038476e+00  2.42891958e+00 -3.36826503e-05 
 3.81400000e-04  2.50067811e+00  3.76138563e+00  2.43236509e+00  2.43084504e+00 -3.36684918e-05 
 3.86400000e-04  2.50065469e+00  3.76343897e+00  2.43441372e+00  2.43284031e+00 -3.36538332e-05 
 3.91400000e-04  2.50063062e+00  3.76555913e+00  2.43652857e+00  2.43490339e+00 -3.36386891e-05 
 3.96400000e-04  2.50060593e+00  3.76774400e+00  2.43870755e+00  2.43703221e+00 -3.36230748e-05 
 4.01400000e-04  2.50058065e+00  3.76999139e+00  2.44094846e+00  2.43922465e+00 -3.36070060e-05 
 4.06400000e-04  2.50055479e+00  3.77229906e+00  2.44324907e+00  2.44147851e+00 -3.35904988e-05 
 4.11400000e-04  2.50052838e+00  3.77466469e+00  2.44560708e+00  2.44379153e+00 -3.35735698e-05 
 4.16400000e-04  2.50050145e+00  3.77708593e+00  2.44802013e+00  2.44616141e+00 -3.35562359e-05 
 4.21400000e-04  2.50047403e+00  3.77956035e+00  2.45048580e+00  2.44858578e+00 -3.35385145e-05 
 4.26400000e-04  2.50044614e+00  3.78208548e+00  2.45300164e+00  2.45106221e+00 -3.35204234e-05 
 4.31400000e-04  2.50041780e+00  3.78465881e+00  2.45556514e+00  2.45358823e+00 -3.35019806e-05 
 4.36400000e-04  2.50038906e+00  3.78727776e+00  2.45817374e+00  2.45616133e+00 -3.34832047e-05 
 4.41400000e-04  2.50035993e+00  3.78993972e+00  2.46082483e+00  2.45877892e+00 -3.34641144e-05 
 4.46400000e-04  2.50033045e+00  3.79264204e+00  2.46351578e+00  2.46143841e+00 -3.34447288e-05 
 4.51400000e-04  2.50030064e+00  3.79538203e+00  2.46624390e+00  2.46413715e+00 -3.34250673e-05 
 4.56400000e-04  2.50027053e+00  3.79815696e+00  2.46900647e+00  2.46687243e+00 -3.34051495e-05 
 4.61400000e-04  2.50024016e+00  3.80096407e+00  2.47180075e+00  2.46964155e+00 -3.33849952e-05 
 4.66400000e-04  2.50020955e+00  3.80380056e+00  2.47462396e+00  2.47244174e+00 -3.33646245e-05 
 4.71400000e-04  2.50017873e+00  3.80666361e+00  2.47747329e+00  2.47527023e+00 -3.33440578e-05 
 4.76400000e-04  2.50014774e+00  3.80955038e+00  2.48034590e+00  2.47812418e+00 -3.33233155e-05 
 4.81400000e-04  2.50011660e+00  3.81245801e+00  2.48323895e+00  2.48100078e+00 -3.33024182e-05 
 4.86400000e-04  2.50008535e+00  3.81538359e+00  2.48614956e+00  2.48389717e+00 -3.32813867e-05 
 4.91400000e-04  2.50005401e+00  3.81832425e+00  2.48907484e+00  2.48681046e+00 -3.32602420e-05 
 4.96400000e-04  2.50002262e+00  3.82127705e+00  2.49201190e+00  2.48973778e+00 -3.32390049e-05 
 5.01400000e-04  2.49999120e+00  3.82423907e+00  2.49495783e+00  2.49267621e+00 -3.32176965e-05 
 5.06400000e-04  2.49995980e+00  3.82720738e+00  2.49790970e+00  2.49562285e+00 -3.31963380e-05 
 5.11400000e-04  2.49992843e+00  3.83017905e+00  2.50086460e+00  2.49857478e+00 -3.31749505e-05 
 5.16400000e-04  2.49989714e+00  3.83315112e+00  2.50381961e+00  2.50152908e+00 -3.31535552e-05 
 5.21400000e-04  2.49986594e+00  3.83612068e+00  2.50677179e+00  2.50448283e+00 -3.31321731e-05 
 5.26400000e-04  2.49983488e+00  3.83908478e+00  2.50971825e+00  2.50743311e+00 -3.31108255e-05 
 5.31400000e-04  2.49980399e+00  3.84204050e+00  2.51265607e+00  2.51037700e+00 -3.30895334e-05 
 5.36400000e-04  2.49977328e+00  3.84498492e+00  2.51558235e+00  2.51331161e+00 -3.30683177e-05 
 5.41400000e-04  2.49974280e+00  3.84791514e+00  2.51849422e+00  2.51623403e+00 -3.30471993e-05 
 5.46400000e-04  2.49971257e+00  3.85082828e+00  2.52138879e+00  2.51914140e+00 -3.30261991e-05 
 5.51400000e-04  2.49968263e+00  3.85372147e+00  2.52426323e+00  2.52203084e+00 -3.30053377e-05 
 5.56400000e-04  2.49965300e+00  3.85659187e+00  2.52711471e+00  2.52489951e+00 -3.29846355e-05 
 5.61400000e-04  2.49962371e+00  3.85943665e+00  2.52994042e+00  2.52774460e+00 -3.29641129e-05 
 5.66400000e-04  2.49959479e+00  3.86225303e+00  2.53273759e+00  2.53056330e+00 -3.29437901e-05 
 5.71400000e-04  2.49956628e+00  3.86503823e+00  2.53550349e+00  2.53335285e+00 -3.29236868e-05 
 5.76400000e-04  2.49953819e+00  3.86778953e+00  2.53823538e+00  2.53611052e+00 -3.29038227e-05 
 5.81400000e-04  2.49951056e+00  3.87050424e+00  2.54093061e+00  2.53883360e+00 -3.28842174e-05 
 5.86400000e-04  2.49948341e+00  3.87317969e+00  2.54358652e+00  2.54151943e+00 -3.28648899e-05 
 5.91400000e-04  2.49945677e+00  3.87581327e+00  2.54620053e+00  2.54416537e+00 -3.28458591e-05 
 5.96400000e-04  2.49943066e+00  3.87840241e+00  2.54877008e+00  2.54676883e+00 -3.28271435e-05 
 6.01400000e-04  2.49940512e+00  3.88094457e+00  2.55129265e+00  2.54932728e+00 -3.28087613e-05 
 6.06400000e-04  2.49938017e+00  3.88343728e+00  2.55376580e+00  2.55183822e+00 -3.27907305e-05 
 6.11400000e-04  2.49935582e+00  3.88587810e+00  2.55618709e+00  2.55429919e+00 -3.27730686e-05 
 6.16400000e-04  2.49933212e+00  3.88826465e+00  2.55855418e+00  2.55670779e+00 -3.27557927e-05 
 6.21400000e-04  2.49930907e+00  3.89059463e+00  2.56086477e+00  2.55906168e+00 -3.27389196e-05 
 6.26400000e-04  2.49928670e+00  3.89286574e+00  2.56311659e+00  2.56135857e+00 -3.27224656e-05 
 6.31400000e-04  2.49926504e+00  3.89507579e+00  2.56530747e+00  2.56359623e+00 -3.27064466e-05 
 6.36400000e-04  2.49924410e+00  3.89722264e+00  2.56743527e+00  2.56577247e+00 -3.26908783e-05 
 6.41400000e-04  2.49922391e+00  3.89930418e+00  2.56949793e+00  2.56788518e+00 -3.26757755e-05 
 6.46400000e-04  2.49920448e+00  3.90131842e+00  2.57149344e+00  2.56993231e+00 -3.26611530e-05 
 6.51400000e-04  2.49918584e+00  3.90326338e+00  2.57341988e+00  2.57191188e+00 -3.26470248e-05 
 6.56400000e-04  2.49916801e+00  3.90513720e+00  2.57527537e+00  2.57382197e+00 -3.26334046e-05 
 6.61400000e-04  2.49915099e+00  3.90693805e+00  2.57705812e+00  2.57566072e+00 -3.26203054e-05 
 6.66400000e-04  2.49913481e+00  3.90866418e+00  2.57876641e+00  2.57742636e+00 -3.26077399e-05 
 6.71400000e-04  2.49911949e+00  3.91031394e+00  2.58039857e+00  2.57911717e+00 -3.25957202e-05 
 6.76400000e-04  2.49910503e+00  3.91188573e+00  2.58195303e+00  2.58073153e+00 -3.25842578e-05 
 6.81400000e-04  2.49909146e+00  3.91337802e+00  2.58342830e+00  2.58226787e+00 -3.25733638e-05 
 6.86400000e-04  2.49907879e+00  3.91478938e+00  2.58482294e+00  2.58372470e+00 -3.25630486e-05 
 6.91400000e-04  2.49906702e+00  3.91611845e+00  2.58613562e+00  2.58510063e+00 -3.25533222e-05 
 6.96400000e-04  2.49905618e+00  3.91736393e+00  2.58736505e+00  2.58639431e+00 -3.25441938e-05 
 7.01400000e-04  2.49904626e+00  3.91852464e+00  2.58851007e+00  2.58760452e+00 -3.25356722e-05 
 7.06400000e-04  2.49903729e+00  3.91959945e+00  2.58956956e+00  2.58873006e+00 -3.25277656e-05 
 7.11400000e-04  2.49902927e+00  3.92058732e+00  2.59054250e+00  2.58976988e+00 -3.25204815e-05 
 7.16400000e-04  2.49902220e+00  3.92148731e+00  2.59142796e+00  2.59072295e+00 -3.25138270e-05 
 7.21400000e-04  2.49901610e+00  3.92229855e+00  2.59222509e+00  2.59158836e+00 -3.25078084e-05 
 7.26400000e-04  2.49901097e+00  3.92302026e+00  2.59293311e+00  2.59236529e+00 -3.25024315e-05 
 7.31400000e-04  2.49900682e+00  3.92365174e+00  2.59355134e+00  2.59305297e+00 -3.24977014e-05 
 7.36400000e-04  2.49900365e+00  3.92419238e+00  2.59407919e+00  2.59365076e+00 -3.24936227e-05 
 7.41400000e-04  2.49900146e+00  3.92464167e+00  2.59451616e+00  2.59415806e+00 -3.24901992e-05 
 7.46400000e-04  2.49900026e+00  3.92499916e+00  2.59486181e+00  2.59457441e+00 -3.24874343e-05 
 7.51400000e-04  2.49900004e+00  3.92526453e+00  2.59511583e+00  2.59489939e+00 -3.24853305e-05 
 7.56400000e-04  2.49900081e+00  3.92543750e+00  2.59527795e+00  2.59513269e+00 -3.24838901e-05 
 7.61400000e-04  2.49900256e+00  3.92551792e+00  2.59534803e+00  2.59527408e+00 -3.24831142e-05 
 7.66400000e-04  2.49900530e+00  3.92550571e+00  2.59532600e+00  2.59532344e+00 -3.24830037e-05 
 7.71400000e-04  2.49900903e+00  3.92540087e+00  2.59521188e+00  2.59528070e+00 -3.24835587e-05 
 7.76400000e-04  2.49901373e+00  3.92520351e+00  2.59500578e+00  2.59514592e+00 -3.24847786e-05 
 7.81400000e-04  2.49901940e+00  3.92491382e+00  2.59470789e+00  2.59491923e+00 -3.24866624e-05 
 7.86400000e-04  2.49902604e+00  3.92453206e+00  2.59431851e+00  2.59460082e+00 -3.24892083e-05 
 7.91400000e-04  2.49903364e+00  3.92405862e+00  2.59383799e+00  2.59419103e+00 -3.24924137e-05 
 7.96400000e-04  2.49904220e+00  3.92349394e+00  2.59326681e+00  2.59369022e+00 -3.24962758e-05 
 8.01400000e-04  2.49905170e+00  3.92283857e+00  2.59260552e+00  2.59309890e+00 -3.25007908e-05 
 8.06400000e-04  2.49906214e+00  3.92209313e+00  2.59185474e+00  2.59241762e+00 -3.25059544e-05 
 8.11400000e-04  2.49907350e+00  3.92125835e+00  2.59101520e+00  2.59164703e+00 -3.25117617e-05 
 8.16400000e-04  2.49908577e+00  3.92033501e+00  2.59008771e+00  2.59078789e+00 -3.25182072e-05 
 8.21400000e-04  2.49909895e+00  3.91932402e+00  2.58907315e+00  2.58984101e+00 -3.25252847e-05 
 8.26400000e-04  2.49911302e+00  3.91822634e+00  2.58797251e+00  2.58880731e+00 -3.25329875e-05 
 8.31400000e-04  2.49912796e+00  3.91704303e+00  2.58678685e+00  2.58768778e+00 -3.25413082e-05 
 8.36400000e-04  2.49914377e+00  3.91577523e+00  2.58551730e+00  2.58648349e+00 -3.25502389e-05 
 8.41400000e-04  2.49916042e+00  3.91442416e+00  2.58416509e+00  2.58519562e+00 -3.25597709e-05 
 8.46400000e-04  2.49917790e+00  3.91299113e+00  2.58273152e+00  2.58382539e+00 -3.25698953e-05 
 8.51400000e-04  2.49919618e+00  3.91147751e+00  2.58121797e+00  2.58237413e+00 -3.25806022e-05 
 8.56400000e-04  2.49921527e+00  3.90988477e+00  2.57962592e+00  2.58084325e+00 -3.25918815e-05 
 8.61400000e-04  2.49923512e+00  3.90821444e+00  2.57795688e+00  2.57923421e+00 -3.26037223e-05 
 8.66400000e-04  2.49925574e+00  3.90646814e+00  2.57621248e+00  2.57754857e+00 -3.26161132e-05 
 8.71400000e-04  2.49927708e+00  3.90464755e+00  2.57439440e+00  2.57578796e+00 -3.26290423e-05 
 8.76400000e-04  2.49929914e+00  3.90275445e+00  2.57250440e+00  2.57395408e+00 -3.26424972e-05 
 8.81400000e-04  2.49932189e+00  3.90079065e+00  2.57054431e+00  2.57204871e+00 -3.26564650e-05 
 8.86400000e-04  2.49934531e+00  3.89875806e+00  2.56851603e+00  2.57007370e+00 -3.26709321e-05 
 8.91400000e-04  2.49936938e+00  3.89665866e+00  2.56642153e+00  2.56803094e+00 -3.26858846e-05 
 8.96400000e-04  2.49939407e+00  3.89449448e+00  2.56426283e+00  2.56592244e+00 -3.27013082e-05 
 9.01400000e-04  2.49941935e+00  3.89226762e+00  2.56204203e+00  2.56375022e+00 -3.27171878e-05 
 9.06400000e-04  2.49944521e+00  3.88998024e+00  2.55976130e+00  2.56151641e+00 -3.27335081e-05 
 9.11400000e-04  2.49947162e+00  3.88763457e+00  2.55742284e+00  2.55922317e+00 -3.27502533e-05 
 9.16400000e-04  2.49949855e+00  3.88523289e+00  2.55502893e+00  2.55687273e+00 -3.27674073e-05 
 9.21400000e-04  2.49952597e+00  3.88277754e+00  2.55258191e+00  2.55446738e+00 -3.27849532e-05 
 9.26400000e-04  2.49955386e+00  3.88027091e+00  2.55008416e+00  2.55200945e+00 -3.28028742e-05 
 9.31400000e-04  2.49958220e+00  3.87771544e+00  2.54753811e+00  2.54950136e+00 -3.28211528e-05 
 9.36400000e-04  2.49961094e+00  3.87511363e+00  2.54494624e+00  2.54694554e+00 -3.28397712e-05 
 9.41400000e-04  2.49964007e+00  3.87246803e+00  2.54231110e+00  2.54434448e+00 -3.28587113e-05 
 9.46400000e-04  2.49966955e+00  3.86978121e+00  2.53963525e+00  2.54170074e+00 -3.28779545e-05 
 9.51400000e-04  2.49969936e+00  3.86705580e+00  2.53692132e+00  2.53901688e+00 -3.28974822e-05 
 9.56400000e-04  2.49972947e+00  3.86429448e+00  2.53417195e+00  2.53629555e+00 -3.29172753e-05 
 9.61400000e-04  2.49975984e+00  3.86149995e+00  2.53138985e+00  2.53353940e+00 -3.29373144e-05 
 9.66400000e-04  2.49979045e+00  3.85867494e+00  2.52857774e+00  2.53075113e+00 -3.29575799e-05 
 9.71400000e-04  2.49982127e+00  3.85582224e+00  2.52573838e+00  2.52793348e+00 -3.29780519e-05 
 9.76400000e-04  2.49985226e+00  3.85294463e+00  2.52287456e+00  2.52508921e+00 -3.29987103e-05 
 9.81400000e-04  2.49988340e+00  3.85004496e+00  2.51998909e+00  2.52222112e+00 -3.30195350e-05 
 9.86400000e-04  2.49991465e+00  3.84712606e+00  2.51708480e+00  2.51933202e+00 -3.30405054e-05 
