 time            v(vin)          v(b3_collector) v(vout_drv)     v(vout_final)   i(vdd)         
 0.00000000e+00  2.50000000e+00  3.82990743e+00  2.50000000e+00  2.50000000e+00 -3.31711234e-05 
 5.00000000e-08  2.50000031e+00  3.82990743e+00  2.50000000e+00  2.50000000e+00 -3.31711235e-05 
 1.00000000e-07  2.50000063e+00  3.82990743e+00  2.50000000e+00  2.50000000e+00 -3.31711238e-05 
 2.00000000e-07  2.50000126e+00  3.82990742e+00  2.50000000e+00  2.50000000e+00 -3.31711247e-05 
 4.00000000e-07  2.50000251e+00  3.82990740e+00  2.49999997e+00  2.50000000e+00 -3.31711280e-05 
 8.00000000e-07  2.50000503e+00  3.82990705e+00  2.49999962e+00  2.49999990e+00 -3.31711393e-05 
 1.60000000e-06  2.50001005e+00  3.82990280e+00  2.49999537e+00  2.49999812e+00 -3.31711801e-05 
 3.20000000e-06  2.50002010e+00  3.82985837e+00  2.49995097e+00  2.49997115e+00 -3.31714278e-05 
 6.40000000e-06  2.50004020e+00  3.82950201e+00  2.49959490e+00  2.49969296e+00 -3.31734894e-05 
 1.14000000e-05  2.50007157e+00  3.82809007e+00  2.49818434e+00  2.49842985e+00 -3.31825932e-05 
 1.64000000e-05  2.50010286e+00  3.82582608e+00  2.49592281e+00  2.49626589e+00 -3.31981659e-05 
 2.14000000e-05  2.50013406e+00  3.82311284e+00  2.49321278e+00  2.49359593e+00 -3.32174024e-05 
 2.64000000e-05  2.50016512e+00  3.82023225e+00  2.49033588e+00  2.49073178e+00 -3.32380513e-05 
 3.14000000e-05  2.50019601e+00  3.81730332e+00  2.48741098e+00  2.48780984e+00 -3.32591233e-05 
 3.64000000e-05  2.50022672e+00  3.81436856e+00  2.48448055e+00  2.48487890e+00 -3.32802641e-05 
 4.14000000e-05  2.50025720e+00  3.81144377e+00  2.48156039e+00  2.48195684e+00 -3.33013440e-05 
 4.64000000e-05  2.50028743e+00  3.80853602e+00  2.47865754e+00  2.47905137e+00 -3.33223071e-05 
 5.14000000e-05  2.50031737e+00  3.80564954e+00  2.47577621e+00  2.47616694e+00 -3.33431212e-05 
 5.64000000e-05  2.50034700e+00  3.80278761e+00  2.47291971e+00  2.47330691e+00 -3.33637620e-05 
 6.14000000e-05  2.50037629e+00  3.79995323e+00  2.47009101e+00  2.47047429e+00 -3.33842077e-05 
 6.64000000e-05  2.50040521e+00  3.79714925e+00  2.46729296e+00  2.46767193e+00 -3.34044376e-05 
 7.14000000e-05  2.50043372e+00  3.79437848e+00  2.46452837e+00  2.46490265e+00 -3.34244315e-05 
 7.64000000e-05  2.50046181e+00  3.79164368e+00  2.46179999e+00  2.46216921e+00 -3.34441692e-05 
 8.14000000e-05  2.50048944e+00  3.78894757e+00  2.45911053e+00  2.45947432e+00 -3.34636312e-05 
 8.64000000e-05  2.50051659e+00  3.78629285e+00  2.45646269e+00  2.45682069e+00 -3.34827980e-05 
 9.14000000e-05  2.50054323e+00  3.78368216e+00  2.45385909e+00  2.45421094e+00 -3.35016503e-05 
 9.64000000e-05  2.50056934e+00  3.78111810e+00  2.45130234e+00  2.45164769e+00 -3.35201694e-05 
 1.01400000e-04  2.50059488e+00  3.77860324e+00  2.44879498e+00  2.44913349e+00 -3.35383368e-05 
 1.06400000e-04  2.50061983e+00  3.77614007e+00  2.44633952e+00  2.44667085e+00 -3.35561341e-05 
 1.11400000e-04  2.50064418e+00  3.77373107e+00  2.44393841e+00  2.44426223e+00 -3.35735437e-05 
 1.16400000e-04  2.50066788e+00  3.77137863e+00  2.44159405e+00  2.44191003e+00 -3.35905480e-05 
 1.21400000e-04  2.50069093e+00  3.76908512e+00  2.43930878e+00  2.43961661e+00 -3.36071300e-05 
 1.26400000e-04  2.50071330e+00  3.76685281e+00  2.43708489e+00  2.43738426e+00 -3.36232731e-05 
 1.31400000e-04  2.50073496e+00  3.76468395e+00  2.43492460e+00  2.43521521e+00 -3.36389610e-05 
 1.36400000e-04  2.50075590e+00  3.76258070e+00  2.43283006e+00  2.43311162e+00 -3.36541780e-05 
 1.41400000e-04  2.50077609e+00  3.76054516e+00  2.43080338e+00  2.43107561e+00 -3.36689089e-05 
 1.46400000e-04  2.50079552e+00  3.75857938e+00  2.42884659e+00  2.42910922e+00 -3.36831388e-05 
 1.51400000e-04  2.50081416e+00  3.75668533e+00  2.42696164e+00  2.42721440e+00 -3.36968535e-05 
 1.56400000e-04  2.50083199e+00  3.75486489e+00  2.42515042e+00  2.42539306e+00 -3.37100390e-05 
 1.61400000e-04  2.50084901e+00  3.75311990e+00  2.42341474e+00  2.42364702e+00 -3.37226823e-05 
 1.66400000e-04  2.50086519e+00  3.75145209e+00  2.42175635e+00  2.42197803e+00 -3.37347705e-05 
 1.71400000e-04  2.50088051e+00  3.74986315e+00  2.42017690e+00  2.42038777e+00 -3.37462915e-05 
 1.76400000e-04  2.50089497e+00  3.74835467e+00  2.41867798e+00  2.41887782e+00 -3.37572336e-05 
 1.81400000e-04  2.50090854e+00  3.74692815e+00  2.41726109e+00  2.41744970e+00 -3.37675860e-05 
 1.86400000e-04  2.50092121e+00  3.74558502e+00  2.41592765e+00  2.41610484e+00 -3.37773381e-05 
 1.91400000e-04  2.50093298e+00  3.74432664e+00  2.41467900e+00  2.41484460e+00 -3.37864801e-05 
 1.96400000e-04  2.50094382e+00  3.74315427e+00  2.41351639e+00  2.41367023e+00 -3.37950029e-05 
 2.01400000e-04  2.50095374e+00  3.74206908e+00  2.41244099e+00  2.41258291e+00 -3.38028978e-05 
 2.06400000e-04  2.50096271e+00  3.74107216e+00  2.41145387e+00  2.41158373e+00 -3.38101569e-05 
 2.11400000e-04  2.50097073e+00  3.74016451e+00  2.41055603e+00  2.41067370e+00 -3.38167728e-05 
 2.16400000e-04  2.50097780e+00  3.73934704e+00  2.40974837e+00  2.40985373e+00 -3.38227389e-05 
 2.21400000e-04  2.50098390e+00  3.73862057e+00  2.40903169e+00  2.40912464e+00 -3.38280493e-05 
 2.26400000e-04  2.50098903e+00  3.73798583e+00  2.40840671e+00  2.40848716e+00 -3.38326984e-05 
 2.31400000e-04  2.50099318e+00  3.73744345e+00  2.40787407e+00  2.40794193e+00 -3.38366817e-05 
 2.36400000e-04  2.50099635e+00  3.73699399e+00  2.40743430e+00  2.40748950e+00 -3.38399952e-05 
 2.41400000e-04  2.50099854e+00  3.73663789e+00  2.40708783e+00  2.40713032e+00 -3.38426354e-05 
 2.46400000e-04  2.50099974e+00  3.73637551e+00  2.40683502e+00  2.40686476e+00 -3.38445998e-05 
 2.51400000e-04  2.50099996e+00  3.73620711e+00  2.40667611e+00  2.40669307e+00 -3.38458863e-05 
 2.56400000e-04  2.50099919e+00  3.73613285e+00  2.40661127e+00  2.40661543e+00 -3.38464938e-05 
 2.61400000e-04  2.50099744e+00  3.73615282e+00  2.40664056e+00  2.40663192e+00 -3.38464215e-05 
 2.66400000e-04  2.50099470e+00  3.73626700e+00  2.40676395e+00  2.40674252e+00 -3.38456695e-05 
 2.71400000e-04  2.50099097e+00  3.73647526e+00  2.40698132e+00  2.40694711e+00 -3.38442387e-05 
 2.76400000e-04  2.50098627e+00  3.73677740e+00  2.40729245e+00  2.40724550e+00 -3.38421305e-05 
 2.81400000e-04  2.50098060e+00  3.73717311e+00  2.40769702e+00  2.40763738e+00 -3.38393470e-05 
 2.86400000e-04  2.50097396e+00  3.73766199e+00  2.40819462e+00  2.40812235e+00 -3.38358910e-05 
 2.91400000e-04  2.50096636e+00  3.73824356e+00  2.40878477e+00  2.40869994e+00 -3.38317660e-05 
 2.96400000e-04  2.50095780e+00  3.73891723e+00  2.40946685e+00  2.40936955e+00 -3.38269762e-05 
 3.01400000e-04  2.50094830e+00  3.73968232e+00  2.41024020e+00  2.41013052e+00 -3.38215265e-05 
 3.06400000e-04  2.50093786e+00  3.74053806e+00  2.41110402e+00  2.41098208e+00 -3.38154223e-05 
 3.11400000e-04  2.50092650e+00  3.74148360e+00  2.41205746e+00  2.41192337e+00 -3.38086698e-05 
 3.16400000e-04  2.50091423e+00  3.74251798e+00  2.41309955e+00  2.41295345e+00 -3.38012759e-05 
 3.21400000e-04  2.50090105e+00  3.74364016e+00  2.41422924e+00  2.41407129e+00 -3.37932479e-05 
 3.26400000e-04  2.50088698e+00  3.74484902e+00  2.41544542e+00  2.41527576e+00 -3.37845941e-05 
 3.31400000e-04  2.50087204e+00  3.74614334e+00  2.41674684e+00  2.41656565e+00 -3.37753231e-05 
 3.36400000e-04  2.50085623e+00  3.74752183e+00  2.41813221e+00  2.41793967e+00 -3.37654442e-05 
 3.41400000e-04  2.50083958e+00  3.74898310e+00  2.41960013e+00  2.41939643e+00 -3.37549676e-05 
 3.46400000e-04  2.50082210e+00  3.75052568e+00  2.42114914e+00  2.42093449e+00 -3.37439036e-05 
 3.51400000e-04  2.50080382e+00  3.75214803e+00  2.42277768e+00  2.42255229e+00 -3.37322635e-05 
 3.56400000e-04  2.50078473e+00  3.75384852e+00  2.42448411e+00  2.42424821e+00 -3.37200589e-05 
 3.61400000e-04  2.50076488e+00  3.75562545e+00  2.42626673e+00  2.42602055e+00 -3.37073023e-05 
 3.66400000e-04  2.50074426e+00  3.75747703e+00  2.42812374e+00  2.42786754e+00 -3.36940063e-05 
 3.71400000e-04  2.50072292e+00  3.75940141e+00  2.43005330e+00  2.42978732e+00 -3.36801845e-05 
 3.76400000e-04  2.50070086e+00  3.76139666e+00  2.43205345e+00  2.43177797e+00 -3.36658507e-05 
 3.81400000e-04  2.50067811e+00  3.76346079e+00  2.43412221e+00  2.43383750e+00 -3.36510193e-05 
 3.86400000e-04  2.50065469e+00  3.76559172e+00  2.43625750e+00  2.43596384e+00 -3.36357052e-05 
 3.91400000e-04  2.50063062e+00  3.76778733e+00  2.43845717e+00  2.43815487e+00 -3.36199239e-05 
 3.96400000e-04  2.50060593e+00  3.77004541e+00  2.44071905e+00  2.44040839e+00 -3.36036911e-05 
 4.01400000e-04  2.50058065e+00  3.77236371e+00  2.44304084e+00  2.44272215e+00 -3.35870232e-05 
 4.06400000e-04  2.50055479e+00  3.77473991e+00  2.44542025e+00  2.44509384e+00 -3.35699368e-05 
 4.11400000e-04  2.50052838e+00  3.77717164e+00  2.44785489e+00  2.44752109e+00 -3.35524492e-05 
 4.16400000e-04  2.50050145e+00  3.77965647e+00  2.45034232e+00  2.45000146e+00 -3.35345779e-05 
 4.21400000e-04  2.50047403e+00  3.78219191e+00  2.45288007e+00  2.45253249e+00 -3.35163407e-05 
 4.26400000e-04  2.50044614e+00  3.78477543e+00  2.45546560e+00  2.45511165e+00 -3.34977559e-05 
 4.31400000e-04  2.50041780e+00  3.78740446e+00  2.45809633e+00  2.45773636e+00 -3.34788422e-05 
 4.36400000e-04  2.50038906e+00  3.79007638e+00  2.46076963e+00  2.46040400e+00 -3.34596183e-05 
 4.41400000e-04  2.50035993e+00  3.79278851e+00  2.46348285e+00  2.46311192e+00 -3.34401037e-05 
 4.46400000e-04  2.50033045e+00  3.79553817e+00  2.46623327e+00  2.46585742e+00 -3.34203176e-05 
 4.51400000e-04  2.50030064e+00  3.79832260e+00  2.46901816e+00  2.46863776e+00 -3.34002800e-05 
 4.56400000e-04  2.50027053e+00  3.80113905e+00  2.47183475e+00  2.47145018e+00 -3.33800107e-05 
 4.61400000e-04  2.50024016e+00  3.80398470e+00  2.47468023e+00  2.47429187e+00 -3.33595300e-05 
 4.66400000e-04  2.50020955e+00  3.80685672e+00  2.47755178e+00  2.47716001e+00 -3.33388583e-05 
 4.71400000e-04  2.50017873e+00  3.80975228e+00  2.48044654e+00  2.48005176e+00 -3.33180162e-05 
 4.76400000e-04  2.50014774e+00  3.81266847e+00  2.48336164e+00  2.48296423e+00 -3.32970244e-05 
 4.81400000e-04  2.50011660e+00  3.81560243e+00  2.48629418e+00  2.48589454e+00 -3.32759037e-05 
 4.86400000e-04  2.50008535e+00  3.81855122e+00  2.48924125e+00  2.48883978e+00 -3.32546752e-05 
 4.91400000e-04  2.50005401e+00  3.82151193e+00  2.49219993e+00  2.49179703e+00 -3.32333599e-05 
 4.96400000e-04  2.50002262e+00  3.82448163e+00  2.49516729e+00  2.49476336e+00 -3.32119790e-05 
 5.01400000e-04  2.49999120e+00  3.82745737e+00  2.49814040e+00  2.49773582e+00 -3.31905536e-05 
 5.06400000e-04  2.49995980e+00  3.83043621e+00  2.50111630e+00  2.50071149e+00 -3.31691050e-05 
 5.11400000e-04  2.49992843e+00  3.83341521e+00  2.50409206e+00  2.50368742e+00 -3.31476543e-05 
 5.16400000e-04  2.49989714e+00  3.83639142e+00  2.50706474e+00  2.50666066e+00 -3.31262228e-05 
 5.21400000e-04  2.49986594e+00  3.83936189e+00  2.51003139e+00  2.50962828e+00 -3.31048316e-05 
 5.26400000e-04  2.49983488e+00  3.84232371e+00  2.51298910e+00  2.51258735e+00 -3.30835019e-05 
 5.31400000e-04  2.49980399e+00  3.84527395e+00  2.51593495e+00  2.51553495e+00 -3.30622546e-05 
 5.36400000e-04  2.49977328e+00  3.84820970e+00  2.51886602e+00  2.51846818e+00 -3.30411107e-05 
 5.41400000e-04  2.49974280e+00  3.85112807e+00  2.52177945e+00  2.52138415e+00 -3.30200910e-05 
 5.46400000e-04  2.49971257e+00  3.85402619e+00  2.52467235e+00  2.52427998e+00 -3.29992162e-05 
 5.51400000e-04  2.49968263e+00  3.85690122e+00  2.52754189e+00  2.52715284e+00 -3.29785068e-05 
 5.56400000e-04  2.49965300e+00  3.85975031e+00  2.53038524e+00  2.52999989e+00 -3.29579830e-05 
 5.61400000e-04  2.49962371e+00  3.86257069e+00  2.53319962e+00  2.53281835e+00 -3.29376650e-05 
 5.66400000e-04  2.49959479e+00  3.86535957e+00  2.53598226e+00  2.53560544e+00 -3.29175727e-05 
 5.71400000e-04  2.49956628e+00  3.86811424e+00  2.53873043e+00  2.53835844e+00 -3.28977257e-05 
 5.76400000e-04  2.49953819e+00  3.87083198e+00  2.54144145e+00  2.54107464e+00 -3.28781435e-05 
 5.81400000e-04  2.49951056e+00  3.87351014e+00  2.54411266e+00  2.54375139e+00 -3.28588452e-05 
 5.86400000e-04  2.49948341e+00  3.87614610e+00  2.54674144e+00  2.54638607e+00 -3.28398495e-05 
 5.91400000e-04  2.49945677e+00  3.87873729e+00  2.54932523e+00  2.54897611e+00 -3.28211751e-05 
 5.96400000e-04  2.49943066e+00  3.88128117e+00  2.55186151e+00  2.55151897e+00 -3.28028401e-05 
 6.01400000e-04  2.49940512e+00  3.88377526e+00  2.55434780e+00  2.55401218e+00 -3.27848622e-05 
 6.06400000e-04  2.49938017e+00  3.88621713e+00  2.55678167e+00  2.55645330e+00 -3.27672591e-05 
 6.11400000e-04  2.49935582e+00  3.88860439e+00  2.55916075e+00  2.55883995e+00 -3.27500478e-05 
 6.16400000e-04  2.49933212e+00  3.89093474e+00  2.56148274e+00  2.56116981e+00 -3.27332449e-05 
 6.21400000e-04  2.49930907e+00  3.89320590e+00  2.56374536e+00  2.56344062e+00 -3.27168668e-05 
 6.26400000e-04  2.49928670e+00  3.89541565e+00  2.56594642e+00  2.56565016e+00 -3.27009293e-05 
 6.31400000e-04  2.49926504e+00  3.89756186e+00  2.56808378e+00  2.56779629e+00 -3.26854479e-05 
 6.36400000e-04  2.49924410e+00  3.89964244e+00  2.57015537e+00  2.56987693e+00 -3.26704374e-05 
 6.41400000e-04  2.49922391e+00  3.90165538e+00  2.57215918e+00  2.57189005e+00 -3.26559125e-05 
 6.46400000e-04  2.49920448e+00  3.90359871e+00  2.57409326e+00  2.57383371e+00 -3.26418871e-05 
 6.51400000e-04  2.49918584e+00  3.90547057e+00  2.57595574e+00  2.57570602e+00 -3.26283746e-05 
 6.56400000e-04  2.49916801e+00  3.90726913e+00  2.57774481e+00  2.57750516e+00 -3.26153883e-05 
 6.61400000e-04  2.49915099e+00  3.90899265e+00  2.57945876e+00  2.57922941e+00 -3.26029404e-05 
 6.66400000e-04  2.49913481e+00  3.91063948e+00  2.58109591e+00  2.58087709e+00 -3.25910431e-05 
 6.71400000e-04  2.49911949e+00  3.91220802e+00  2.58265468e+00  2.58244660e+00 -3.25797077e-05 
 6.76400000e-04  2.49910503e+00  3.91369674e+00  2.58413358e+00  2.58393643e+00 -3.25689452e-05 
 6.81400000e-04  2.49909146e+00  3.91510423e+00  2.58553117e+00  2.58534515e+00 -3.25587659e-05 
 6.86400000e-04  2.49907879e+00  3.91642911e+00  2.58684611e+00  2.58667140e+00 -3.25491794e-05 
 6.91400000e-04  2.49906702e+00  3.91767011e+00  2.58807712e+00  2.58791388e+00 -3.25401951e-05 
 6.96400000e-04  2.49905618e+00  3.91882604e+00  2.58922303e+00  2.58907142e+00 -3.25318216e-05 
 7.01400000e-04  2.49904626e+00  3.91989577e+00  2.59028271e+00  2.59014288e+00 -3.25240668e-05 
 7.06400000e-04  2.49903729e+00  3.92087828e+00  2.59125517e+00  2.59112725e+00 -3.25169381e-05 
 7.11400000e-04  2.49902927e+00  3.92177263e+00  2.59213945e+00  2.59202357e+00 -3.25104425e-05 
 7.16400000e-04  2.49902220e+00  3.92257795e+00  2.59293471e+00  2.59283097e+00 -3.25045861e-05 
 7.21400000e-04  2.49901610e+00  3.92329347e+00  2.59364018e+00  2.59354869e+00 -3.24993745e-05 
 7.26400000e-04  2.49901097e+00  3.92391849e+00  2.59425518e+00  2.59417603e+00 -3.24948127e-05 
 7.31400000e-04  2.49900682e+00  3.92445242e+00  2.59477912e+00  2.59471238e+00 -3.24909051e-05 
 7.36400000e-04  2.49900365e+00  3.92489475e+00  2.59521150e+00  2.59515724e+00 -3.24876554e-05 
 7.41400000e-04  2.49900146e+00  3.92524504e+00  2.59555190e+00  2.59551017e+00 -3.24850667e-05 
 7.46400000e-04  2.49900026e+00  3.92550296e+00  2.59579999e+00  2.59577083e+00 -3.24831415e-05 
 7.51400000e-04  2.49900004e+00  3.92566826e+00  2.59595554e+00  2.59593897e+00 -3.24818816e-05 
 7.56400000e-04  2.49900081e+00  3.92574079e+00  2.59601839e+00  2.59601444e+00 -3.24812883e-05 
 7.61400000e-04  2.49900256e+00  3.92572047e+00  2.59598849e+00  2.59599715e+00 -3.24813620e-05 
 7.66400000e-04  2.49900530e+00  3.92560731e+00  2.59586585e+00  2.59588712e+00 -3.24821029e-05 
 7.71400000e-04  2.49900903e+00  3.92540144e+00  2.59565061e+00  2.59568446e+00 -3.24835101e-05 
 7.76400000e-04  2.49901373e+00  3.92510304e+00  2.59534295e+00  2.59538937e+00 -3.24855824e-05 
 7.81400000e-04  2.49901940e+00  3.92471241e+00  2.59494319e+00  2.59500211e+00 -3.24883177e-05 
 7.86400000e-04  2.49902604e+00  3.92422991e+00  2.59445170e+00  2.59452308e+00 -3.24917135e-05 
 7.91400000e-04  2.49903364e+00  3.92365601e+00  2.59386895e+00  2.59395272e+00 -3.24957665e-05 
 7.96400000e-04  2.49904220e+00  3.92299125e+00  2.59319551e+00  2.59329158e+00 -3.25004729e-05 
 8.01400000e-04  2.49905170e+00  3.92223629e+00  2.59243202e+00  2.59254030e+00 -3.25058281e-05 
 8.06400000e-04  2.49906214e+00  3.92139184e+00  2.59157921e+00  2.59169960e+00 -3.25118272e-05 
 8.11400000e-04  2.49907350e+00  3.92045872e+00  2.59063790e+00  2.59077029e+00 -3.25184643e-05 
 8.16400000e-04  2.49908577e+00  3.91943781e+00  2.58960900e+00  2.58975325e+00 -3.25257332e-05 
 8.21400000e-04  2.49909895e+00  3.91833012e+00  2.58849350e+00  2.58864948e+00 -3.25336268e-05 
 8.26400000e-04  2.49911302e+00  3.91713669e+00  2.58729247e+00  2.58746003e+00 -3.25421377e-05 
 8.31400000e-04  2.49912796e+00  3.91585868e+00  2.58600707e+00  2.58618604e+00 -3.25512577e-05 
 8.36400000e-04  2.49914377e+00  3.91449732e+00  2.58463854e+00  2.58482875e+00 -3.25609781e-05 
 8.41400000e-04  2.49916042e+00  3.91305392e+00  2.58318819e+00  2.58338946e+00 -3.25712895e-05 
 8.46400000e-04  2.49917790e+00  3.91152987e+00  2.58165742e+00  2.58186956e+00 -3.25821822e-05 
 8.51400000e-04  2.49919618e+00  3.90992666e+00  2.58004772e+00  2.58027052e+00 -3.25936455e-05 
 8.56400000e-04  2.49921527e+00  3.90824581e+00  2.57836063e+00  2.57859387e+00 -3.26056687e-05 
 8.61400000e-04  2.49923512e+00  3.90648896e+00  2.57659778e+00  2.57684125e+00 -3.26182400e-05 
 8.66400000e-04  2.49925574e+00  3.90465780e+00  2.57476088e+00  2.57501434e+00 -3.26313474e-05 
 8.71400000e-04  2.49927708e+00  3.90275411e+00  2.57285171e+00  2.57311490e+00 -3.26449783e-05 
 8.76400000e-04  2.49929914e+00  3.90077973e+00  2.57087211e+00  2.57114479e+00 -3.26591196e-05 
 8.81400000e-04  2.49932189e+00  3.89873657e+00  2.56882401e+00  2.56910590e+00 -3.26737577e-05 
 8.86400000e-04  2.49934531e+00  3.89662661e+00  2.56670937e+00  2.56700022e+00 -3.26888784e-05 
 8.91400000e-04  2.49936938e+00  3.89445190e+00  2.56453027e+00  2.56482978e+00 -3.27044671e-05 
 8.96400000e-04  2.49939407e+00  3.89221454e+00  2.56228881e+00  2.56259670e+00 -3.27205087e-05 
 9.01400000e-04  2.49941935e+00  3.88991672e+00  2.55998717e+00  2.56030313e+00 -3.27369879e-05 
 9.06400000e-04  2.49944521e+00  3.88756067e+00  2.55762759e+00  2.55795132e+00 -3.27538885e-05 
 9.11400000e-04  2.49947162e+00  3.88514867e+00  2.55521236e+00  2.55554354e+00 -3.27711942e-05 
 9.16400000e-04  2.49949855e+00  3.88268308e+00  2.55274383e+00  2.55308215e+00 -3.27888883e-05 
 9.21400000e-04  2.49952597e+00  3.88016630e+00  2.55022441e+00  2.55056953e+00 -3.28069535e-05 
 9.26400000e-04  2.49955386e+00  3.87760079e+00  2.54765657e+00  2.54800815e+00 -3.28253724e-05 
 9.31400000e-04  2.49958220e+00  3.87498904e+00  2.54504279e+00  2.54540049e+00 -3.28441268e-05 
 9.36400000e-04  2.49961094e+00  3.87233361e+00  2.54238564e+00  2.54274911e+00 -3.28631987e-05 
 9.41400000e-04  2.49964007e+00  3.86963709e+00  2.53968771e+00  2.54005660e+00 -3.28825694e-05 
 9.46400000e-04  2.49966955e+00  3.86690212e+00  2.53695164e+00  2.53732559e+00 -3.29022201e-05 
 9.51400000e-04  2.49969936e+00  3.86413138e+00  2.53418011e+00  2.53455875e+00 -3.29221314e-05 
 9.56400000e-04  2.49972947e+00  3.86132759e+00  2.53137584e+00  2.53175879e+00 -3.29422840e-05 
 9.61400000e-04  2.49975984e+00  3.85849348e+00  2.52854157e+00  2.52892847e+00 -3.29626581e-05 
 9.66400000e-04  2.49979045e+00  3.85563186e+00  2.52568009e+00  2.52607055e+00 -3.29832338e-05 
 9.71400000e-04  2.49982127e+00  3.85274551e+00  2.52279420e+00  2.52318784e+00 -3.30039908e-05 
 9.76400000e-04  2.49985226e+00  3.84983728e+00  2.51988675e+00  2.52028318e+00 -3.30249089e-05 
 9.81400000e-04  2.49988340e+00  3.84691004e+00  2.51696058e+00  2.51735941e+00 -3.30459674e-05 
 9.86400000e-04  2.49991465e+00  3.84396665e+00  2.51401859e+00  2.51441943e+00 -3.30671457e-05 
