 time            v(vin)          v(b3_collector) v(vout_final)   i(vdd)         
 0.00000000e+00  2.50000000e+00  3.82990743e+00  2.50000000e+00 -3.31711234e-05 
 5.00000000e-08  2.50000031e+00  3.82990743e+00  2.50000000e+00 -3.31711235e-05 
 1.00000000e-07  2.50000063e+00  3.82990743e+00  2.50000000e+00 -3.31711238e-05 
 2.00000000e-07  2.50000126e+00  3.82990743e+00  2.50000000e+00 -3.31711246e-05 
 4.00000000e-07  2.50000251e+00  3.82990740e+00  2.49999997e+00 -3.31711279e-05 
 8.00000000e-07  2.50000503e+00  3.82990712e+00  2.49999969e+00 -3.31711388e-05 
 1.60000000e-06  2.50001005e+00  3.82990342e+00  2.49999599e+00 -3.31711748e-05 
 3.20000000e-06  2.50002010e+00  3.82986253e+00  2.49995513e+00 -3.31713927e-05 
 6.40000000e-06  2.50004020e+00  3.82951856e+00  2.49961140e+00 -3.31733498e-05 
 1.14000000e-05  2.50007157e+00  3.82811917e+00  2.49821301e+00 -3.31823479e-05 
 1.64000000e-05  2.50010286e+00  3.82585093e+00  2.49594648e+00 -3.31979565e-05 
 2.14000000e-05  2.50013406e+00  3.82312710e+00  2.49322483e+00 -3.32172824e-05 
 2.64000000e-05  2.50016512e+00  3.82023890e+00  2.49033910e+00 -3.32379956e-05 
 3.14000000e-05  2.50019601e+00  3.81730610e+00  2.48740900e+00 -3.32591003e-05 
 3.64000000e-05  2.50022672e+00  3.81436964e+00  2.48447543e+00 -3.32802556e-05 
 4.14000000e-05  2.50025720e+00  3.81144416e+00  2.48155302e+00 -3.33013416e-05 
 4.64000000e-05  2.50028743e+00  3.80853612e+00  2.47864825e+00 -3.33223072e-05 
 5.14000000e-05  2.50031737e+00  3.80564951e+00  2.47576508e+00 -3.33431226e-05 
 5.64000000e-05  2.50034700e+00  3.80278752e+00  2.47290671e+00 -3.33637640e-05 
 6.14000000e-05  2.50037629e+00  3.79995310e+00  2.47007607e+00 -3.33842103e-05 
 6.64000000e-05  2.50040521e+00  3.79714909e+00  2.46727602e+00 -3.34044407e-05 
 7.14000000e-05  2.50043372e+00  3.79437829e+00  2.46450934e+00 -3.34244349e-05 
 7.64000000e-05  2.50046181e+00  3.79164347e+00  2.46177879e+00 -3.34441731e-05 
 8.14000000e-05  2.50048944e+00  3.78894735e+00  2.45908710e+00 -3.34636355e-05 
 8.64000000e-05  2.50051659e+00  3.78629261e+00  2.45643695e+00 -3.34828026e-05 
 9.14000000e-05  2.50054323e+00  3.78368191e+00  2.45383097e+00 -3.35016553e-05 
 9.64000000e-05  2.50056934e+00  3.78111784e+00  2.45127178e+00 -3.35201747e-05 
 1.01400000e-04  2.50059488e+00  3.77860296e+00  2.44876191e+00 -3.35383424e-05 
 1.06400000e-04  2.50061983e+00  3.77613979e+00  2.44630387e+00 -3.35561400e-05 
 1.11400000e-04  2.50064418e+00  3.77373079e+00  2.44390013e+00 -3.35735499e-05 
 1.16400000e-04  2.50066788e+00  3.77137835e+00  2.44155308e+00 -3.35905544e-05 
 1.21400000e-04  2.50069093e+00  3.76908484e+00  2.43926506e+00 -3.36071367e-05 
 1.26400000e-04  2.50071330e+00  3.76685253e+00  2.43703837e+00 -3.36232800e-05 
 1.31400000e-04  2.50073496e+00  3.76468368e+00  2.43487522e+00 -3.36389682e-05 
 1.36400000e-04  2.50075590e+00  3.76258044e+00  2.43277779e+00 -3.36541854e-05 
 1.41400000e-04  2.50077609e+00  3.76054492e+00  2.43074817e+00 -3.36689165e-05 
 1.46400000e-04  2.50079552e+00  3.75857915e+00  2.42878840e+00 -3.36831466e-05 
 1.51400000e-04  2.50081416e+00  3.75668511e+00  2.42690043e+00 -3.36968614e-05 
 1.56400000e-04  2.50083199e+00  3.75486470e+00  2.42508615e+00 -3.37100471e-05 
 1.61400000e-04  2.50084901e+00  3.75311973e+00  2.42334739e+00 -3.37226904e-05 
 1.66400000e-04  2.50086519e+00  3.75145195e+00  2.42168589e+00 -3.37347787e-05 
 1.71400000e-04  2.50088051e+00  3.74986303e+00  2.42010330e+00 -3.37462998e-05 
 1.76400000e-04  2.50089497e+00  3.74835458e+00  2.41860122e+00 -3.37572421e-05 
 1.81400000e-04  2.50090854e+00  3.74692809e+00  2.41718116e+00 -3.37675945e-05 
 1.86400000e-04  2.50092121e+00  3.74558500e+00  2.41584452e+00 -3.37773466e-05 
 1.91400000e-04  2.50093298e+00  3.74432666e+00  2.41459267e+00 -3.37864887e-05 
 1.96400000e-04  2.50094382e+00  3.74315432e+00  2.41342684e+00 -3.37950114e-05 
 2.01400000e-04  2.50095374e+00  3.74206917e+00  2.41234822e+00 -3.38029063e-05 
 2.06400000e-04  2.50096271e+00  3.74107229e+00  2.41135788e+00 -3.38101653e-05 
 2.11400000e-04  2.50097073e+00  3.74016469e+00  2.41045681e+00 -3.38167812e-05 
 2.16400000e-04  2.50097780e+00  3.73934726e+00  2.40964593e+00 -3.38227473e-05 
 2.21400000e-04  2.50098390e+00  3.73862084e+00  2.40892603e+00 -3.38280575e-05 
 2.26400000e-04  2.50098903e+00  3.73798616e+00  2.40829786e+00 -3.38327066e-05 
 2.31400000e-04  2.50099318e+00  3.73744384e+00  2.40776203e+00 -3.38366897e-05 
 2.36400000e-04  2.50099635e+00  3.73699443e+00  2.40731908e+00 -3.38400030e-05 
 2.41400000e-04  2.50099854e+00  3.73663839e+00  2.40696946e+00 -3.38426431e-05 
 2.46400000e-04  2.50099974e+00  3.73637606e+00  2.40671352e+00 -3.38446073e-05 
 2.51400000e-04  2.50099996e+00  3.73620772e+00  2.40655151e+00 -3.38458937e-05 
 2.56400000e-04  2.50099919e+00  3.73613353e+00  2.40648359e+00 -3.38465009e-05 
 2.61400000e-04  2.50099744e+00  3.73615356e+00  2.40650984e+00 -3.38464284e-05 
 2.66400000e-04  2.50099470e+00  3.73626780e+00  2.40663023e+00 -3.38456762e-05 
 2.71400000e-04  2.50099097e+00  3.73647613e+00  2.40684463e+00 -3.38442451e-05 
 2.76400000e-04  2.50098627e+00  3.73677834e+00  2.40715284e+00 -3.38421366e-05 
 2.81400000e-04  2.50098060e+00  3.73717412e+00  2.40755452e+00 -3.38393528e-05 
 2.86400000e-04  2.50097396e+00  3.73766308e+00  2.40804930e+00 -3.38358965e-05 
 2.91400000e-04  2.50096636e+00  3.73824472e+00  2.40863666e+00 -3.38317712e-05 
 2.96400000e-04  2.50095780e+00  3.73891846e+00  2.40931602e+00 -3.38269811e-05 
 3.01400000e-04  2.50094830e+00  3.73968362e+00  2.41008669e+00 -3.38215310e-05 
 3.06400000e-04  2.50093786e+00  3.74053944e+00  2.41094790e+00 -3.38154264e-05 
 3.11400000e-04  2.50092650e+00  3.74148505e+00  2.41189878e+00 -3.38086736e-05 
 3.16400000e-04  2.50091423e+00  3.74251951e+00  2.41293838e+00 -3.38012792e-05 
 3.21400000e-04  2.50090105e+00  3.74364177e+00  2.41406565e+00 -3.37932509e-05 
 3.26400000e-04  2.50088698e+00  3.74485071e+00  2.41527947e+00 -3.37845966e-05 
 3.31400000e-04  2.50087204e+00  3.74614511e+00  2.41657861e+00 -3.37753252e-05 
 3.36400000e-04  2.50085623e+00  3.74752367e+00  2.41796177e+00 -3.37654459e-05 
 3.41400000e-04  2.50083958e+00  3.74898502e+00  2.41942756e+00 -3.37549688e-05 
 3.46400000e-04  2.50082210e+00  3.75052769e+00  2.42097452e+00 -3.37439043e-05 
 3.51400000e-04  2.50080382e+00  3.75215012e+00  2.42260108e+00 -3.37322637e-05 
 3.56400000e-04  2.50078473e+00  3.75385069e+00  2.42430562e+00 -3.37200587e-05 
 3.61400000e-04  2.50076488e+00  3.75562770e+00  2.42608642e+00 -3.37073016e-05 
 3.66400000e-04  2.50074426e+00  3.75747936e+00  2.42794172e+00 -3.36940051e-05 
 3.71400000e-04  2.50072292e+00  3.75940382e+00  2.42986963e+00 -3.36801828e-05 
 3.76400000e-04  2.50070086e+00  3.76139916e+00  2.43186824e+00 -3.36658484e-05 
 3.81400000e-04  2.50067811e+00  3.76346336e+00  2.43393554e+00 -3.36510165e-05 
 3.86400000e-04  2.50065469e+00  3.76559437e+00  2.43606946e+00 -3.36357019e-05 
 3.91400000e-04  2.50063062e+00  3.76779006e+00  2.43826787e+00 -3.36199200e-05 
 3.96400000e-04  2.50060593e+00  3.77004822e+00  2.44052857e+00 -3.36036867e-05 
 4.01400000e-04  2.50058065e+00  3.77236660e+00  2.44284929e+00 -3.35870182e-05 
 4.06400000e-04  2.50055479e+00  3.77474288e+00  2.44522771e+00 -3.35699314e-05 
 4.11400000e-04  2.50052838e+00  3.77717469e+00  2.44766147e+00 -3.35524432e-05 
 4.16400000e-04  2.50050145e+00  3.77965959e+00  2.45014811e+00 -3.35345713e-05 
 4.21400000e-04  2.50047403e+00  3.78219510e+00  2.45268518e+00 -3.35163336e-05 
 4.26400000e-04  2.50044614e+00  3.78477870e+00  2.45527012e+00 -3.34977482e-05 
 4.31400000e-04  2.50041780e+00  3.78740780e+00  2.45790037e+00 -3.34788339e-05 
 4.36400000e-04  2.50038906e+00  3.79007979e+00  2.46057329e+00 -3.34596095e-05 
 4.41400000e-04  2.50035993e+00  3.79279200e+00  2.46328622e+00 -3.34400943e-05 
 4.46400000e-04  2.50033045e+00  3.79554172e+00  2.46603647e+00 -3.34203077e-05 
 4.51400000e-04  2.50030064e+00  3.79832623e+00  2.46882129e+00 -3.34002695e-05 
 4.56400000e-04  2.50027053e+00  3.80114274e+00  2.47163791e+00 -3.33799996e-05 
 4.61400000e-04  2.50024016e+00  3.80398845e+00  2.47448352e+00 -3.33595184e-05 
 4.66400000e-04  2.50020955e+00  3.80686054e+00  2.47735530e+00 -3.33388461e-05 
 4.71400000e-04  2.50017873e+00  3.80975616e+00  2.48025040e+00 -3.33180035e-05 
 4.76400000e-04  2.50014774e+00  3.81267242e+00  2.48316594e+00 -3.32970111e-05 
 4.81400000e-04  2.50011660e+00  3.81560643e+00  2.48609902e+00 -3.32758899e-05 
 4.86400000e-04  2.50008535e+00  3.81855528e+00  2.48904673e+00 -3.32546609e-05 
 4.91400000e-04  2.50005401e+00  3.82151604e+00  2.49200616e+00 -3.32333450e-05 
 4.96400000e-04  2.50002262e+00  3.82448579e+00  2.49497436e+00 -3.32119636e-05 
 5.01400000e-04  2.49999120e+00  3.82746159e+00  2.49794841e+00 -3.31905377e-05 
 5.06400000e-04  2.49995980e+00  3.83044048e+00  2.50092535e+00 -3.31690885e-05 
 5.11400000e-04  2.49992843e+00  3.83341952e+00  2.50390225e+00 -3.31476373e-05 
 5.16400000e-04  2.49989714e+00  3.83639577e+00  2.50687616e+00 -3.31262053e-05 
 5.21400000e-04  2.49986594e+00  3.83936630e+00  2.50984414e+00 -3.31048137e-05 
 5.26400000e-04  2.49983488e+00  3.84232815e+00  2.51280328e+00 -3.30834834e-05 
 5.31400000e-04  2.49980399e+00  3.84527843e+00  2.51575063e+00 -3.30622357e-05 
 5.36400000e-04  2.49977328e+00  3.84821422e+00  2.51868332e+00 -3.30410914e-05 
 5.41400000e-04  2.49974280e+00  3.85113262e+00  2.52159844e+00 -3.30200712e-05 
 5.46400000e-04  2.49971257e+00  3.85403077e+00  2.52449312e+00 -3.29991960e-05 
 5.51400000e-04  2.49968263e+00  3.85690582e+00  2.52736453e+00 -3.29784861e-05 
 5.56400000e-04  2.49965300e+00  3.85975495e+00  2.53020984e+00 -3.29579619e-05 
 5.61400000e-04  2.49962371e+00  3.86257534e+00  2.53302625e+00 -3.29376435e-05 
 5.66400000e-04  2.49959479e+00  3.86536425e+00  2.53581101e+00 -3.29175508e-05 
 5.71400000e-04  2.49956628e+00  3.86811893e+00  2.53856137e+00 -3.28977035e-05 
 5.76400000e-04  2.49953819e+00  3.87083669e+00  2.54127466e+00 -3.28781209e-05 
 5.81400000e-04  2.49951056e+00  3.87351487e+00  2.54394822e+00 -3.28588222e-05 
 5.86400000e-04  2.49948341e+00  3.87615084e+00  2.54657942e+00 -3.28398262e-05 
 5.91400000e-04  2.49945677e+00  3.87874203e+00  2.54916569e+00 -3.28211515e-05 
 5.96400000e-04  2.49943066e+00  3.88128592e+00  2.55170452e+00 -3.28028161e-05 
 6.01400000e-04  2.49940512e+00  3.88378001e+00  2.55419343e+00 -3.27848380e-05 
 6.06400000e-04  2.49938017e+00  3.88622188e+00  2.55662998e+00 -3.27672346e-05 
 6.11400000e-04  2.49935582e+00  3.88860915e+00  2.55901180e+00 -3.27500230e-05 
 6.16400000e-04  2.49933212e+00  3.89093949e+00  2.56133658e+00 -3.27332199e-05 
 6.21400000e-04  2.49930907e+00  3.89321064e+00  2.56360206e+00 -3.27168416e-05 
 6.26400000e-04  2.49928670e+00  3.89542038e+00  2.56580602e+00 -3.27009039e-05 
 6.31400000e-04  2.49926504e+00  3.89756658e+00  2.56794633e+00 -3.26854223e-05 
 6.36400000e-04  2.49924410e+00  3.89964715e+00  2.57002092e+00 -3.26704117e-05 
 6.41400000e-04  2.49922391e+00  3.90166007e+00  2.57202776e+00 -3.26558866e-05 
 6.46400000e-04  2.49920448e+00  3.90360338e+00  2.57396492e+00 -3.26418610e-05 
 6.51400000e-04  2.49918584e+00  3.90547521e+00  2.57583051e+00 -3.26283484e-05 
 6.56400000e-04  2.49916801e+00  3.90727375e+00  2.57762274e+00 -3.26153619e-05 
 6.61400000e-04  2.49915099e+00  3.90899725e+00  2.57933986e+00 -3.26029140e-05 
 6.66400000e-04  2.49913481e+00  3.91064405e+00  2.58098022e+00 -3.25910166e-05 
 6.71400000e-04  2.49911949e+00  3.91221255e+00  2.58254223e+00 -3.25796812e-05 
 6.76400000e-04  2.49910503e+00  3.91370124e+00  2.58402439e+00 -3.25689186e-05 
 6.81400000e-04  2.49909146e+00  3.91510869e+00  2.58542525e+00 -3.25587393e-05 
 6.86400000e-04  2.49907879e+00  3.91643353e+00  2.58674348e+00 -3.25491528e-05 
 6.91400000e-04  2.49906702e+00  3.91767449e+00  2.58797779e+00 -3.25401685e-05 
 6.96400000e-04  2.49905618e+00  3.91883038e+00  2.58912700e+00 -3.25317950e-05 
 7.01400000e-04  2.49904626e+00  3.91990006e+00  2.59019001e+00 -3.25240402e-05 
 7.06400000e-04  2.49903729e+00  3.92088253e+00  2.59116578e+00 -3.25169117e-05 
 7.11400000e-04  2.49902927e+00  3.92177683e+00  2.59205338e+00 -3.25104161e-05 
 7.16400000e-04  2.49902220e+00  3.92258210e+00  2.59285195e+00 -3.25045598e-05 
 7.21400000e-04  2.49901610e+00  3.92329756e+00  2.59356072e+00 -3.24993483e-05 
 7.26400000e-04  2.49901097e+00  3.92392253e+00  2.59417902e+00 -3.24947867e-05 
 7.31400000e-04  2.49900682e+00  3.92445640e+00  2.59470625e+00 -3.24908792e-05 
 7.36400000e-04  2.49900365e+00  3.92489867e+00  2.59514190e+00 -3.24876296e-05 
 7.41400000e-04  2.49900146e+00  3.92524890e+00  2.59548554e+00 -3.24850411e-05 
 7.46400000e-04  2.49900026e+00  3.92550676e+00  2.59573686e+00 -3.24831161e-05 
 7.51400000e-04  2.49900004e+00  3.92567200e+00  2.59589561e+00 -3.24818564e-05 
 7.56400000e-04  2.49900081e+00  3.92574446e+00  2.59596163e+00 -3.24812633e-05 
 7.61400000e-04  2.49900256e+00  3.92572407e+00  2.59593486e+00 -3.24813374e-05 
 7.66400000e-04  2.49900530e+00  3.92561085e+00  2.59581533e+00 -3.24820785e-05 
 7.71400000e-04  2.49900903e+00  3.92540491e+00  2.59560315e+00 -3.24834860e-05 
 7.76400000e-04  2.49901373e+00  3.92510644e+00  2.59529852e+00 -3.24855585e-05 
 7.81400000e-04  2.49901940e+00  3.92471573e+00  2.59490174e+00 -3.24882941e-05 
 7.86400000e-04  2.49902604e+00  3.92423316e+00  2.59441318e+00 -3.24916902e-05 
 7.91400000e-04  2.49903364e+00  3.92365918e+00  2.59383332e+00 -3.24957436e-05 
 7.96400000e-04  2.49904220e+00  3.92299436e+00  2.59316270e+00 -3.25004503e-05 
 8.01400000e-04  2.49905170e+00  3.92223932e+00  2.59240199e+00 -3.25058059e-05 
 8.06400000e-04  2.49906214e+00  3.92139479e+00  2.59155189e+00 -3.25118053e-05 
 8.11400000e-04  2.49907350e+00  3.92046159e+00  2.59061325e+00 -3.25184429e-05 
 8.16400000e-04  2.49908577e+00  3.91944061e+00  2.58958694e+00 -3.25257121e-05 
 8.21400000e-04  2.49909895e+00  3.91833283e+00  2.58847397e+00 -3.25336061e-05 
 8.26400000e-04  2.49911302e+00  3.91713932e+00  2.58727540e+00 -3.25421174e-05 
 8.31400000e-04  2.49912796e+00  3.91586123e+00  2.58599239e+00 -3.25512379e-05 
 8.36400000e-04  2.49914377e+00  3.91449979e+00  2.58462618e+00 -3.25609587e-05 
 8.41400000e-04  2.49916042e+00  3.91305632e+00  2.58317807e+00 -3.25712706e-05 
 8.46400000e-04  2.49917790e+00  3.91153219e+00  2.58164947e+00 -3.25821636e-05 
 8.51400000e-04  2.49919618e+00  3.90992889e+00  2.58004185e+00 -3.25936275e-05 
 8.56400000e-04  2.49921527e+00  3.90824796e+00  2.57835677e+00 -3.26056511e-05 
 8.61400000e-04  2.49923512e+00  3.90649103e+00  2.57659585e+00 -3.26182229e-05 
 8.66400000e-04  2.49925574e+00  3.90465979e+00  2.57476079e+00 -3.26313308e-05 
 8.71400000e-04  2.49927708e+00  3.90275602e+00  2.57285337e+00 -3.26449622e-05 
 8.76400000e-04  2.49929914e+00  3.90078156e+00  2.57087543e+00 -3.26591040e-05 
 8.81400000e-04  2.49932189e+00  3.89873832e+00  2.56882890e+00 -3.26737426e-05 
 8.86400000e-04  2.49934531e+00  3.89662828e+00  2.56671575e+00 -3.26888638e-05 
 8.91400000e-04  2.49936938e+00  3.89445349e+00  2.56453803e+00 -3.27044530e-05 
 8.96400000e-04  2.49939407e+00  3.89221605e+00  2.56229787e+00 -3.27204952e-05 
 9.01400000e-04  2.49941935e+00  3.88991815e+00  2.55999742e+00 -3.27369749e-05 
 9.06400000e-04  2.49944521e+00  3.88756202e+00  2.55763894e+00 -3.27538761e-05 
 9.11400000e-04  2.49947162e+00  3.88514995e+00  2.55522472e+00 -3.27711824e-05 
 9.16400000e-04  2.49949855e+00  3.88268428e+00  2.55275710e+00 -3.27888770e-05 
 9.21400000e-04  2.49952597e+00  3.88016743e+00  2.55023849e+00 -3.28069428e-05 
 9.26400000e-04  2.49955386e+00  3.87760184e+00  2.54767134e+00 -3.28253621e-05 
 9.31400000e-04  2.49958220e+00  3.87499001e+00  2.54505817e+00 -3.28441172e-05 
 9.36400000e-04  2.49961094e+00  3.87233451e+00  2.54240152e+00 -3.28631896e-05 
 9.41400000e-04  2.49964007e+00  3.86963792e+00  2.53970399e+00 -3.28825609e-05 
 9.46400000e-04  2.49966955e+00  3.86690288e+00  2.53696822e+00 -3.29022121e-05 
 9.51400000e-04  2.49969936e+00  3.86413207e+00  2.53419689e+00 -3.29221239e-05 
 9.56400000e-04  2.49972947e+00  3.86132821e+00  2.53139271e+00 -3.29422771e-05 
 9.61400000e-04  2.49975984e+00  3.85849404e+00  2.52855843e+00 -3.29626518e-05 
 9.66400000e-04  2.49979045e+00  3.85563235e+00  2.52569684e+00 -3.29832280e-05 
 9.71400000e-04  2.49982127e+00  3.85274594e+00  2.52281074e+00 -3.30039856e-05 
 9.76400000e-04  2.49985226e+00  3.84983765e+00  2.51990296e+00 -3.30249042e-05 
 9.81400000e-04  2.49988340e+00  3.84691034e+00  2.51697638e+00 -3.30459633e-05 
 9.86400000e-04  2.49991465e+00  3.84396690e+00  2.51403386e+00 -3.30671422e-05 
 9.91400000e-04  2.49994599e+00  3.84101021e+00  2.51107831e+00 -3.30884199e-05 
 9.96400000e-04  2.49997738e+00  3.83804321e+00  2.50811264e+00 -3.31097756e-05 
 1.00140000e-03  2.50000880e+00  3.83506880e+00  2.50513978e+00 -3.31311882e-05 
 1.00640000e-03  2.50004020e+00  3.83208994e+00  2.50216266e+00 -3.31526365e-05 
 1.01140000e-03  2.50007157e+00  3.82910955e+00  2.49918421e+00 -3.31740993e-05 
 1.01640000e-03  2.50010286e+00  3.82613060e+00  2.49620739e+00 -3.31955555e-05 
 1.02140000e-03  2.50013406e+00  3.82315601e+00  2.49323514e+00 -3.32169838e-05 
 1.02640000e-03  2.50016512e+00  3.82018874e+00  2.49027040e+00 -3.32383630e-05 
 1.03140000e-03  2.50019601e+00  3.81723173e+00  2.48731610e+00 -3.32596718e-05 
 1.03640000e-03  2.50022672e+00  3.81428790e+00  2.48437518e+00 -3.32808892e-05 
 1.04140000e-03  2.50025720e+00  3.81136018e+00  2.48145055e+00 -3.33019941e-05 
 1.04640000e-03  2.50028743e+00  3.80845147e+00  2.47854511e+00 -3.33229655e-05 
 1.05140000e-03  2.50031737e+00  3.80556466e+00  2.47566174e+00 -3.33437826e-05 
 1.05640000e-03  2.50034700e+00  3.80270261e+00  2.47280332e+00 -3.33644246e-05 
 1.06140000e-03  2.50037629e+00  3.79986817e+00  2.46997267e+00 -3.33848710e-05 
 1.06640000e-03  2.50040521e+00  3.79706416e+00  2.46717262e+00 -3.34051014e-05 
 1.07140000e-03  2.50043372e+00  3.79429337e+00  2.46440596e+00 -3.34250956e-05 
 1.07640000e-03  2.50046181e+00  3.79155855e+00  2.46167542e+00 -3.34448338e-05 
 1.08140000e-03  2.50048944e+00  3.78886243e+00  2.45898374e+00 -3.34642961e-05 
 1.08640000e-03  2.50051659e+00  3.78620770e+00  2.45633360e+00 -3.34834632e-05 
 1.09140000e-03  2.50054323e+00  3.78359700e+00  2.45372764e+00 -3.35023159e-05 
 1.09640000e-03  2.50056934e+00  3.78103294e+00  2.45116845e+00 -3.35208353e-05 
 1.10140000e-03  2.50059488e+00  3.77851807e+00  2.44865860e+00 -3.35390029e-05 
 1.10640000e-03  2.50061983e+00  3.77605491e+00  2.44620058e+00 -3.35568005e-05 
 1.11140000e-03  2.50064418e+00  3.77364591e+00  2.44379685e+00 -3.35742103e-05 
 1.11640000e-03  2.50066788e+00  3.77129349e+00  2.44144981e+00 -3.35912148e-05 
 1.12140000e-03  2.50069093e+00  3.76899998e+00  2.43916181e+00 -3.36077970e-05 
 1.12640000e-03  2.50071330e+00  3.76676769e+00  2.43693513e+00 -3.36239403e-05 
 1.13140000e-03  2.50073496e+00  3.76459884e+00  2.43477201e+00 -3.36396284e-05 
 1.13640000e-03  2.50075590e+00  3.76249561e+00  2.43267459e+00 -3.36548456e-05 
 1.14140000e-03  2.50077609e+00  3.76046010e+00  2.43064499e+00 -3.36695766e-05 
 1.14640000e-03  2.50079552e+00  3.75849435e+00  2.42868524e+00 -3.36838066e-05 
 1.15140000e-03  2.50081416e+00  3.75660032e+00  2.42679728e+00 -3.36975213e-05 
 1.15640000e-03  2.50083199e+00  3.75477992e+00  2.42498303e+00 -3.37107069e-05 
 1.16140000e-03  2.50084901e+00  3.75303496e+00  2.42324429e+00 -3.37233502e-05 
 1.16640000e-03  2.50086519e+00  3.75136719e+00  2.42158280e+00 -3.37354384e-05 
 1.17140000e-03  2.50088051e+00  3.74977829e+00  2.42000024e+00 -3.37469594e-05 
 1.17640000e-03  2.50089497e+00  3.74826985e+00  2.41849818e+00 -3.37579015e-05 
 1.18140000e-03  2.50090854e+00  3.74684337e+00  2.41707813e+00 -3.37682538e-05 
 1.18640000e-03  2.50092121e+00  3.74550030e+00  2.41574152e+00 -3.37780059e-05 
