 time            v(vin)          v(b3_collector) v(vout_drv)     v(vout_final)   i(vdd)         
 0.00000000e+00  2.50000000e+00  3.82990743e+00  2.50000000e+00  2.50000000e+00 -3.31711234e-05 
 5.00000000e-08  2.50000031e+00  3.82990743e+00  2.50000000e+00  2.50000000e+00 -3.31711236e-05 
 1.00000000e-07  2.50000063e+00  3.82990743e+00  2.50000000e+00  2.50000000e+00 -3.31711240e-05 
 2.00000000e-07  2.50000126e+00  3.82990742e+00  2.49999999e+00  2.50000000e+00 -3.31711251e-05 
 4.00000000e-07  2.50000251e+00  3.82990735e+00  2.49999992e+00  2.50000000e+00 -3.31711294e-05 
 8.00000000e-07  2.50000503e+00  3.82990648e+00  2.49999905e+00  2.49999997e+00 -3.31711443e-05 
 1.60000000e-06  2.50001005e+00  3.82989629e+00  2.49998886e+00  2.49999930e+00 -3.31712149e-05 
 3.20000000e-06  2.50002010e+00  3.82980003e+00  2.49989262e+00  2.49998697e+00 -3.31717732e-05 
 6.40000000e-06  2.50004020e+00  3.82916092e+00  2.49925369e+00  2.49982933e+00 -3.31758040e-05 
 1.14000000e-05  2.50007157e+00  3.82714245e+00  2.49723625e+00  2.49897752e+00 -3.31895153e-05 
 1.64000000e-05  2.50010286e+00  3.82447364e+00  2.49456951e+00  2.49732449e+00 -3.32083450e-05 
 2.14000000e-05  2.50013406e+00  3.82163853e+00  2.49173732e+00  2.49508198e+00 -3.32285990e-05 
 2.64000000e-05  2.50016512e+00  3.81875479e+00  2.48885712e+00  2.49250953e+00 -3.32492784e-05 
 3.14000000e-05  2.50019601e+00  3.81584645e+00  2.48595278e+00  2.48976513e+00 -3.32701823e-05 
 3.64000000e-05  2.50022672e+00  3.81293320e+00  2.48304392e+00  2.48693353e+00 -3.32911486e-05 
 4.14000000e-05  2.50025720e+00  3.81002689e+00  2.48014232e+00  2.48406234e+00 -3.33120809e-05 
 4.64000000e-05  2.50028743e+00  3.80713521e+00  2.47725565e+00  2.48117882e+00 -3.33329178e-05 
 5.14000000e-05  2.50031737e+00  3.80426368e+00  2.47438942e+00  2.47829909e+00 -3.33536163e-05 
 5.64000000e-05  2.50034700e+00  3.80141657e+00  2.47154788e+00  2.47543326e+00 -3.33741437e-05 
 6.14000000e-05  2.50037629e+00  3.79859750e+00  2.46873464e+00  2.47258810e+00 -3.33944731e-05 
 6.64000000e-05  2.50040521e+00  3.79580970e+00  2.46595292e+00  2.46976857e+00 -3.34145806e-05 
 7.14000000e-05  2.50043372e+00  3.79305617e+00  2.46320573e+00  2.46697866e+00 -3.34344441e-05 
 7.64000000e-05  2.50046181e+00  3.79033978e+00  2.46049591e+00  2.46422175e+00 -3.34540429e-05 
 8.14000000e-05  2.50048944e+00  3.78766330e+00  2.45782624e+00  2.46150096e+00 -3.34733567e-05 
 8.64000000e-05  2.50051659e+00  3.78502944e+00  2.45519941e+00  2.45881916e+00 -3.34923659e-05 
 9.14000000e-05  2.50054323e+00  3.78244085e+00  2.45261806e+00  2.45617915e+00 -3.35110514e-05 
 9.64000000e-05  2.50056934e+00  3.77990011e+00  2.45008479e+00  2.45358360e+00 -3.35293944e-05 
 1.01400000e-04  2.50059488e+00  3.77740978e+00  2.44760211e+00  2.45103513e+00 -3.35473764e-05 
 1.06400000e-04  2.50061983e+00  3.77497233e+00  2.44517253e+00  2.44853631e+00 -3.35649794e-05 
 1.11400000e-04  2.50064418e+00  3.77259021e+00  2.44279845e+00  2.44608963e+00 -3.35821858e-05 
 1.16400000e-04  2.50066788e+00  3.77026579e+00  2.44048226e+00  2.44369755e+00 -3.35989784e-05 
 1.21400000e-04  2.50069093e+00  3.76800140e+00  2.43822627e+00  2.44136245e+00 -3.36153401e-05 
 1.26400000e-04  2.50071330e+00  3.76579930e+00  2.43603274e+00  2.43908667e+00 -3.36312548e-05 
 1.31400000e-04  2.50073496e+00  3.76366170e+00  2.43390386e+00  2.43687249e+00 -3.36467063e-05 
 1.36400000e-04  2.50075590e+00  3.76159074e+00  2.43184176e+00  2.43472213e+00 -3.36616791e-05 
 1.41400000e-04  2.50077609e+00  3.75958848e+00  2.42984850e+00  2.43263772e+00 -3.36761583e-05 
 1.46400000e-04  2.50079552e+00  3.75765694e+00  2.42792608e+00  2.43062136e+00 -3.36901292e-05 
 1.51400000e-04  2.50081416e+00  3.75579803e+00  2.42607643e+00  2.42867507e+00 -3.37035779e-05 
 1.56400000e-04  2.50083199e+00  3.75401364e+00  2.42430139e+00  2.42680079e+00 -3.37164907e-05 
 1.61400000e-04  2.50084901e+00  3.75230554e+00  2.42260274e+00  2.42500040e+00 -3.37288547e-05 
 1.66400000e-04  2.50086519e+00  3.75067545e+00  2.42098219e+00  2.42327570e+00 -3.37406575e-05 
 1.71400000e-04  2.50088051e+00  3.74912499e+00  2.41944136e+00  2.42162843e+00 -3.37518872e-05 
 1.76400000e-04  2.50089497e+00  3.74765573e+00  2.41798180e+00  2.42006023e+00 -3.37625325e-05 
 1.81400000e-04  2.50090854e+00  3.74626914e+00  2.41660497e+00  2.41857268e+00 -3.37725826e-05 
 1.86400000e-04  2.50092121e+00  3.74496660e+00  2.41531224e+00  2.41716726e+00 -3.37820274e-05 
 1.91400000e-04  2.50093298e+00  3.74374943e+00  2.41410492e+00  2.41584539e+00 -3.37908574e-05 
 1.96400000e-04  2.50094382e+00  3.74261884e+00  2.41298421e+00  2.41460838e+00 -3.37990638e-05 
 2.01400000e-04  2.50095374e+00  3.74157597e+00  2.41195124e+00  2.41345749e+00 -3.38066382e-05 
 2.06400000e-04  2.50096271e+00  3.74062186e+00  2.41100705e+00  2.41239386e+00 -3.38135731e-05 
 2.11400000e-04  2.50097073e+00  3.73975747e+00  2.41015258e+00  2.41141857e+00 -3.38198614e-05 
 2.16400000e-04  2.50097780e+00  3.73898367e+00  2.40938869e+00  2.41053258e+00 -3.38254967e-05 
 2.21400000e-04  2.50098390e+00  3.73830124e+00  2.40871615e+00  2.40973680e+00 -3.38304735e-05 
 2.26400000e-04  2.50098903e+00  3.73771086e+00  2.40813563e+00  2.40903201e+00 -3.38347867e-05 
 2.31400000e-04  2.50099318e+00  3.73721312e+00  2.40764771e+00  2.40841892e+00 -3.38384320e-05 
 2.36400000e-04  2.50099635e+00  3.73680852e+00  2.40725289e+00  2.40789816e+00 -3.38414056e-05 
 2.41400000e-04  2.50099854e+00  3.73649747e+00  2.40695155e+00  2.40747023e+00 -3.38437046e-05 
 2.46400000e-04  2.50099974e+00  3.73628027e+00  2.40674401e+00  2.40713558e+00 -3.38453267e-05 
 2.51400000e-04  2.50099996e+00  3.73615715e+00  2.40663046e+00  2.40689453e+00 -3.38462702e-05 
 2.56400000e-04  2.50099919e+00  3.73612823e+00  2.40661103e+00  2.40674734e+00 -3.38465342e-05 
 2.61400000e-04  2.50099744e+00  3.73619354e+00  2.40668572e+00  2.40669413e+00 -3.38461185e-05 
 2.66400000e-04  2.50099470e+00  3.73635301e+00  2.40685447e+00  2.40673497e+00 -3.38450234e-05 
 2.71400000e-04  2.50099097e+00  3.73660648e+00  2.40711711e+00  2.40686982e+00 -3.38432501e-05 
 2.76400000e-04  2.50098627e+00  3.73695369e+00  2.40747337e+00  2.40709854e+00 -3.38408004e-05 
 2.81400000e-04  2.50098060e+00  3.73739430e+00  2.40792289e+00  2.40742090e+00 -3.38376767e-05 
 2.86400000e-04  2.50097396e+00  3.73792787e+00  2.40846521e+00  2.40783657e+00 -3.38338822e-05 
 2.91400000e-04  2.50096636e+00  3.73855385e+00  2.40909981e+00  2.40834514e+00 -3.38294208e-05 
 2.96400000e-04  2.50095780e+00  3.73927161e+00  2.40982603e+00  2.40894610e+00 -3.38242970e-05 
 3.01400000e-04  2.50094830e+00  3.74008045e+00  2.41064314e+00  2.40963883e+00 -3.38185159e-05 
 3.06400000e-04  2.50093786e+00  3.74097953e+00  2.41155033e+00  2.41042265e+00 -3.38120834e-05 
 3.11400000e-04  2.50092650e+00  3.74196796e+00  2.41254669e+00  2.41129677e+00 -3.38050059e-05 
 3.16400000e-04  2.50091423e+00  3.74304476e+00  2.41363121e+00  2.41226031e+00 -3.37972907e-05 
 3.21400000e-04  2.50090105e+00  3.74420882e+00  2.41480280e+00  2.41331229e+00 -3.37889455e-05 
 3.26400000e-04  2.50088698e+00  3.74545899e+00  2.41606029e+00  2.41445168e+00 -3.37799787e-05 
 3.31400000e-04  2.50087204e+00  3.74679402e+00  2.41740242e+00  2.41567731e+00 -3.37703994e-05 
 3.36400000e-04  2.50085623e+00  3.74821256e+00  2.41882783e+00  2.41698796e+00 -3.37602172e-05 
 3.41400000e-04  2.50083958e+00  3.74971318e+00  2.42033510e+00  2.41838232e+00 -3.37494425e-05 
 3.46400000e-04  2.50082210e+00  3.75129439e+00  2.42192272e+00  2.41985898e+00 -3.37380860e-05 
 3.51400000e-04  2.50080382e+00  3.75295460e+00  2.42358910e+00  2.42141647e+00 -3.37261592e-05 
 3.56400000e-04  2.50078473e+00  3.75469214e+00  2.42533255e+00  2.42305322e+00 -3.37136741e-05 
 3.61400000e-04  2.50076488e+00  3.75650526e+00  2.42715134e+00  2.42476759e+00 -3.37006433e-05 
 3.66400000e-04  2.50074426e+00  3.75839217e+00  2.42904364e+00  2.42655786e+00 -3.36870799e-05 
 3.71400000e-04  2.50072292e+00  3.76035095e+00  2.43100756e+00  2.42842224e+00 -3.36729976e-05 
 3.76400000e-04  2.50070086e+00  3.76237966e+00  2.43304113e+00  2.43035886e+00 -3.36584105e-05 
 3.81400000e-04  2.50067811e+00  3.76447625e+00  2.43514231e+00  2.43236577e+00 -3.36433333e-05 
 3.86400000e-04  2.50065469e+00  3.76663864e+00  2.43730900e+00  2.43444098e+00 -3.36277811e-05 
 3.91400000e-04  2.50063062e+00  3.76886465e+00  2.43953903e+00  2.43658239e+00 -3.36117696e-05 
 3.96400000e-04  2.50060593e+00  3.77115207e+00  2.44183017e+00  2.43878788e+00 -3.35953148e-05 
 4.01400000e-04  2.50058065e+00  3.77349860e+00  2.44418013e+00  2.44105523e+00 -3.35784333e-05 
 4.06400000e-04  2.50055479e+00  3.77590189e+00  2.44658656e+00  2.44338217e+00 -3.35611419e-05 
 4.11400000e-04  2.50052838e+00  3.77835955e+00  2.44904705e+00  2.44576638e+00 -3.35434581e-05 
 4.16400000e-04  2.50050145e+00  3.78086912e+00  2.45155915e+00  2.44820548e+00 -3.35253996e-05 
 4.21400000e-04  2.50047403e+00  3.78342810e+00  2.45412035e+00  2.45069702e+00 -3.35069843e-05 
 4.26400000e-04  2.50044614e+00  3.78603392e+00  2.45672810e+00  2.45323853e+00 -3.34882309e-05 
 4.31400000e-04  2.50041780e+00  3.78868400e+00  2.45937978e+00  2.45582746e+00 -3.34691580e-05 
 4.36400000e-04  2.50038906e+00  3.79137569e+00  2.46207276e+00  2.45846123e+00 -3.34497846e-05 
 4.41400000e-04  2.50035993e+00  3.79410631e+00  2.46480436e+00  2.46113721e+00 -3.34301302e-05 
 4.46400000e-04  2.50033045e+00  3.79687313e+00  2.46757185e+00  2.46385275e+00 -3.34102145e-05 
 4.51400000e-04  2.50030064e+00  3.79967340e+00  2.47037247e+00  2.46660512e+00 -3.33900571e-05 
 4.56400000e-04  2.50027053e+00  3.80250434e+00  2.47320345e+00  2.46939159e+00 -3.33696783e-05 
 4.61400000e-04  2.50024016e+00  3.80536313e+00  2.47606196e+00  2.47220939e+00 -3.33490984e-05 
 4.66400000e-04  2.50020955e+00  3.80824693e+00  2.47894516e+00  2.47505572e+00 -3.33283379e-05 
 4.71400000e-04  2.50017873e+00  3.81115287e+00  2.48185018e+00  2.47792774e+00 -3.33074174e-05 
 4.76400000e-04  2.50014774e+00  3.81407807e+00  2.48477416e+00  2.48082259e+00 -3.32863577e-05 
 4.81400000e-04  2.50011660e+00  3.81701962e+00  2.48771417e+00  2.48373742e+00 -3.32651798e-05 
 4.86400000e-04  2.50008535e+00  3.81997461e+00  2.49066731e+00  2.48666931e+00 -3.32439047e-05 
 4.91400000e-04  2.50005401e+00  3.82294011e+00  2.49363064e+00  2.48961537e+00 -3.32225534e-05 
 4.96400000e-04  2.50002262e+00  3.82591318e+00  2.49660124e+00  2.49257267e+00 -3.32011472e-05 
 5.01400000e-04  2.49999120e+00  3.82889088e+00  2.49957617e+00  2.49553828e+00 -3.31797073e-05 
 5.06400000e-04  2.49995980e+00  3.83187026e+00  2.50255247e+00  2.49850927e+00 -3.31582549e-05 
 5.11400000e-04  2.49992843e+00  3.83484837e+00  2.50552721e+00  2.50148269e+00 -3.31368111e-05 
 5.16400000e-04  2.49989714e+00  3.83782228e+00  2.50849745e+00  2.50445562e+00 -3.31153973e-05 
 5.21400000e-04  2.49986594e+00  3.84078905e+00  2.51146025e+00  2.50742510e+00 -3.30940344e-05 
 5.26400000e-04  2.49983488e+00  3.84374576e+00  2.51441270e+00  2.51038820e+00 -3.30727437e-05 
 5.31400000e-04  2.49980399e+00  3.84668948e+00  2.51735188e+00  2.51334201e+00 -3.30515460e-05 
 5.36400000e-04  2.49977328e+00  3.84961732e+00  2.52027489e+00  2.51628361e+00 -3.30304622e-05 
 5.41400000e-04  2.49974280e+00  3.85252639e+00  2.52317887e+00  2.51921010e+00 -3.30095131e-05 
 5.46400000e-04  2.49971257e+00  3.85541384e+00  2.52606095e+00  2.52211860e+00 -3.29887193e-05 
 5.51400000e-04  2.49968263e+00  3.85827683e+00  2.52891830e+00  2.52500625e+00 -3.29681011e-05 
 5.56400000e-04  2.49965300e+00  3.86111254e+00  2.53174811e+00  2.52787020e+00 -3.29476788e-05 
 5.61400000e-04  2.49962371e+00  3.86391819e+00  2.53454761e+00  2.53070765e+00 -3.29274724e-05 
 5.66400000e-04  2.49959479e+00  3.86669103e+00  2.53731405e+00  2.53351581e+00 -3.29075017e-05 
 5.71400000e-04  2.49956628e+00  3.86942834e+00  2.54004472e+00  2.53629192e+00 -3.28877862e-05 
 5.76400000e-04  2.49953819e+00  3.87212745e+00  2.54273694e+00  2.53903327e+00 -3.28683452e-05 
 5.81400000e-04  2.49951056e+00  3.87478571e+00  2.54538809e+00  2.54173717e+00 -3.28491976e-05 
 5.86400000e-04  2.49948341e+00  3.87740051e+00  2.54799556e+00  2.54440096e+00 -3.28303621e-05 
 5.91400000e-04  2.49945677e+00  3.87996932e+00  2.55055682e+00  2.54702205e+00 -3.28118571e-05 
 5.96400000e-04  2.49943066e+00  3.88248962e+00  2.55306936e+00  2.54959788e+00 -3.27937006e-05 
 6.01400000e-04  2.49940512e+00  3.88495895e+00  2.55553073e+00  2.55212593e+00 -3.27759101e-05 
 6.06400000e-04  2.49938017e+00  3.88737490e+00  2.55793854e+00  2.55460373e+00 -3.27585031e-05 
 6.11400000e-04  2.49935582e+00  3.88973513e+00  2.56029042e+00  2.55702886e+00 -3.27414964e-05 
 6.16400000e-04  2.49933212e+00  3.89203733e+00  2.56258411e+00  2.55939897e+00 -3.27249065e-05 
 6.21400000e-04  2.49930907e+00  3.89427927e+00  2.56481737e+00  2.56171175e+00 -3.27087494e-05 
 6.26400000e-04  2.49928670e+00  3.89645876e+00  2.56698802e+00  2.56396495e+00 -3.26930408e-05 
 6.31400000e-04  2.49926504e+00  3.89857370e+00  2.56909396e+00  2.56615637e+00 -3.26777959e-05 
 6.36400000e-04  2.49924410e+00  3.90062202e+00  2.57113314e+00  2.56828388e+00 -3.26630294e-05 
 6.41400000e-04  2.49922391e+00  3.90260175e+00  2.57310360e+00  2.57034544e+00 -3.26487555e-05 
 6.46400000e-04  2.49920448e+00  3.90451096e+00  2.57500341e+00  2.57233902e+00 -3.26349881e-05 
 6.51400000e-04  2.49918584e+00  3.90634780e+00  2.57683073e+00  2.57426270e+00 -3.26217404e-05 
 6.56400000e-04  2.49916801e+00  3.90811050e+00  2.57858381e+00  2.57611462e+00 -3.26090251e-05 
 6.61400000e-04  2.49915099e+00  3.90979735e+00  2.58026094e+00  2.57789299e+00 -3.25968545e-05 
 6.66400000e-04  2.49913481e+00  3.91140673e+00  2.58186051e+00  2.57959607e+00 -3.25852403e-05 
 6.71400000e-04  2.49911949e+00  3.91293706e+00  2.58338096e+00  2.58122223e+00 -3.25741936e-05 
 6.76400000e-04  2.49910503e+00  3.91438689e+00  2.58482083e+00  2.58276990e+00 -3.25637251e-05 
 6.81400000e-04  2.49909146e+00  3.91575481e+00  2.58617873e+00  2.58423758e+00 -3.25538448e-05 
 6.86400000e-04  2.49907879e+00  3.91703949e+00  2.58745334e+00  2.58562384e+00 -3.25445621e-05 
 6.91400000e-04  2.49906702e+00  3.91823971e+00  2.58864345e+00  2.58692737e+00 -3.25358860e-05 
 6.96400000e-04  2.49905618e+00  3.91935430e+00  2.58974790e+00  2.58814689e+00 -3.25278248e-05 
 7.01400000e-04  2.49904626e+00  3.92038219e+00  2.59076563e+00  2.58928123e+00 -3.25203862e-05 
 7.06400000e-04  2.49903729e+00  3.92132239e+00  2.59169566e+00  2.59032930e+00 -3.25135773e-05 
 7.11400000e-04  2.49902927e+00  3.92217399e+00  2.59253709e+00  2.59129010e+00 -3.25074046e-05 
 7.16400000e-04  2.49902220e+00  3.92293618e+00  2.59328912e+00  2.59216268e+00 -3.25018741e-05 
 7.21400000e-04  2.49901610e+00  3.92360822e+00  2.59395101e+00  2.59294622e+00 -3.24969910e-05 
 7.26400000e-04  2.49901097e+00  3.92418947e+00  2.59452214e+00  2.59363996e+00 -3.24927600e-05 
 7.31400000e-04  2.49900682e+00  3.92467936e+00  2.59500195e+00  2.59424323e+00 -3.24891851e-05 
 7.36400000e-04  2.49900365e+00  3.92507742e+00  2.59538999e+00  2.59475546e+00 -3.24862698e-05 
 7.41400000e-04  2.49900146e+00  3.92538328e+00  2.59568587e+00  2.59517614e+00 -3.24840168e-05 
 7.46400000e-04  2.49900026e+00  3.92559663e+00  2.59588931e+00  2.59550488e+00 -3.24824283e-05 
 7.51400000e-04  2.49900004e+00  3.92571728e+00  2.59600013e+00  2.59574135e+00 -3.24815059e-05 
 7.56400000e-04  2.49900081e+00  3.92574510e+00  2.59601820e+00  2.59588534e+00 -3.24812503e-05 
 7.61400000e-04  2.49900256e+00  3.92568006e+00  2.59594352e+00  2.59593669e+00 -3.24816619e-05 
 7.66400000e-04  2.49900530e+00  3.92552224e+00  2.59577615e+00  2.59589537e+00 -3.24827403e-05 
 7.71400000e-04  2.49900903e+00  3.92527177e+00  2.59551625e+00  2.59576141e+00 -3.24844845e-05 
 7.76400000e-04  2.49901373e+00  3.92492891e+00  2.59516408e+00  2.59553493e+00 -3.24868928e-05 
 7.81400000e-04  2.49901940e+00  3.92449397e+00  2.59471996e+00  2.59521616e+00 -3.24899628e-05 
 7.86400000e-04  2.49902604e+00  3.92396738e+00  2.59418434e+00  2.59480540e+00 -3.24936918e-05 
 7.91400000e-04  2.49903364e+00  3.92334963e+00  2.59355771e+00  2.59430305e+00 -3.24980761e-05 
 7.96400000e-04  2.49904220e+00  3.92264134e+00  2.59284069e+00  2.59370958e+00 -3.25031116e-05 
 8.01400000e-04  2.49905170e+00  3.92184317e+00  2.59203396e+00  2.59302557e+00 -3.25087935e-05 
 8.06400000e-04  2.49906214e+00  3.92095588e+00  2.59113829e+00  2.59225168e+00 -3.25151163e-05 
 8.11400000e-04  2.49907350e+00  3.91998035e+00  2.59015455e+00  2.59138864e+00 -3.25220740e-05 
 8.16400000e-04  2.49908577e+00  3.91891749e+00  2.58908369e+00  2.59043728e+00 -3.25296600e-05 
 8.21400000e-04  2.49909895e+00  3.91776834e+00  2.58792673e+00  2.58939853e+00 -3.25378670e-05 
 8.26400000e-04  2.49911302e+00  3.91653401e+00  2.58668478e+00  2.58827338e+00 -3.25466872e-05 
 8.31400000e-04  2.49912796e+00  3.91521567e+00  2.58535905e+00  2.58706292e+00 -3.25561121e-05 
 8.36400000e-04  2.49914377e+00  3.91381460e+00  2.58395081e+00  2.58576830e+00 -3.25661327e-05 
 8.41400000e-04  2.49916042e+00  3.91233215e+00  2.58246142e+00  2.58439078e+00 -3.25767395e-05 
 8.46400000e-04  2.49917790e+00  3.91076976e+00  2.58089232e+00  2.58293169e+00 -3.25879222e-05 
 8.51400000e-04  2.49919618e+00  3.90912892e+00  2.57924501e+00  2.58139243e+00 -3.25996701e-05 
 8.56400000e-04  2.49921527e+00  3.90741123e+00  2.57752110e+00  2.57977449e+00 -3.26119720e-05 
 8.61400000e-04  2.49923512e+00  3.90561834e+00  2.57572224e+00  2.57807943e+00 -3.26248160e-05 
 8.66400000e-04  2.49925574e+00  3.90375198e+00  2.57385018e+00  2.57630888e+00 -3.26381897e-05 
 8.71400000e-04  2.49927708e+00  3.90181397e+00  2.57190673e+00  2.57446457e+00 -3.26520804e-05 
 8.76400000e-04  2.49929914e+00  3.89980618e+00  2.56989377e+00  2.57254827e+00 -3.26664745e-05 
 8.81400000e-04  2.49932189e+00  3.89773056e+00  2.56781324e+00  2.57056184e+00 -3.26813583e-05 
 8.86400000e-04  2.49934531e+00  3.89558911e+00  2.56566718e+00  2.56850720e+00 -3.26967174e-05 
 8.91400000e-04  2.49936938e+00  3.89338392e+00  2.56345765e+00  2.56638635e+00 -3.27125369e-05 
 8.96400000e-04  2.49939407e+00  3.89111713e+00  2.56118681e+00  2.56420134e+00 -3.27288016e-05 
 9.01400000e-04  2.49941935e+00  3.88879093e+00  2.55885686e+00  2.56195429e+00 -3.27454956e-05 
 9.06400000e-04  2.49944521e+00  3.88640760e+00  2.55647007e+00  2.55964740e+00 -3.27626029e-05 
 9.11400000e-04  2.49947162e+00  3.88396945e+00  2.55402876e+00  2.55728289e+00 -3.27801069e-05 
 9.16400000e-04  2.49949855e+00  3.88147886e+00  2.55153531e+00  2.55486307e+00 -3.27979905e-05 
 9.21400000e-04  2.49952597e+00  3.87893825e+00  2.54899214e+00  2.55239031e+00 -3.28162364e-05 
 9.26400000e-04  2.49955386e+00  3.87635010e+00  2.54640175e+00  2.54986700e+00 -3.28348268e-05 
 9.31400000e-04  2.49958220e+00  3.87371694e+00  2.54376666e+00  2.54729560e+00 -3.28537437e-05 
 9.36400000e-04  2.49961094e+00  3.87104135e+00  2.54108943e+00  2.54467864e+00 -3.28729686e-05 
 9.41400000e-04  2.49964007e+00  3.86832593e+00  2.53837270e+00  2.54201865e+00 -3.28924828e-05 
 9.46400000e-04  2.49966955e+00  3.86557335e+00  2.53561912e+00  2.53931825e+00 -3.29122672e-05 
 9.51400000e-04  2.49969936e+00  3.86278630e+00  2.53283138e+00  2.53658008e+00 -3.29323025e-05 
 9.56400000e-04  2.49972947e+00  3.85996751e+00  2.53001223e+00  2.53380681e+00 -3.29525691e-05 
 9.61400000e-04  2.49975984e+00  3.85711974e+00  2.52716441e+00  2.53100117e+00 -3.29730471e-05 
 9.66400000e-04  2.49979045e+00  3.85424580e+00  2.52429073e+00  2.52816590e+00 -3.29937165e-05 
 9.71400000e-04  2.49982127e+00  3.85134851e+00  2.52139402e+00  2.52530379e+00 -3.30145570e-05 
 9.76400000e-04  2.49985226e+00  3.84843071e+00  2.51847711e+00  2.52241765e+00 -3.30355481e-05 
 9.81400000e-04  2.49988340e+00  3.84549527e+00  2.51554288e+00  2.51951030e+00 -3.30566692e-05 
 9.86400000e-04  2.49991465e+00  3.84254509e+00  2.51259421e+00  2.51658463e+00 -3.30778995e-05 
