 time            v(vin)          v(vout_final)   i(vdd)         
 0.00000000e+00  2.50000000e+00  3.84342028e+00 -3.25734828e-05 
 5.00000000e-08  2.50000031e+00  3.84342028e+00 -3.25734829e-05 
 1.00000000e-07  2.50000063e+00  3.84342028e+00 -3.25734832e-05 
 2.00000000e-07  2.50000126e+00  3.84342028e+00 -3.25734840e-05 
 4.00000000e-07  2.50000251e+00  3.84342026e+00 -3.25734872e-05 
 8.00000000e-07  2.50000503e+00  3.84341999e+00 -3.25734978e-05 
 1.60000000e-06  2.50001005e+00  3.84341655e+00 -3.25735326e-05 
 3.20000000e-06  2.50002010e+00  3.84337838e+00 -3.25737343e-05 
 6.40000000e-06  2.50004020e+00  3.84305592e+00 -3.25755339e-05 
 1.14000000e-05  2.50007157e+00  3.84173720e+00 -3.25838679e-05 
 1.64000000e-05  2.50010286e+00  3.83958927e+00 -3.25984241e-05 
 2.14000000e-05  2.50013406e+00  3.83699907e+00 -3.26165445e-05 
 2.64000000e-05  2.50016512e+00  3.83424484e+00 -3.26360324e-05 
 3.14000000e-05  2.50019601e+00  3.83144394e+00 -3.26559237e-05 
 3.64000000e-05  2.50022672e+00  3.82863768e+00 -3.26758783e-05 
 4.14000000e-05  2.50025720e+00  3.82584112e+00 -3.26957742e-05 
 4.64000000e-05  2.50028743e+00  3.82306091e+00 -3.27155593e-05 
 5.14000000e-05  2.50031737e+00  3.82030103e+00 -3.27352037e-05 
 5.64000000e-05  2.50034700e+00  3.81756461e+00 -3.27546848e-05 
 6.14000000e-05  2.50037629e+00  3.81485448e+00 -3.27739822e-05 
 6.64000000e-05  2.50040521e+00  3.81217338e+00 -3.27930762e-05 
 7.14000000e-05  2.50043372e+00  3.80952398e+00 -3.28119478e-05 
 7.64000000e-05  2.50046181e+00  3.80690892e+00 -3.28305782e-05 
 8.14000000e-05  2.50048944e+00  3.80433080e+00 -3.28489487e-05 
 8.64000000e-05  2.50051659e+00  3.80179220e+00 -3.28670411e-05 
 9.14000000e-05  2.50054323e+00  3.79929564e+00 -3.28848371e-05 
 9.64000000e-05  2.50056934e+00  3.79684362e+00 -3.29023192e-05 
 1.01400000e-04  2.50059488e+00  3.79443856e+00 -3.29194697e-05 
 1.06400000e-04  2.50061983e+00  3.79208288e+00 -3.29362715e-05 
 1.11400000e-04  2.50064418e+00  3.78977893e+00 -3.29527078e-05 
 1.16400000e-04  2.50066788e+00  3.78752900e+00 -3.29687622e-05 
 1.21400000e-04  2.50069093e+00  3.78533533e+00 -3.29844185e-05 
 1.26400000e-04  2.50071330e+00  3.78320013e+00 -3.29996612e-05 
 1.31400000e-04  2.50073496e+00  3.78112553e+00 -3.30144748e-05 
 1.36400000e-04  2.50075590e+00  3.77911359e+00 -3.30288445e-05 
 1.41400000e-04  2.50077609e+00  3.77716633e+00 -3.30427560e-05 
 1.46400000e-04  2.50079552e+00  3.77528570e+00 -3.30561952e-05 
 1.51400000e-04  2.50081416e+00  3.77347357e+00 -3.30691487e-05 
 1.56400000e-04  2.50083199e+00  3.77173177e+00 -3.30816035e-05 
 1.61400000e-04  2.50084901e+00  3.77006202e+00 -3.30935469e-05 
 1.66400000e-04  2.50086519e+00  3.76846602e+00 -3.31049672e-05 
 1.71400000e-04  2.50088051e+00  3.76694534e+00 -3.31158527e-05 
 1.76400000e-04  2.50089497e+00  3.76550152e+00 -3.31261925e-05 
 1.81400000e-04  2.50090854e+00  3.76413601e+00 -3.31359762e-05 
 1.86400000e-04  2.50092121e+00  3.76285016e+00 -3.31451940e-05 
 1.91400000e-04  2.50093298e+00  3.76164527e+00 -3.31538366e-05 
 1.96400000e-04  2.50094382e+00  3.76052254e+00 -3.31618953e-05 
 2.01400000e-04  2.50095374e+00  3.75948310e+00 -3.31693620e-05 
 2.06400000e-04  2.50096271e+00  3.75852799e+00 -3.31762292e-05 
 2.11400000e-04  2.50097073e+00  3.75765818e+00 -3.31824900e-05 
 2.16400000e-04  2.50097780e+00  3.75687452e+00 -3.31881381e-05 
 2.21400000e-04  2.50098390e+00  3.75617780e+00 -3.31931677e-05 
 2.26400000e-04  2.50098903e+00  3.75556873e+00 -3.31975739e-05 
 2.31400000e-04  2.50099318e+00  3.75504792e+00 -3.32013521e-05 
 2.36400000e-04  2.50099635e+00  3.75461588e+00 -3.32044986e-05 
 2.41400000e-04  2.50099854e+00  3.75427305e+00 -3.32070103e-05 
 2.46400000e-04  2.50099974e+00  3.75401977e+00 -3.32088846e-05 
 2.51400000e-04  2.50099996e+00  3.75385630e+00 -3.32101195e-05 
 2.56400000e-04  2.50099919e+00  3.75378279e+00 -3.32107140e-05 
 2.61400000e-04  2.50099744e+00  3.75379933e+00 -3.32106674e-05 
 2.66400000e-04  2.50099470e+00  3.75390589e+00 -3.32099797e-05 
 2.71400000e-04  2.50099097e+00  3.75410237e+00 -3.32086516e-05 
 2.76400000e-04  2.50098627e+00  3.75438857e+00 -3.32066845e-05 
 2.81400000e-04  2.50098060e+00  3.75476420e+00 -3.32040804e-05 
 2.86400000e-04  2.50097396e+00  3.75522889e+00 -3.32008419e-05 
 2.91400000e-04  2.50096636e+00  3.75578216e+00 -3.31969724e-05 
 2.96400000e-04  2.50095780e+00  3.75642347e+00 -3.31924756e-05 
 3.01400000e-04  2.50094830e+00  3.75715216e+00 -3.31873561e-05 
 3.06400000e-04  2.50093786e+00  3.75796751e+00 -3.31816191e-05 
 3.11400000e-04  2.50092650e+00  3.75886870e+00 -3.31752705e-05 
 3.16400000e-04  2.50091423e+00  3.75985482e+00 -3.31683165e-05 
 3.21400000e-04  2.50090105e+00  3.76092488e+00 -3.31607642e-05 
 3.26400000e-04  2.50088698e+00  3.76207781e+00 -3.31526212e-05 
 3.31400000e-04  2.50087204e+00  3.76331246e+00 -3.31438958e-05 
 3.36400000e-04  2.50085623e+00  3.76462759e+00 -3.31345967e-05 
 3.41400000e-04  2.50083958e+00  3.76602187e+00 -3.31247333e-05 
 3.46400000e-04  2.50082210e+00  3.76749391e+00 -3.31143154e-05 
 3.51400000e-04  2.50080382e+00  3.76904224e+00 -3.31033537e-05 
 3.56400000e-04  2.50078473e+00  3.77066530e+00 -3.30918591e-05 
 3.61400000e-04  2.50076488e+00  3.77236147e+00 -3.30798432e-05 
 3.66400000e-04  2.50074426e+00  3.77412904e+00 -3.30673181e-05 
 3.71400000e-04  2.50072292e+00  3.77596626e+00 -3.30542964e-05 
 3.76400000e-04  2.50070086e+00  3.77787128e+00 -3.30407911e-05 
 3.81400000e-04  2.50067811e+00  3.77984219e+00 -3.30268158e-05 
 3.86400000e-04  2.50065469e+00  3.78187703e+00 -3.30123846e-05 
 3.91400000e-04  2.50063062e+00  3.78397375e+00 -3.29975119e-05 
 3.96400000e-04  2.50060593e+00  3.78613027e+00 -3.29822127e-05 
 4.01400000e-04  2.50058065e+00  3.78834442e+00 -3.29665023e-05 
 4.06400000e-04  2.50055479e+00  3.79061400e+00 -3.29503965e-05 
 4.11400000e-04  2.50052838e+00  3.79293673e+00 -3.29339113e-05 
 4.16400000e-04  2.50050145e+00  3.79531031e+00 -3.29170633e-05 
 4.21400000e-04  2.50047403e+00  3.79773236e+00 -3.28998694e-05 
 4.26400000e-04  2.50044614e+00  3.80020046e+00 -3.28823468e-05 
 4.31400000e-04  2.50041780e+00  3.80271216e+00 -3.28645130e-05 
 4.36400000e-04  2.50038906e+00  3.80526495e+00 -3.28463857e-05 
 4.41400000e-04  2.50035993e+00  3.80785629e+00 -3.28279832e-05 
 4.46400000e-04  2.50033045e+00  3.81048359e+00 -3.28093237e-05 
 4.51400000e-04  2.50030064e+00  3.81314425e+00 -3.27904259e-05 
 4.56400000e-04  2.50027053e+00  3.81583562e+00 -3.27713087e-05 
 4.61400000e-04  2.50024016e+00  3.81855501e+00 -3.27519910e-05 
 4.66400000e-04  2.50020955e+00  3.82129973e+00 -3.27324922e-05 
 4.71400000e-04  2.50017873e+00  3.82406706e+00 -3.27128315e-05 
 4.76400000e-04  2.50014774e+00  3.82685423e+00 -3.26930286e-05 
 4.81400000e-04  2.50011660e+00  3.82965850e+00 -3.26731031e-05 
 4.86400000e-04  2.50008535e+00  3.83247707e+00 -3.26530748e-05 
 4.91400000e-04  2.50005401e+00  3.83530716e+00 -3.26329637e-05 
 4.96400000e-04  2.50002262e+00  3.83814596e+00 -3.26127895e-05 
 5.01400000e-04  2.49999120e+00  3.84099066e+00 -3.25925723e-05 
 5.06400000e-04  2.49995980e+00  3.84383845e+00 -3.25723322e-05 
 5.11400000e-04  2.49992843e+00  3.84668650e+00 -3.25520890e-05 
 5.16400000e-04  2.49989714e+00  3.84953202e+00 -3.25318630e-05 
 5.21400000e-04  2.49986594e+00  3.85237218e+00 -3.25116739e-05 
 5.26400000e-04  2.49983488e+00  3.85520418e+00 -3.24915417e-05 
 5.31400000e-04  2.49980399e+00  3.85802524e+00 -3.24714863e-05 
 5.36400000e-04  2.49977328e+00  3.86083257e+00 -3.24515275e-05 
 5.41400000e-04  2.49974280e+00  3.86362340e+00 -3.24316848e-05 
 5.46400000e-04  2.49971257e+00  3.86639499e+00 -3.24119777e-05 
 5.51400000e-04  2.49968263e+00  3.86914462e+00 -3.23924257e-05 
 5.56400000e-04  2.49965300e+00  3.87186958e+00 -3.23730480e-05 
 5.61400000e-04  2.49962371e+00  3.87456720e+00 -3.23538634e-05 
 5.66400000e-04  2.49959479e+00  3.87723483e+00 -3.23348909e-05 
 5.71400000e-04  2.49956628e+00  3.87986984e+00 -3.23161490e-05 
 5.76400000e-04  2.49953819e+00  3.88246967e+00 -3.22976560e-05 
 5.81400000e-04  2.49951056e+00  3.88503176e+00 -3.22794300e-05 
 5.86400000e-04  2.49948341e+00  3.88755361e+00 -3.22614888e-05 
 5.91400000e-04  2.49945677e+00  3.89003275e+00 -3.22438499e-05 
 5.96400000e-04  2.49943066e+00  3.89246675e+00 -3.22265304e-05 
 6.01400000e-04  2.49940512e+00  3.89485325e+00 -3.22095473e-05 
 6.06400000e-04  2.49938017e+00  3.89718990e+00 -3.21929171e-05 
 6.11400000e-04  2.49935582e+00  3.89947444e+00 -3.21766559e-05 
 6.16400000e-04  2.49933212e+00  3.90170464e+00 -3.21607795e-05 
 6.21400000e-04  2.49930907e+00  3.90387832e+00 -3.21453033e-05 
 6.26400000e-04  2.49928670e+00  3.90599338e+00 -3.21302424e-05 
 6.31400000e-04  2.49926504e+00  3.90804774e+00 -3.21156112e-05 
 6.36400000e-04  2.49924410e+00  3.91003942e+00 -3.21014241e-05 
 6.41400000e-04  2.49922391e+00  3.91196648e+00 -3.20876946e-05 
 6.46400000e-04  2.49920448e+00  3.91382705e+00 -3.20744361e-05 
 6.51400000e-04  2.49918584e+00  3.91561933e+00 -3.20616614e-05 
 6.56400000e-04  2.49916801e+00  3.91734157e+00 -3.20493828e-05 
 6.61400000e-04  2.49915099e+00  3.91899212e+00 -3.20376121e-05 
 6.66400000e-04  2.49913481e+00  3.92056936e+00 -3.20263607e-05 
 6.71400000e-04  2.49911949e+00  3.92207178e+00 -3.20156395e-05 
 6.76400000e-04  2.49910503e+00  3.92349792e+00 -3.20054586e-05 
 6.81400000e-04  2.49909146e+00  3.92484640e+00 -3.19958280e-05 
 6.86400000e-04  2.49907879e+00  3.92611592e+00 -3.19867568e-05 
 6.91400000e-04  2.49906702e+00  3.92730524e+00 -3.19782539e-05 
 6.96400000e-04  2.49905618e+00  3.92841323e+00 -3.19703273e-05 
 7.01400000e-04  2.49904626e+00  3.92943882e+00 -3.19629847e-05 
 7.06400000e-04  2.49903729e+00  3.93038101e+00 -3.19562332e-05 
 7.11400000e-04  2.49902927e+00  3.93123889e+00 -3.19500791e-05 
 7.16400000e-04  2.49902220e+00  3.93201163e+00 -3.19445284e-05 
 7.21400000e-04  2.49901610e+00  3.93269850e+00 -3.19395865e-05 
 7.26400000e-04  2.49901097e+00  3.93329883e+00 -3.19352580e-05 
 7.31400000e-04  2.49900682e+00  3.93381204e+00 -3.19315471e-05 
 7.36400000e-04  2.49900365e+00  3.93423763e+00 -3.19284574e-05 
 7.41400000e-04  2.49900146e+00  3.93457520e+00 -3.19259918e-05 
 7.46400000e-04  2.49900026e+00  3.93482441e+00 -3.19241528e-05 
 7.51400000e-04  2.49900004e+00  3.93498504e+00 -3.19229420e-05 
 7.56400000e-04  2.49900081e+00  3.93505692e+00 -3.19223606e-05 
 7.61400000e-04  2.49900256e+00  3.93503998e+00 -3.19224092e-05 
 7.66400000e-04  2.49900530e+00  3.93493424e+00 -3.19230878e-05 
 7.71400000e-04  2.49900903e+00  3.93473981e+00 -3.19243957e-05 
 7.76400000e-04  2.49901373e+00  3.93445686e+00 -3.19263317e-05 
 7.81400000e-04  2.49901940e+00  3.93408567e+00 -3.19288939e-05 
 7.86400000e-04  2.49902604e+00  3.93362659e+00 -3.19320798e-05 
 7.91400000e-04  2.49903364e+00  3.93308007e+00 -3.19358866e-05 
 7.96400000e-04  2.49904220e+00  3.93244663e+00 -3.19403104e-05 
 8.01400000e-04  2.49905170e+00  3.93172689e+00 -3.19453472e-05 
 8.06400000e-04  2.49906214e+00  3.93092152e+00 -3.19509920e-05 
 8.11400000e-04  2.49907350e+00  3.93003132e+00 -3.19572395e-05 
 8.16400000e-04  2.49908577e+00  3.92905714e+00 -3.19640838e-05 
 8.21400000e-04  2.49909895e+00  3.92799991e+00 -3.19715181e-05 
 8.26400000e-04  2.49911302e+00  3.92686066e+00 -3.19795355e-05 
 8.31400000e-04  2.49912796e+00  3.92564048e+00 -3.19881283e-05 
 8.36400000e-04  2.49914377e+00  3.92434056e+00 -3.19972881e-05 
 8.41400000e-04  2.49916042e+00  3.92296214e+00 -3.20070063e-05 
 8.46400000e-04  2.49917790e+00  3.92150656e+00 -3.20172734e-05 
 8.51400000e-04  2.49919618e+00  3.91997523e+00 -3.20280797e-05 
 8.56400000e-04  2.49921527e+00  3.91836963e+00 -3.20394147e-05 
 8.61400000e-04  2.49923512e+00  3.91669130e+00 -3.20512675e-05 
 8.66400000e-04  2.49925574e+00  3.91494188e+00 -3.20636267e-05 
 8.71400000e-04  2.49927708e+00  3.91312305e+00 -3.20764804e-05 
 8.76400000e-04  2.49929914e+00  3.91123659e+00 -3.20898162e-05 
 8.81400000e-04  2.49932189e+00  3.90928433e+00 -3.21036212e-05 
 8.86400000e-04  2.49934531e+00  3.90726815e+00 -3.21178821e-05 
 8.91400000e-04  2.49936938e+00  3.90519001e+00 -3.21325851e-05 
 8.96400000e-04  2.49939407e+00  3.90305194e+00 -3.21477160e-05 
 9.01400000e-04  2.49941935e+00  3.90085601e+00 -3.21632601e-05 
 9.06400000e-04  2.49944521e+00  3.89860436e+00 -3.21792023e-05 
 9.11400000e-04  2.49947162e+00  3.89629919e+00 -3.21955272e-05 
 9.16400000e-04  2.49949855e+00  3.89394273e+00 -3.22122189e-05 
 9.21400000e-04  2.49952597e+00  3.89153730e+00 -3.22292613e-05 
 9.26400000e-04  2.49955386e+00  3.88908523e+00 -3.22466376e-05 
 9.31400000e-04  2.49958220e+00  3.88658892e+00 -3.22643310e-05 
 9.36400000e-04  2.49961094e+00  3.88405080e+00 -3.22823243e-05 
 9.41400000e-04  2.49964007e+00  3.88147338e+00 -3.23005999e-05 
 9.46400000e-04  2.49966955e+00  3.87885915e+00 -3.23191400e-05 
 9.51400000e-04  2.49969936e+00  3.87621069e+00 -3.23379264e-05 
 9.56400000e-04  2.49972947e+00  3.87353059e+00 -3.23569407e-05 
 9.61400000e-04  2.49975984e+00  3.87082148e+00 -3.23761644e-05 
 9.66400000e-04  2.49979045e+00  3.86808602e+00 -3.23955786e-05 
 9.71400000e-04  2.49982127e+00  3.86532690e+00 -3.24151642e-05 
 9.76400000e-04  2.49985226e+00  3.86254682e+00 -3.24349020e-05 
 9.81400000e-04  2.49988340e+00  3.85974853e+00 -3.24547727e-05 
 9.86400000e-04  2.49991465e+00  3.85693477e+00 -3.24747567e-05 
 9.91400000e-04  2.49994599e+00  3.85410832e+00 -3.24948342e-05 
 9.96400000e-04  2.49997738e+00  3.85127196e+00 -3.25149856e-05 
 1.00140000e-03  2.50000880e+00  3.84842850e+00 -3.25351910e-05 
 1.00640000e-03  2.50004020e+00  3.84558073e+00 -3.25554304e-05 
 1.01140000e-03  2.50007157e+00  3.84273147e+00 -3.25756838e-05 
 1.01640000e-03  2.50010286e+00  3.83988354e+00 -3.25959312e-05 
 1.02140000e-03  2.50013406e+00  3.83703975e+00 -3.26161526e-05 
 1.02640000e-03  2.50016512e+00  3.83420292e+00 -3.26363280e-05 
 1.03140000e-03  2.50019601e+00  3.83137585e+00 -3.26564373e-05 
 1.03640000e-03  2.50022672e+00  3.82856135e+00 -3.26764606e-05 
 1.04140000e-03  2.50025720e+00  3.82576220e+00 -3.26963781e-05 
 1.04640000e-03  2.50028743e+00  3.82298118e+00 -3.27161700e-05 
 1.05140000e-03  2.50031737e+00  3.82022105e+00 -3.27358165e-05 
 1.05640000e-03  2.50034700e+00  3.81748455e+00 -3.27552983e-05 
 1.06140000e-03  2.50037629e+00  3.81477440e+00 -3.27745958e-05 
 1.06640000e-03  2.50040521e+00  3.81209330e+00 -3.27936899e-05 
 1.07140000e-03  2.50043372e+00  3.80944390e+00 -3.28125615e-05 
 1.07640000e-03  2.50046181e+00  3.80682884e+00 -3.28311919e-05 
 1.08140000e-03  2.50048944e+00  3.80425074e+00 -3.28495624e-05 
 1.08640000e-03  2.50051659e+00  3.80171214e+00 -3.28676547e-05 
 1.09140000e-03  2.50054323e+00  3.79921559e+00 -3.28854507e-05 
 1.09640000e-03  2.50056934e+00  3.79676357e+00 -3.29029327e-05 
 1.10140000e-03  2.50059488e+00  3.79435852e+00 -3.29200831e-05 
 1.10640000e-03  2.50061983e+00  3.79200285e+00 -3.29368849e-05 
 1.11140000e-03  2.50064418e+00  3.78969890e+00 -3.29533212e-05 
 1.11640000e-03  2.50066788e+00  3.78744898e+00 -3.29693755e-05 
 1.12140000e-03  2.50069093e+00  3.78525533e+00 -3.29850318e-05 
 1.12640000e-03  2.50071330e+00  3.78312014e+00 -3.30002744e-05 
 1.13140000e-03  2.50073496e+00  3.78104554e+00 -3.30150879e-05 
 1.13640000e-03  2.50075590e+00  3.77903361e+00 -3.30294576e-05 
 1.14140000e-03  2.50077609e+00  3.77708636e+00 -3.30433690e-05 
 1.14640000e-03  2.50079552e+00  3.77520574e+00 -3.30568082e-05 
 1.15140000e-03  2.50081416e+00  3.77339362e+00 -3.30697616e-05 
 1.15640000e-03  2.50083199e+00  3.77165183e+00 -3.30822162e-05 
 1.16140000e-03  2.50084901e+00  3.76998210e+00 -3.30941596e-05 
 1.16640000e-03  2.50086519e+00  3.76838611e+00 -3.31055798e-05 
 1.17140000e-03  2.50088051e+00  3.76686545e+00 -3.31164652e-05 
 1.17640000e-03  2.50089497e+00  3.76542164e+00 -3.31268049e-05 
 1.18140000e-03  2.50090854e+00  3.76405614e+00 -3.31365885e-05 
 1.18640000e-03  2.50092121e+00  3.76277030e+00 -3.31458062e-05 
 1.19140000e-03  2.50093298e+00  3.76156543e+00 -3.31544487e-05 
 1.19640000e-03  2.50094382e+00  3.76044271e+00 -3.31625073e-05 
 1.20140000e-03  2.50095374e+00  3.75940329e+00 -3.31699739e-05 
 1.20640000e-03  2.50096271e+00  3.75844820e+00 -3.31768410e-05 
 1.21140000e-03  2.50097073e+00  3.75757840e+00 -3.31831016e-05 
 1.21640000e-03  2.50097780e+00  3.75679476e+00 -3.31887496e-05 
 1.22140000e-03  2.50098390e+00  3.75609806e+00 -3.31937791e-05 
 1.22640000e-03  2.50098903e+00  3.75548901e+00 -3.31981851e-05 
 1.23140000e-03  2.50099318e+00  3.75496821e+00 -3.32019632e-05 
 1.23640000e-03  2.50099635e+00  3.75453619e+00 -3.32051096e-05 
 1.24140000e-03  2.50099854e+00  3.75419338e+00 -3.32076211e-05 
 1.24640000e-03  2.50099974e+00  3.75394012e+00 -3.32094952e-05 
 1.25140000e-03  2.50099996e+00  3.75377667e+00 -3.32107300e-05 
 1.25640000e-03  2.50099919e+00  3.75370319e+00 -3.32113243e-05 
 1.26140000e-03  2.50099744e+00  3.75371974e+00 -3.32112775e-05 
 1.26640000e-03  2.50099470e+00  3.75382633e+00 -3.32105896e-05 
 1.27140000e-03  2.50099097e+00  3.75402283e+00 -3.32092614e-05 
 1.27640000e-03  2.50098627e+00  3.75430905e+00 -3.32072941e-05 
 1.28140000e-03  2.50098060e+00  3.75468471e+00 -3.32046899e-05 
 1.28640000e-03  2.50097396e+00  3.75514942e+00 -3.32014512e-05 
 1.29140000e-03  2.50096636e+00  3.75570272e+00 -3.31975814e-05 
 1.29640000e-03  2.50095780e+00  3.75634405e+00 -3.31930844e-05 
 1.30140000e-03  2.50094830e+00  3.75707276e+00 -3.31879648e-05 
 1.30640000e-03  2.50093786e+00  3.75788814e+00 -3.31822276e-05 
 1.31140000e-03  2.50092650e+00  3.75878935e+00 -3.31758787e-05 
 1.31640000e-03  2.50091423e+00  3.75977550e+00 -3.31689245e-05 
 1.32140000e-03  2.50090105e+00  3.76084559e+00 -3.31613720e-05 
 1.32640000e-03  2.50088698e+00  3.76199855e+00 -3.31532288e-05 
 1.33140000e-03  2.50087204e+00  3.76323322e+00 -3.31445032e-05 
 1.33640000e-03  2.50085623e+00  3.76454838e+00 -3.31352038e-05 
 1.34140000e-03  2.50083958e+00  3.76594269e+00 -3.31253402e-05 
 1.34640000e-03  2.50082210e+00  3.76741476e+00 -3.31149221e-05 
 1.35140000e-03  2.50080382e+00  3.76896311e+00 -3.31039601e-05 
 1.35640000e-03  2.50078473e+00  3.77058621e+00 -3.30924653e-05 
 1.36140000e-03  2.50076488e+00  3.77228240e+00 -3.30804492e-05 
 1.36640000e-03  2.50074426e+00  3.77405001e+00 -3.30679238e-05 
 1.37140000e-03  2.50072292e+00  3.77588726e+00 -3.30549018e-05 
 1.37640000e-03  2.50070086e+00  3.77779231e+00 -3.30413962e-05 
 1.38140000e-03  2.50067811e+00  3.77976325e+00 -3.30274207e-05 
 1.38640000e-03  2.50065469e+00  3.78179812e+00 -3.30129892e-05 
 1.39140000e-03  2.50063062e+00  3.78389488e+00 -3.29981163e-05 
 1.39640000e-03  2.50060593e+00  3.78605143e+00 -3.29828168e-05 
 1.40140000e-03  2.50058065e+00  3.78826561e+00 -3.29671061e-05 
 1.40640000e-03  2.50055479e+00  3.79053522e+00 -3.29510000e-05 
 1.41140000e-03  2.50052838e+00  3.79285800e+00 -3.29345146e-05 
 1.41640000e-03  2.50050145e+00  3.79523161e+00 -3.29176663e-05 
 1.42140000e-03  2.50047403e+00  3.79765369e+00 -3.29004721e-05 
 1.42640000e-03  2.50044614e+00  3.80012183e+00 -3.28829492e-05 
 1.43140000e-03  2.50041780e+00  3.80263356e+00 -3.28651151e-05 
 1.43640000e-03  2.50038906e+00  3.80518639e+00 -3.28469875e-05 
 1.44140000e-03  2.50035993e+00  3.80777776e+00 -3.28285847e-05 
 1.44640000e-03  2.50033045e+00  3.81040510e+00 -3.28099249e-05 
 1.45140000e-03  2.50030064e+00  3.81306580e+00 -3.27910268e-05 
 1.45640000e-03  2.50027053e+00  3.81575720e+00 -3.27719093e-05 
 1.46140000e-03  2.50024016e+00  3.81847663e+00 -3.27525913e-05 
 1.46640000e-03  2.50020955e+00  3.82122139e+00 -3.27330921e-05 
 1.47140000e-03  2.50017873e+00  3.82398875e+00 -3.27134312e-05 
 1.47640000e-03  2.50014774e+00  3.82677597e+00 -3.26936280e-05 
 1.48140000e-03  2.50011660e+00  3.82958027e+00 -3.26737022e-05 
 1.48640000e-03  2.50008535e+00  3.83239888e+00 -3.26536736e-05 
 1.49140000e-03  2.50005401e+00  3.83522901e+00 -3.26335621e-05 
