 time            v(vin)          v(b3_collector) v(vout_final)   i(vdd)         
 0.00000000e+00  2.50000000e+00  3.82990743e+00  2.50000000e+00 -3.31711234e-05 
 5.00000000e-08  2.50000031e+00  3.82990743e+00  2.50000000e+00 -3.31711235e-05 
 1.00000000e-07  2.50000063e+00  3.82990743e+00  2.50000000e+00 -3.31711238e-05 
 2.00000000e-07  2.50000126e+00  3.82990743e+00  2.50000000e+00 -3.31711246e-05 
 4.00000000e-07  2.50000251e+00  3.82990742e+00  2.49999999e+00 -3.31711278e-05 
 8.00000000e-07  2.50000503e+00  3.82990728e+00  2.49999985e+00 -3.31711374e-05 
 1.60000000e-06  2.50001005e+00  3.82990549e+00  2.49999807e+00 -3.31711574e-05 
 3.20000000e-06  2.50002010e+00  3.82988470e+00  2.49997740e+00 -3.31712056e-05 
 6.40000000e-06  2.50004020e+00  3.82969462e+00  2.49978841e+00 -3.31718645e-05 
 1.14000000e-05  2.50007157e+00  3.82882984e+00  2.49892859e+00 -3.31763526e-05 
 1.64000000e-05  2.50010286e+00  3.82725971e+00  2.49736755e+00 -3.31860717e-05 
 2.14000000e-05  2.50013406e+00  3.82515427e+00  2.49527440e+00 -3.32001805e-05 
 2.64000000e-05  2.50016512e+00  3.82271049e+00  2.49284506e+00 -3.32171440e-05 
 3.14000000e-05  2.50019601e+00  3.82006525e+00  2.49021565e+00 -3.32358219e-05 
 3.64000000e-05  2.50022672e+00  3.81730386e+00  2.48747103e+00 -3.32554990e-05 
 4.14000000e-05  2.50025720e+00  3.81447917e+00  2.48466373e+00 -3.32757334e-05 
 4.64000000e-05  2.50028743e+00  3.81162422e+00  2.48182664e+00 -3.32962498e-05 
 5.14000000e-05  2.50031737e+00  3.80876017e+00  2.47898076e+00 -3.33168734e-05 
 5.64000000e-05  2.50034700e+00  3.80590090e+00  2.47613993e+00 -3.33374904e-05 
 6.14000000e-05  2.50037629e+00  3.80305595e+00  2.47331361e+00 -3.33580240e-05 
 6.64000000e-05  2.50040521e+00  3.80023217e+00  2.47050863e+00 -3.33784197e-05 
 7.14000000e-05  2.50043372e+00  3.79743481e+00  2.46773020e+00 -3.33986365e-05 
 7.64000000e-05  2.50046181e+00  3.79466813e+00  2.46498255e+00 -3.34186419e-05 
 8.14000000e-05  2.50048944e+00  3.79193578e+00  2.46226930e+00 -3.34384083e-05 
 8.64000000e-05  2.50051659e+00  3.78924102e+00  2.45959369e+00 -3.34579116e-05 
 9.14000000e-05  2.50054323e+00  3.78658685e+00  2.45695872e+00 -3.34771295e-05 
 9.64000000e-05  2.50056934e+00  3.78397613e+00  2.45436720e+00 -3.34960410e-05 
 1.01400000e-04  2.50059488e+00  3.78141156e+00  2.45182183e+00 -3.35146264e-05 
 1.06400000e-04  2.50061983e+00  3.77889578e+00  2.44932523e+00 -3.35328664e-05 
 1.11400000e-04  2.50064418e+00  3.77643136e+00  2.44687993e+00 -3.35507423e-05 
 1.16400000e-04  2.50066788e+00  3.77402076e+00  2.44448840e+00 -3.35682361e-05 
 1.21400000e-04  2.50069093e+00  3.77166642e+00  2.44215304e+00 -3.35853301e-05 
 1.26400000e-04  2.50071330e+00  3.76937070e+00  2.43987619e+00 -3.36020070e-05 
 1.31400000e-04  2.50073496e+00  3.76713590e+00  2.43766014e+00 -3.36182501e-05 
 1.36400000e-04  2.50075590e+00  3.76496425e+00  2.43550711e+00 -3.36340431e-05 
 1.41400000e-04  2.50077609e+00  3.76285794e+00  2.43341925e+00 -3.36493700e-05 
 1.46400000e-04  2.50079552e+00  3.76081907e+00  2.43139866e+00 -3.36642156e-05 
 1.51400000e-04  2.50081416e+00  3.75884967e+00  2.42944734e+00 -3.36785648e-05 
 1.56400000e-04  2.50083199e+00  3.75695173e+00  2.42756727e+00 -3.36924032e-05 
 1.61400000e-04  2.50084901e+00  3.75512715e+00  2.42576032e+00 -3.37057170e-05 
 1.66400000e-04  2.50086519e+00  3.75337774e+00  2.42402830e+00 -3.37184927e-05 
 1.71400000e-04  2.50088051e+00  3.75170527e+00  2.42237294e+00 -3.37307175e-05 
 1.76400000e-04  2.50089497e+00  3.75011141e+00  2.42079591e+00 -3.37423791e-05 
 1.81400000e-04  2.50090854e+00  3.74859776e+00  2.41929878e+00 -3.37534658e-05 
 1.86400000e-04  2.50092121e+00  3.74716583e+00  2.41788306e+00 -3.37639664e-05 
 1.91400000e-04  2.50093298e+00  3.74581706e+00  2.41655017e+00 -3.37738702e-05 
 1.96400000e-04  2.50094382e+00  3.74455280e+00  2.41530144e+00 -3.37831675e-05 
 2.01400000e-04  2.50095374e+00  3.74337432e+00  2.41413812e+00 -3.37918487e-05 
 2.06400000e-04  2.50096271e+00  3.74228280e+00  2.41306138e+00 -3.37999052e-05 
 2.11400000e-04  2.50097073e+00  3.74127935e+00  2.41207230e+00 -3.38073289e-05 
 2.16400000e-04  2.50097780e+00  3.74036495e+00  2.41117188e+00 -3.38141122e-05 
 2.21400000e-04  2.50098390e+00  3.73954053e+00  2.41036101e+00 -3.38202483e-05 
 2.26400000e-04  2.50098903e+00  3.73880693e+00  2.40964051e+00 -3.38257311e-05 
 2.31400000e-04  2.50099318e+00  3.73816486e+00  2.40901110e+00 -3.38305550e-05 
 2.36400000e-04  2.50099635e+00  3.73761498e+00  2.40847341e+00 -3.38347152e-05 
 2.41400000e-04  2.50099854e+00  3.73715785e+00  2.40802798e+00 -3.38382075e-05 
 2.46400000e-04  2.50099974e+00  3.73679390e+00  2.40767527e+00 -3.38410284e-05 
 2.51400000e-04  2.50099996e+00  3.73652353e+00  2.40741561e+00 -3.38431750e-05 
 2.56400000e-04  2.50099919e+00  3.73634698e+00  2.40724928e+00 -3.38446453e-05 
 2.61400000e-04  2.50099744e+00  3.73626444e+00  2.40717644e+00 -3.38454376e-05 
 2.66400000e-04  2.50099470e+00  3.73627600e+00  2.40719716e+00 -3.38455513e-05 
 2.71400000e-04  2.50099097e+00  3.73638163e+00  2.40731141e+00 -3.38449862e-05 
 2.76400000e-04  2.50098627e+00  3.73658123e+00  2.40751909e+00 -3.38437429e-05 
 2.81400000e-04  2.50098060e+00  3.73687461e+00  2.40781999e+00 -3.38418228e-05 
 2.86400000e-04  2.50097396e+00  3.73726146e+00  2.40821379e+00 -3.38392276e-05 
 2.91400000e-04  2.50096636e+00  3.73774140e+00  2.40870011e+00 -3.38359601e-05 
 2.96400000e-04  2.50095780e+00  3.73831394e+00  2.40927846e+00 -3.38320237e-05 
 3.01400000e-04  2.50094830e+00  3.73897851e+00  2.40994825e+00 -3.38274221e-05 
 3.06400000e-04  2.50093786e+00  3.73973444e+00  2.41070881e+00 -3.38221602e-05 
 3.11400000e-04  2.50092650e+00  3.74058097e+00  2.41155938e+00 -3.38162433e-05 
 3.16400000e-04  2.50091423e+00  3.74151725e+00  2.41249910e+00 -3.38096772e-05 
 3.21400000e-04  2.50090105e+00  3.74254234e+00  2.41352703e+00 -3.38024687e-05 
 3.26400000e-04  2.50088698e+00  3.74365521e+00  2.41464213e+00 -3.37946251e-05 
 3.31400000e-04  2.50087204e+00  3.74485474e+00  2.41584329e+00 -3.37861542e-05 
 3.36400000e-04  2.50085623e+00  3.74613973e+00  2.41712930e+00 -3.37770646e-05 
 3.41400000e-04  2.50083958e+00  3.74750888e+00  2.41849887e+00 -3.37673656e-05 
 3.46400000e-04  2.50082210e+00  3.74896083e+00  2.41995062e+00 -3.37570668e-05 
 3.51400000e-04  2.50080382e+00  3.75049412e+00  2.42148310e+00 -3.37461786e-05 
 3.56400000e-04  2.50078473e+00  3.75210721e+00  2.42309477e+00 -3.37347121e-05 
 3.61400000e-04  2.50076488e+00  3.75379847e+00  2.42478402e+00 -3.37226787e-05 
 3.66400000e-04  2.50074426e+00  3.75556623e+00  2.42654914e+00 -3.37100907e-05 
 3.71400000e-04  2.50072292e+00  3.75740870e+00  2.42838838e+00 -3.36969607e-05 
 3.76400000e-04  2.50070086e+00  3.75932403e+00  2.43029989e+00 -3.36833018e-05 
 3.81400000e-04  2.50067811e+00  3.76131032e+00  2.43228175e+00 -3.36691279e-05 
 3.86400000e-04  2.50065469e+00  3.76336556e+00  2.43433197e+00 -3.36544532e-05 
 3.91400000e-04  2.50063062e+00  3.76548771e+00  2.43644852e+00 -3.36392924e-05 
 3.96400000e-04  2.50060593e+00  3.76767463e+00  2.43862926e+00 -3.36236609e-05 
 4.01400000e-04  2.50058065e+00  3.76992415e+00  2.44087201e+00 -3.36075742e-05 
 4.06400000e-04  2.50055479e+00  3.77223400e+00  2.44317454e+00 -3.35910486e-05 
 4.11400000e-04  2.50052838e+00  3.77460189e+00  2.44553454e+00 -3.35741005e-05 
 4.16400000e-04  2.50050145e+00  3.77702544e+00  2.44794965e+00 -3.35567471e-05 
 4.21400000e-04  2.50047403e+00  3.77950223e+00  2.45041746e+00 -3.35390057e-05 
 4.26400000e-04  2.50044614e+00  3.78202980e+00  2.45293551e+00 -3.35208941e-05 
 4.31400000e-04  2.50041780e+00  3.78460561e+00  2.45550127e+00 -3.35024304e-05 
 4.36400000e-04  2.50038906e+00  3.78722710e+00  2.45811220e+00 -3.34836331e-05 
 4.41400000e-04  2.50035993e+00  3.78989165e+00  2.46076568e+00 -3.34645210e-05 
 4.46400000e-04  2.50033045e+00  3.79259661e+00  2.46345907e+00 -3.34451132e-05 
 4.51400000e-04  2.50030064e+00  3.79533928e+00  2.46618969e+00 -3.34254291e-05 
 4.56400000e-04  2.50027053e+00  3.79811693e+00  2.46895483e+00 -3.34054883e-05 
 4.61400000e-04  2.50024016e+00  3.80092679e+00  2.47175171e+00 -3.33853108e-05 
 4.66400000e-04  2.50020955e+00  3.80376607e+00  2.47457757e+00 -3.33649166e-05 
 4.71400000e-04  2.50017873e+00  3.80663196e+00  2.47742960e+00 -3.33443260e-05 
 4.76400000e-04  2.50014774e+00  3.80952159e+00  2.48030495e+00 -3.33235596e-05 
 4.81400000e-04  2.50011660e+00  3.81243209e+00  2.48320078e+00 -3.33026380e-05 
 4.86400000e-04  2.50008535e+00  3.81536059e+00  2.48611420e+00 -3.32815820e-05 
 4.91400000e-04  2.50005401e+00  3.81830417e+00  2.48904234e+00 -3.32604125e-05 
 4.96400000e-04  2.50002262e+00  3.82125992e+00  2.49198228e+00 -3.32391506e-05 
 5.01400000e-04  2.49999120e+00  3.82422491e+00  2.49493111e+00 -3.32178172e-05 
 5.06400000e-04  2.49995980e+00  3.82719620e+00  2.49788592e+00 -3.31964336e-05 
 5.11400000e-04  2.49992843e+00  3.83017085e+00  2.50084377e+00 -3.31750209e-05 
 5.16400000e-04  2.49989714e+00  3.83314592e+00  2.50380175e+00 -3.31536004e-05 
 5.21400000e-04  2.49986594e+00  3.83611847e+00  2.50675692e+00 -3.31321931e-05 
 5.26400000e-04  2.49983488e+00  3.83908556e+00  2.50970638e+00 -3.31108202e-05 
 5.31400000e-04  2.49980399e+00  3.84204427e+00  2.51264721e+00 -3.30895028e-05 
 5.36400000e-04  2.49977328e+00  3.84499168e+00  2.51557651e+00 -3.30682619e-05 
 5.41400000e-04  2.49974280e+00  3.84792488e+00  2.51849140e+00 -3.30471184e-05 
 5.46400000e-04  2.49971257e+00  3.85084099e+00  2.52138899e+00 -3.30260932e-05 
 5.51400000e-04  2.49968263e+00  3.85373713e+00  2.52426645e+00 -3.30052069e-05 
 5.56400000e-04  2.49965300e+00  3.85661047e+00  2.52712094e+00 -3.29844799e-05 
 5.61400000e-04  2.49962371e+00  3.85945816e+00  2.52994966e+00 -3.29639328e-05 
 5.66400000e-04  2.49959479e+00  3.86227743e+00  2.53274983e+00 -3.29435855e-05 
 5.71400000e-04  2.49956628e+00  3.86506550e+00  2.53551871e+00 -3.29234580e-05 
 5.76400000e-04  2.49953819e+00  3.86781963e+00  2.53825357e+00 -3.29035701e-05 
 5.81400000e-04  2.49951056e+00  3.87053714e+00  2.54095174e+00 -3.28839410e-05 
 5.86400000e-04  2.49948341e+00  3.87321536e+00  2.54361057e+00 -3.28645902e-05 
 5.91400000e-04  2.49945677e+00  3.87585168e+00  2.54622748e+00 -3.28455363e-05 
 5.96400000e-04  2.49943066e+00  3.87844350e+00  2.54879989e+00 -3.28267979e-05 
 6.01400000e-04  2.49940512e+00  3.88098832e+00  2.55132530e+00 -3.28083934e-05 
 6.06400000e-04  2.49938017e+00  3.88348363e+00  2.55380125e+00 -3.27903406e-05 
 6.11400000e-04  2.49935582e+00  3.88592701e+00  2.55622531e+00 -3.27726571e-05 
 6.16400000e-04  2.49933212e+00  3.88831608e+00  2.55859513e+00 -3.27553600e-05 
 6.21400000e-04  2.49930907e+00  3.89064850e+00  2.56090839e+00 -3.27384661e-05 
 6.26400000e-04  2.49928670e+00  3.89292202e+00  2.56316286e+00 -3.27219918e-05 
 6.31400000e-04  2.49926504e+00  3.89513442e+00  2.56535633e+00 -3.27059531e-05 
 6.36400000e-04  2.49924410e+00  3.89728355e+00  2.56748667e+00 -3.26903654e-05 
 6.41400000e-04  2.49922391e+00  3.89936733e+00  2.56955183e+00 -3.26752439e-05 
 6.46400000e-04  2.49920448e+00  3.90138373e+00  2.57154978e+00 -3.26606031e-05 
 6.51400000e-04  2.49918584e+00  3.90333079e+00  2.57347860e+00 -3.26464571e-05 
 6.56400000e-04  2.49916801e+00  3.90520664e+00  2.57533641e+00 -3.26328197e-05 
 6.61400000e-04  2.49915099e+00  3.90700945e+00  2.57712143e+00 -3.26197039e-05 
 6.66400000e-04  2.49913481e+00  3.90873748e+00  2.57883191e+00 -3.26071224e-05 
 6.71400000e-04  2.49911949e+00  3.91038906e+00  2.58046621e+00 -3.25950873e-05 
 6.76400000e-04  2.49910503e+00  3.91196259e+00  2.58202275e+00 -3.25836102e-05 
 6.81400000e-04  2.49909146e+00  3.91345656e+00  2.58350002e+00 -3.25727021e-05 
 6.86400000e-04  2.49907879e+00  3.91486951e+00  2.58489659e+00 -3.25623734e-05 
 6.91400000e-04  2.49906702e+00  3.91620009e+00  2.58621112e+00 -3.25526341e-05 
 6.96400000e-04  2.49905618e+00  3.91744701e+00  2.58744235e+00 -3.25434935e-05 
 7.01400000e-04  2.49904626e+00  3.91860908e+00  2.58858907e+00 -3.25349605e-05 
 7.06400000e-04  2.49903729e+00  3.91968516e+00  2.58965019e+00 -3.25270431e-05 
 7.11400000e-04  2.49902927e+00  3.92067423e+00  2.59062469e+00 -3.25197490e-05 
 7.16400000e-04  2.49902220e+00  3.92157533e+00  2.59151163e+00 -3.25130851e-05 
 7.21400000e-04  2.49901610e+00  3.92238759e+00  2.59231014e+00 -3.25070578e-05 
 7.26400000e-04  2.49901097e+00  3.92311023e+00  2.59301948e+00 -3.25016730e-05 
 7.31400000e-04  2.49900682e+00  3.92374255e+00  2.59363894e+00 -3.24969357e-05 
 7.36400000e-04  2.49900365e+00  3.92428396e+00  2.59416794e+00 -3.24928505e-05 
 7.41400000e-04  2.49900146e+00  3.92473391e+00  2.59460596e+00 -3.24894213e-05 
 7.46400000e-04  2.49900026e+00  3.92509200e+00  2.59495259e+00 -3.24866514e-05 
 7.51400000e-04  2.49900004e+00  3.92535785e+00  2.59520748e+00 -3.24845435e-05 
 7.56400000e-04  2.49900081e+00  3.92553123e+00  2.59537041e+00 -3.24830996e-05 
 7.61400000e-04  2.49900256e+00  3.92561197e+00  2.59544120e+00 -3.24823210e-05 
 7.66400000e-04  2.49900530e+00  3.92559998e+00  2.59541978e+00 -3.24822086e-05 
 7.71400000e-04  2.49900903e+00  3.92549527e+00  2.59530619e+00 -3.24827624e-05 
 7.76400000e-04  2.49901373e+00  3.92529796e+00  2.59510053e+00 -3.24839820e-05 
 7.81400000e-04  2.49901940e+00  3.92500821e+00  2.59480298e+00 -3.24858661e-05 
 7.86400000e-04  2.49902604e+00  3.92462632e+00  2.59441385e+00 -3.24884131e-05 
 7.91400000e-04  2.49903364e+00  3.92415265e+00  2.59393350e+00 -3.24916205e-05 
 7.96400000e-04  2.49904220e+00  3.92358765e+00  2.59336239e+00 -3.24954852e-05 
 8.01400000e-04  2.49905170e+00  3.92293187e+00  2.59270107e+00 -3.25000036e-05 
 8.06400000e-04  2.49906214e+00  3.92218593e+00  2.59195018e+00 -3.25051714e-05 
 8.11400000e-04  2.49907350e+00  3.92135055e+00  2.59111044e+00 -3.25109837e-05 
 8.16400000e-04  2.49908577e+00  3.92042654e+00  2.59018265e+00 -3.25174348e-05 
 8.21400000e-04  2.49909895e+00  3.91941478e+00  2.58916771e+00 -3.25245188e-05 
 8.26400000e-04  2.49911302e+00  3.91831625e+00  2.58806659e+00 -3.25322287e-05 
 8.31400000e-04  2.49912796e+00  3.91713200e+00  2.58688036e+00 -3.25405573e-05 
 8.36400000e-04  2.49914377e+00  3.91586317e+00  2.58561015e+00 -3.25494966e-05 
 8.41400000e-04  2.49916042e+00  3.91451099e+00  2.58425719e+00 -3.25590380e-05 
 8.46400000e-04  2.49917790e+00  3.91307676e+00  2.58282278e+00 -3.25691724e-05 
 8.51400000e-04  2.49919618e+00  3.91156186e+00  2.58130830e+00 -3.25798901e-05 
 8.56400000e-04  2.49921527e+00  3.90996776e+00  2.57971523e+00 -3.25911808e-05 
 8.61400000e-04  2.49923512e+00  3.90829599e+00  2.57804509e+00 -3.26030337e-05 
 8.66400000e-04  2.49925574e+00  3.90654817e+00  2.57629950e+00 -3.26154374e-05 
 8.71400000e-04  2.49927708e+00  3.90472598e+00  2.57448015e+00 -3.26283800e-05 
 8.76400000e-04  2.49929914e+00  3.90283120e+00  2.57258879e+00 -3.26418491e-05 
 8.81400000e-04  2.49932189e+00  3.90086565e+00  2.57062726e+00 -3.26558316e-05 
 8.86400000e-04  2.49934531e+00  3.89883124e+00  2.56859746e+00 -3.26703140e-05 
 8.91400000e-04  2.49936938e+00  3.89672994e+00  2.56650135e+00 -3.26852826e-05 
 8.96400000e-04  2.49939407e+00  3.89456379e+00  2.56434098e+00 -3.27007227e-05 
 9.01400000e-04  2.49941935e+00  3.89233489e+00  2.56211842e+00 -3.27166194e-05 
 9.06400000e-04  2.49944521e+00  3.89004541e+00  2.55983585e+00 -3.27329574e-05 
 9.11400000e-04  2.49947162e+00  3.88769757e+00  2.55749549e+00 -3.27497209e-05 
 9.16400000e-04  2.49949855e+00  3.88529366e+00  2.55509960e+00 -3.27668937e-05 
 9.21400000e-04  2.49952597e+00  3.88283602e+00  2.55265053e+00 -3.27844589e-05 
 9.26400000e-04  2.49955386e+00  3.88032704e+00  2.55015066e+00 -3.28023997e-05 
 9.31400000e-04  2.49958220e+00  3.87776916e+00  2.54760243e+00 -3.28206986e-05 
 9.36400000e-04  2.49961094e+00  3.87516490e+00  2.54500831e+00 -3.28393377e-05 
 9.41400000e-04  2.49964007e+00  3.87251678e+00  2.54237086e+00 -3.28582990e-05 
 9.46400000e-04  2.49966955e+00  3.86982740e+00  2.53969264e+00 -3.28775638e-05 
 9.51400000e-04  2.49969936e+00  3.86709938e+00  2.53697628e+00 -3.28971135e-05 
 9.56400000e-04  2.49972947e+00  3.86433541e+00  2.53422443e+00 -3.29169290e-05 
 9.61400000e-04  2.49975984e+00  3.86153818e+00  2.53143979e+00 -3.29369908e-05 
 9.66400000e-04  2.49979045e+00  3.85871043e+00  2.52862509e+00 -3.29572793e-05 
 9.71400000e-04  2.49982127e+00  3.85585496e+00  2.52578309e+00 -3.29777747e-05 
 9.76400000e-04  2.49985226e+00  3.85297455e+00  2.52291658e+00 -3.29984568e-05 
 9.81400000e-04  2.49988340e+00  3.85007203e+00  2.52002838e+00 -3.30193054e-05 
 9.86400000e-04  2.49991465e+00  3.84715027e+00  2.51712133e+00 -3.30402999e-05 
 9.91400000e-04  2.49994599e+00  3.84421214e+00  2.51419830e+00 -3.30614198e-05 
 9.96400000e-04  2.49997738e+00  3.84126053e+00  2.51126215e+00 -3.30826442e-05 
 1.00140000e-03  2.50000880e+00  3.83829834e+00  2.50831578e+00 -3.31039522e-05 
 1.00640000e-03  2.50004020e+00  3.83532852e+00  2.50536210e+00 -3.31253229e-05 
 1.01140000e-03  2.50007157e+00  3.83235397e+00  2.50240403e+00 -3.31467350e-05 
 1.01640000e-03  2.50010286e+00  3.82937764e+00  2.49944448e+00 -3.31681675e-05 
 1.02140000e-03  2.50013406e+00  3.82640248e+00  2.49648638e+00 -3.31895992e-05 
 1.02640000e-03  2.50016512e+00  3.82343143e+00  2.49353266e+00 -3.32110088e-05 
 1.03140000e-03  2.50019601e+00  3.82046742e+00  2.49058624e+00 -3.32323752e-05 
 1.03640000e-03  2.50022672e+00  3.81751339e+00  2.48765004e+00 -3.32536772e-05 
 1.04140000e-03  2.50025720e+00  3.81457226e+00  2.48472696e+00 -3.32748936e-05 
 1.04640000e-03  2.50028743e+00  3.81164697e+00  2.48181990e+00 -3.32960034e-05 
 1.05140000e-03  2.50031737e+00  3.80874040e+00  2.47893176e+00 -3.33169856e-05 
 1.05640000e-03  2.50034700e+00  3.80585544e+00  2.47606539e+00 -3.33378193e-05 
 1.06140000e-03  2.50037629e+00  3.80299495e+00  2.47322364e+00 -3.33584839e-05 
 1.06640000e-03  2.50040521e+00  3.80016179e+00  2.47040934e+00 -3.33789587e-05 
 1.07140000e-03  2.50043372e+00  3.79735877e+00  2.46762528e+00 -3.33992233e-05 
 1.07640000e-03  2.50046181e+00  3.79458867e+00  2.46487424e+00 -3.34192576e-05 
 1.08140000e-03  2.50048944e+00  3.79185425e+00  2.46215895e+00 -3.34390415e-05 
 1.08640000e-03  2.50051659e+00  3.78915824e+00  2.45948211e+00 -3.34585553e-05 
 1.09140000e-03  2.50054323e+00  3.78650333e+00  2.45684640e+00 -3.34777795e-05 
 1.09640000e-03  2.50056934e+00  3.78389215e+00  2.45425444e+00 -3.34966949e-05 
 1.10140000e-03  2.50059488e+00  3.78132731e+00  2.45170882e+00 -3.35152826e-05 
 1.10640000e-03  2.50061983e+00  3.77881138e+00  2.44921207e+00 -3.35335239e-05 
 1.11140000e-03  2.50064418e+00  3.77634686e+00  2.44676669e+00 -3.35514006e-05 
 1.11640000e-03  2.50066788e+00  3.77393621e+00  2.44437511e+00 -3.35688949e-05 
 1.12140000e-03  2.50069093e+00  3.77158184e+00  2.44203974e+00 -3.35859891e-05 
 1.12640000e-03  2.50071330e+00  3.76928610e+00  2.43976289e+00 -3.36026662e-05 
 1.13140000e-03  2.50073496e+00  3.76705130e+00  2.43754685e+00 -3.36189094e-05 
 1.13640000e-03  2.50075590e+00  3.76487965e+00  2.43539383e+00 -3.36347023e-05 
 1.14140000e-03  2.50077609e+00  3.76277335e+00  2.43330599e+00 -3.36500293e-05 
 1.14640000e-03  2.50079552e+00  3.76073448e+00  2.43128541e+00 -3.36648748e-05 
 1.15140000e-03  2.50081416e+00  3.75876510e+00  2.42933412e+00 -3.36792239e-05 
 1.15640000e-03  2.50083199e+00  3.75686717e+00  2.42745406e+00 -3.36930623e-05 
 1.16140000e-03  2.50084901e+00  3.75504259e+00  2.42564713e+00 -3.37063760e-05 
 1.16640000e-03  2.50086519e+00  3.75329320e+00  2.42391513e+00 -3.37191516e-05 
 1.17140000e-03  2.50088051e+00  3.75162074e+00  2.42225980e+00 -3.37313764e-05 
 1.17640000e-03  2.50089497e+00  3.75002689e+00  2.42068280e+00 -3.37430379e-05 
 1.18140000e-03  2.50090854e+00  3.74851325e+00  2.41918570e+00 -3.37541244e-05 
 1.18640000e-03  2.50092121e+00  3.74708133e+00  2.41777000e+00 -3.37646249e-05 
