 time            v(vin)          v(b3_collector) v(vout_final)   i(vdd)         
 0.00000000e+00  2.50000000e+00  3.82990743e+00  2.50000000e+00 -3.31711234e-05 
 5.00000000e-08  2.50000031e+00  3.82990743e+00  2.50000000e+00 -3.31711235e-05 
 1.00000000e-07  2.50000063e+00  3.82990743e+00  2.50000000e+00 -3.31711238e-05 
 2.00000000e-07  2.50000126e+00  3.82990743e+00  2.50000000e+00 -3.31711246e-05 
 4.00000000e-07  2.50000251e+00  3.82990741e+00  2.49999998e+00 -3.31711279e-05 
 8.00000000e-07  2.50000503e+00  3.82990722e+00  2.49999980e+00 -3.31711379e-05 
 1.60000000e-06  2.50001005e+00  3.82990475e+00  2.49999733e+00 -3.31711636e-05 
 3.20000000e-06  2.50002010e+00  3.82987662e+00  2.49996929e+00 -3.31712738e-05 
 6.40000000e-06  2.50004020e+00  3.82962718e+00  2.49972066e+00 -3.31724334e-05 
 1.14000000e-05  2.50007157e+00  3.82853987e+00  2.49863689e+00 -3.31787988e-05 
 1.64000000e-05  2.50010286e+00  3.82665177e+00  2.49675505e+00 -3.31912003e-05 
 2.14000000e-05  2.50013406e+00  3.82423253e+00  2.49434397e+00 -3.32079565e-05 
 2.64000000e-05  2.50016512e+00  3.82153557e+00  2.49165631e+00 -3.32270560e-05 
 3.14000000e-05  2.50019601e+00  3.81870738e+00  2.48883811e+00 -3.32472776e-05 
 3.64000000e-05  2.50022672e+00  3.81582260e+00  2.48596379e+00 -3.32679962e-05 
 4.14000000e-05  2.50025720e+00  3.81291919e+00  2.48307118e+00 -3.32888952e-05 
 4.64000000e-05  2.50028743e+00  3.81001712e+00  2.48018021e+00 -3.33098098e-05 
 5.14000000e-05  2.50031737e+00  3.80712760e+00  2.47730202e+00 -3.33306489e-05 
 5.64000000e-05  2.50034700e+00  3.80425754e+00  2.47444352e+00 -3.33513576e-05 
 6.14000000e-05  2.50037629e+00  3.80141175e+00  2.47160950e+00 -3.33718989e-05 
 6.64000000e-05  2.50040521e+00  3.79859404e+00  2.46880374e+00 -3.33922441e-05 
 7.14000000e-05  2.50043372e+00  3.79580765e+00  2.46602949e+00 -3.34123690e-05 
 7.64000000e-05  2.50046181e+00  3.79305561e+00  2.46328975e+00 -3.34322517e-05 
 8.14000000e-05  2.50048944e+00  3.79034075e+00  2.46058735e+00 -3.34518712e-05 
 8.64000000e-05  2.50051659e+00  3.78766584e+00  2.45792503e+00 -3.34712077e-05 
 9.14000000e-05  2.50054323e+00  3.78503357e+00  2.45530548e+00 -3.34902416e-05 
 9.64000000e-05  2.50056934e+00  3.78244657e+00  2.45273131e+00 -3.35089537e-05 
 1.01400000e-04  2.50059488e+00  3.77990743e+00  2.45020511e+00 -3.35273252e-05 
 1.06400000e-04  2.50061983e+00  3.77741869e+00  2.44772940e+00 -3.35453377e-05 
 1.11400000e-04  2.50064418e+00  3.77498283e+00  2.44530664e+00 -3.35629733e-05 
 1.16400000e-04  2.50066788e+00  3.77260229e+00  2.44293926e+00 -3.35802141e-05 
 1.21400000e-04  2.50069093e+00  3.77027945e+00  2.44062963e+00 -3.35970430e-05 
 1.26400000e-04  2.50071330e+00  3.76801662e+00  2.43838006e+00 -3.36134430e-05 
 1.31400000e-04  2.50073496e+00  3.76581608e+00  2.43619278e+00 -3.36293977e-05 
 1.36400000e-04  2.50075590e+00  3.76368001e+00  2.43407000e+00 -3.36448911e-05 
 1.41400000e-04  2.50077609e+00  3.76161057e+00  2.43201383e+00 -3.36599076e-05 
 1.46400000e-04  2.50079552e+00  3.75960981e+00  2.43002633e+00 -3.36744321e-05 
 1.51400000e-04  2.50081416e+00  3.75767975e+00  2.42810949e+00 -3.36884501e-05 
 1.56400000e-04  2.50083199e+00  3.75582230e+00  2.42626523e+00 -3.37019474e-05 
 1.61400000e-04  2.50084901e+00  3.75403935e+00  2.42449540e+00 -3.37149105e-05 
 1.66400000e-04  2.50086519e+00  3.75233266e+00  2.42280177e+00 -3.37273263e-05 
 1.71400000e-04  2.50088051e+00  3.75070395e+00  2.42118603e+00 -3.37391824e-05 
 1.76400000e-04  2.50089497e+00  3.74915486e+00  2.41964981e+00 -3.37504667e-05 
 1.81400000e-04  2.50090854e+00  3.74768693e+00  2.41819465e+00 -3.37611681e-05 
 1.86400000e-04  2.50092121e+00  3.74630164e+00  2.41682200e+00 -3.37712756e-05 
 1.91400000e-04  2.50093298e+00  3.74500037e+00  2.41553323e+00 -3.37807791e-05 
 1.96400000e-04  2.50094382e+00  3.74378443e+00  2.41432966e+00 -3.37896691e-05 
 2.01400000e-04  2.50095374e+00  3.74265505e+00  2.41321247e+00 -3.37979365e-05 
 2.06400000e-04  2.50096271e+00  3.74161335e+00  2.41218279e+00 -3.38055731e-05 
 2.11400000e-04  2.50097073e+00  3.74066037e+00  2.41124166e+00 -3.38125712e-05 
 2.16400000e-04  2.50097780e+00  3.73979708e+00  2.41039001e+00 -3.38189236e-05 
 2.21400000e-04  2.50098390e+00  3.73902434e+00  2.40962870e+00 -3.38246241e-05 
 2.26400000e-04  2.50098903e+00  3.73834292e+00  2.40895850e+00 -3.38296668e-05 
 2.31400000e-04  2.50099318e+00  3.73775351e+00  2.40838007e+00 -3.38340468e-05 
 2.36400000e-04  2.50099635e+00  3.73725670e+00  2.40789401e+00 -3.38377595e-05 
 2.41400000e-04  2.50099854e+00  3.73685299e+00  2.40750079e+00 -3.38408012e-05 
 2.46400000e-04  2.50099974e+00  3.73654278e+00  2.40720080e+00 -3.38431690e-05 
 2.51400000e-04  2.50099996e+00  3.73632639e+00  2.40699436e+00 -3.38448603e-05 
 2.56400000e-04  2.50099919e+00  3.73620402e+00  2.40688166e+00 -3.38458735e-05 
 2.61400000e-04  2.50099744e+00  3.73617581e+00  2.40686282e+00 -3.38462077e-05 
 2.66400000e-04  2.50099470e+00  3.73624178e+00  2.40693786e+00 -3.38458624e-05 
 2.71400000e-04  2.50099097e+00  3.73640186e+00  2.40710670e+00 -3.38448380e-05 
 2.76400000e-04  2.50098627e+00  3.73665589e+00  2.40736916e+00 -3.38431356e-05 
 2.81400000e-04  2.50098060e+00  3.73700362e+00  2.40772500e+00 -3.38407569e-05 
 2.86400000e-04  2.50097396e+00  3.73744469e+00  2.40817384e+00 -3.38377043e-05 
 2.91400000e-04  2.50096636e+00  3.73797867e+00  2.40871524e+00 -3.38339809e-05 
 2.96400000e-04  2.50095780e+00  3.73860501e+00  2.40934865e+00 -3.38295905e-05 
 3.01400000e-04  2.50094830e+00  3.73932308e+00  2.41007343e+00 -3.38245375e-05 
 3.06400000e-04  2.50093786e+00  3.74013217e+00  2.41088887e+00 -3.38188270e-05 
 3.11400000e-04  2.50092650e+00  3.74103146e+00  2.41179412e+00 -3.38124648e-05 
 3.16400000e-04  2.50091423e+00  3.74202005e+00  2.41278830e+00 -3.38054574e-05 
 3.21400000e-04  2.50090105e+00  3.74309694e+00  2.41387040e+00 -3.37978117e-05 
 3.26400000e-04  2.50088698e+00  3.74426105e+00  2.41503932e+00 -3.37895355e-05 
 3.31400000e-04  2.50087204e+00  3.74551122e+00  2.41629391e+00 -3.37806372e-05 
 3.36400000e-04  2.50085623e+00  3.74684619e+00  2.41763289e+00 -3.37711258e-05 
 3.41400000e-04  2.50083958e+00  3.74826461e+00  2.41905493e+00 -3.37610108e-05 
 3.46400000e-04  2.50082210e+00  3.74976507e+00  2.42055860e+00 -3.37503025e-05 
 3.51400000e-04  2.50080382e+00  3.75134606e+00  2.42214239e+00 -3.37390116e-05 
 3.56400000e-04  2.50078473e+00  3.75300600e+00  2.42380471e+00 -3.37271495e-05 
 3.61400000e-04  2.50076488e+00  3.75474321e+00  2.42554389e+00 -3.37147281e-05 
 3.66400000e-04  2.50074426e+00  3.75655597e+00  2.42735820e+00 -3.37017601e-05 
 3.71400000e-04  2.50072292e+00  3.75844245e+00  2.42924580e+00 -3.36882584e-05 
 3.76400000e-04  2.50070086e+00  3.76040076e+00  2.43120482e+00 -3.36742366e-05 
 3.81400000e-04  2.50067811e+00  3.76242893e+00  2.43323329e+00 -3.36597089e-05 
 3.86400000e-04  2.50065469e+00  3.76452495e+00  2.43532917e+00 -3.36446897e-05 
 3.91400000e-04  2.50063062e+00  3.76668671e+00  2.43749037e+00 -3.36291943e-05 
 3.96400000e-04  2.50060593e+00  3.76891205e+00  2.43971473e+00 -3.36132382e-05 
 4.01400000e-04  2.50058065e+00  3.77119874e+00  2.44200003e+00 -3.35968374e-05 
 4.06400000e-04  2.50055479e+00  3.77354450e+00  2.44434397e+00 -3.35800084e-05 
 4.11400000e-04  2.50052838e+00  3.77594698e+00  2.44674421e+00 -3.35627681e-05 
 4.16400000e-04  2.50050145e+00  3.77840377e+00  2.44919835e+00 -3.35451336e-05 
 4.21400000e-04  2.50047403e+00  3.78091244e+00  2.45170395e+00 -3.35271228e-05 
 4.26400000e-04  2.50044614e+00  3.78347046e+00  2.45425851e+00 -3.35087537e-05 
 4.31400000e-04  2.50041780e+00  3.78607530e+00  2.45685946e+00 -3.34900446e-05 
 4.36400000e-04  2.50038906e+00  3.78872434e+00  2.45950423e+00 -3.34710142e-05 
 4.41400000e-04  2.50035993e+00  3.79141495e+00  2.46219016e+00 -3.34516817e-05 
 4.46400000e-04  2.50033045e+00  3.79414446e+00  2.46491459e+00 -3.34320662e-05 
 4.51400000e-04  2.50030064e+00  3.79691012e+00  2.46767479e+00 -3.34121874e-05 
 4.56400000e-04  2.50027053e+00  3.79970921e+00  2.47046803e+00 -3.33920652e-05 
 4.61400000e-04  2.50024016e+00  3.80253892e+00  2.47329153e+00 -3.33717195e-05 
 4.66400000e-04  2.50020955e+00  3.80539645e+00  2.47614246e+00 -3.33511707e-05 
 4.71400000e-04  2.50017873e+00  3.80827896e+00  2.47901801e+00 -3.33304393e-05 
 4.76400000e-04  2.50014774e+00  3.81118358e+00  2.48191530e+00 -3.33095457e-05 
 4.81400000e-04  2.50011660e+00  3.81410742e+00  2.48483148e+00 -3.32885110e-05 
 4.86400000e-04  2.50008535e+00  3.81704759e+00  2.48776364e+00 -3.32673558e-05 
 4.91400000e-04  2.50005401e+00  3.82000117e+00  2.49070887e+00 -3.32461013e-05 
 4.96400000e-04  2.50002262e+00  3.82296523e+00  2.49366425e+00 -3.32247685e-05 
 5.01400000e-04  2.49999120e+00  3.82593684e+00  2.49662687e+00 -3.32033786e-05 
 5.06400000e-04  2.49995980e+00  3.82891306e+00  2.49959378e+00 -3.31819528e-05 
 5.11400000e-04  2.49992843e+00  3.83189093e+00  2.50256205e+00 -3.31605122e-05 
 5.16400000e-04  2.49989714e+00  3.83486753e+00  2.50552875e+00 -3.31390780e-05 
 5.21400000e-04  2.49986594e+00  3.83783990e+00  2.50849094e+00 -3.31176715e-05 
 5.26400000e-04  2.49983488e+00  3.84080512e+00  2.51144570e+00 -3.30963137e-05 
 5.31400000e-04  2.49980399e+00  3.84376025e+00  2.51439012e+00 -3.30750258e-05 
 5.36400000e-04  2.49977328e+00  3.84670239e+00  2.51732129e+00 -3.30538287e-05 
 5.41400000e-04  2.49974280e+00  3.84962863e+00  2.52023633e+00 -3.30327432e-05 
 5.46400000e-04  2.49971257e+00  3.85253610e+00  2.52313237e+00 -3.30117901e-05 
 5.51400000e-04  2.49968263e+00  3.85542194e+00  2.52600655e+00 -3.29909900e-05 
 5.56400000e-04  2.49965300e+00  3.85828331e+00  2.52885606e+00 -3.29703633e-05 
 5.61400000e-04  2.49962371e+00  3.86111739e+00  2.53167809e+00 -3.29499303e-05 
 5.66400000e-04  2.49959479e+00  3.86392142e+00  2.53446987e+00 -3.29297109e-05 
 5.71400000e-04  2.49956628e+00  3.86669263e+00  2.53722867e+00 -3.29097249e-05 
 5.76400000e-04  2.49953819e+00  3.86942832e+00  2.53995178e+00 -3.28899919e-05 
 5.81400000e-04  2.49951056e+00  3.87212580e+00  2.54263654e+00 -3.28705312e-05 
 5.86400000e-04  2.49948341e+00  3.87478244e+00  2.54528032e+00 -3.28513617e-05 
 5.91400000e-04  2.49945677e+00  3.87739563e+00  2.54788054e+00 -3.28325022e-05 
 5.96400000e-04  2.49943066e+00  3.87996283e+00  2.55043465e+00 -3.28139710e-05 
 6.01400000e-04  2.49940512e+00  3.88248152e+00  2.55294016e+00 -3.27957862e-05 
 6.06400000e-04  2.49938017e+00  3.88494926e+00  2.55539463e+00 -3.27779653e-05 
 6.11400000e-04  2.49935582e+00  3.88736364e+00  2.55779566e+00 -3.27605259e-05 
 6.16400000e-04  2.49933212e+00  3.88972230e+00  2.56014092e+00 -3.27434847e-05 
 6.21400000e-04  2.49930907e+00  3.89202295e+00  2.56242812e+00 -3.27268583e-05 
 6.26400000e-04  2.49928670e+00  3.89426336e+00  2.56465505e+00 -3.27106627e-05 
 6.31400000e-04  2.49926504e+00  3.89644133e+00  2.56681952e+00 -3.26949138e-05 
 6.36400000e-04  2.49924410e+00  3.89855477e+00  2.56891946e+00 -3.26796267e-05 
 6.41400000e-04  2.49922391e+00  3.90060162e+00  2.57095280e+00 -3.26648161e-05 
 6.46400000e-04  2.49920448e+00  3.90257989e+00  2.57291759e+00 -3.26504964e-05 
 6.51400000e-04  2.49918584e+00  3.90448767e+00  2.57481192e+00 -3.26366813e-05 
 6.56400000e-04  2.49916801e+00  3.90632311e+00  2.57663396e+00 -3.26233843e-05 
 6.61400000e-04  2.49915099e+00  3.90808443e+00  2.57838193e+00 -3.26106181e-05 
 6.66400000e-04  2.49913481e+00  3.90976992e+00  2.58005416e+00 -3.25983949e-05 
 6.71400000e-04  2.49911949e+00  3.91137797e+00  2.58164902e+00 -3.25867266e-05 
 6.76400000e-04  2.49910503e+00  3.91290701e+00  2.58316497e+00 -3.25756243e-05 
 6.81400000e-04  2.49909146e+00  3.91435558e+00  2.58460055e+00 -3.25650988e-05 
 6.86400000e-04  2.49907879e+00  3.91572226e+00  2.58595437e+00 -3.25551601e-05 
 6.91400000e-04  2.49906702e+00  3.91700575e+00  2.58722513e+00 -3.25458177e-05 
 6.96400000e-04  2.49905618e+00  3.91820480e+00  2.58841160e+00 -3.25370806e-05 
 7.01400000e-04  2.49904626e+00  3.91931825e+00  2.58951264e+00 -3.25289573e-05 
 7.06400000e-04  2.49903729e+00  3.92034505e+00  2.59052719e+00 -3.25214553e-05 
 7.11400000e-04  2.49902927e+00  3.92128419e+00  2.59145426e+00 -3.25145821e-05 
 7.16400000e-04  2.49902220e+00  3.92213478e+00  2.59229298e+00 -3.25083440e-05 
 7.21400000e-04  2.49901610e+00  3.92289598e+00  2.59304252e+00 -3.25027472e-05 
 7.26400000e-04  2.49901097e+00  3.92356708e+00  2.59370217e+00 -3.24977969e-05 
 7.31400000e-04  2.49900682e+00  3.92414743e+00  2.59427130e+00 -3.24934979e-05 
 7.36400000e-04  2.49900365e+00  3.92463646e+00  2.59474935e+00 -3.24898543e-05 
 7.41400000e-04  2.49900146e+00  3.92503371e+00  2.59513586e+00 -3.24868697e-05 
 7.46400000e-04  2.49900026e+00  3.92533879e+00  2.59543047e+00 -3.24845467e-05 
 7.51400000e-04  2.49900004e+00  3.92555141e+00  2.59563289e+00 -3.24828878e-05 
 7.56400000e-04  2.49900081e+00  3.92567136e+00  2.59574293e+00 -3.24818944e-05 
 7.61400000e-04  2.49900256e+00  3.92569854e+00  2.59576047e+00 -3.24815676e-05 
 7.66400000e-04  2.49900530e+00  3.92563290e+00  2.59568550e+00 -3.24819076e-05 
 7.71400000e-04  2.49900903e+00  3.92547453e+00  2.59551810e+00 -3.24829142e-05 
 7.76400000e-04  2.49901373e+00  3.92522355e+00  2.59525842e+00 -3.24845864e-05 
 7.81400000e-04  2.49901940e+00  3.92488022e+00  2.59490671e+00 -3.24869226e-05 
 7.86400000e-04  2.49902604e+00  3.92444487e+00  2.59446331e+00 -3.24899206e-05 
 7.91400000e-04  2.49903364e+00  3.92391791e+00  2.59392864e+00 -3.24935775e-05 
 7.96400000e-04  2.49904220e+00  3.92329985e+00  2.59330322e+00 -3.24978899e-05 
 8.01400000e-04  2.49905170e+00  3.92259128e+00  2.59258765e+00 -3.25028537e-05 
 8.06400000e-04  2.49906214e+00  3.92179289e+00  2.59178261e+00 -3.25084642e-05 
 8.11400000e-04  2.49907350e+00  3.92090543e+00  2.59088887e+00 -3.25147159e-05 
 8.16400000e-04  2.49908577e+00  3.91992976e+00  2.58990731e+00 -3.25216030e-05 
 8.21400000e-04  2.49909895e+00  3.91886683e+00  2.58883886e+00 -3.25291188e-05 
 8.26400000e-04  2.49911302e+00  3.91771765e+00  2.58768454e+00 -3.25372562e-05 
 8.31400000e-04  2.49912796e+00  3.91648333e+00  2.58644548e+00 -3.25460075e-05 
 8.36400000e-04  2.49914377e+00  3.91516505e+00  2.58512286e+00 -3.25553641e-05 
 8.41400000e-04  2.49916042e+00  3.91376410e+00  2.58371796e+00 -3.25653173e-05 
 8.46400000e-04  2.49917790e+00  3.91228181e+00  2.58223213e+00 -3.25758573e-05 
 8.51400000e-04  2.49919618e+00  3.91071962e+00  2.58066681e+00 -3.25869743e-05 
 8.56400000e-04  2.49921527e+00  3.90907904e+00  2.57902350e+00 -3.25986574e-05 
 8.61400000e-04  2.49923512e+00  3.90736166e+00  2.57730380e+00 -3.26108955e-05 
 8.66400000e-04  2.49925574e+00  3.90556912e+00  2.57550936e+00 -3.26236768e-05 
 8.71400000e-04  2.49927708e+00  3.90370316e+00  2.57364193e+00 -3.26369890e-05 
 8.76400000e-04  2.49929914e+00  3.90176560e+00  2.57170330e+00 -3.26508193e-05 
 8.81400000e-04  2.49932189e+00  3.89975830e+00  2.56969536e+00 -3.26651544e-05 
 8.86400000e-04  2.49934531e+00  3.89768322e+00  2.56762005e+00 -3.26799805e-05 
 8.91400000e-04  2.49936938e+00  3.89554236e+00  2.56547938e+00 -3.26952832e-05 
 8.96400000e-04  2.49939407e+00  3.89333779e+00  2.56327544e+00 -3.27110478e-05 
 9.01400000e-04  2.49941935e+00  3.89107167e+00  2.56101035e+00 -3.27272591e-05 
 9.06400000e-04  2.49944521e+00  3.88874620e+00  2.55868632e+00 -3.27439013e-05 
 9.11400000e-04  2.49947162e+00  3.88636363e+00  2.55630562e+00 -3.27609583e-05 
 9.16400000e-04  2.49949855e+00  3.88392628e+00  2.55387056e+00 -3.27784137e-05 
 9.21400000e-04  2.49952597e+00  3.88143653e+00  2.55138351e+00 -3.27962503e-05 
 9.26400000e-04  2.49955386e+00  3.87889681e+00  2.54884689e+00 -3.28144510e-05 
 9.31400000e-04  2.49958220e+00  3.87630959e+00  2.54626318e+00 -3.28329980e-05 
 9.36400000e-04  2.49961094e+00  3.87367740e+00  2.54363491e+00 -3.28518733e-05 
 9.41400000e-04  2.49964007e+00  3.87100281e+00  2.54096463e+00 -3.28710585e-05 
 9.46400000e-04  2.49966955e+00  3.86828843e+00  2.53825496e+00 -3.28905348e-05 
 9.51400000e-04  2.49969936e+00  3.86553693e+00  2.53550856e+00 -3.29102833e-05 
 9.56400000e-04  2.49972947e+00  3.86275099e+00  2.53272811e+00 -3.29302847e-05 
 9.61400000e-04  2.49975984e+00  3.85993335e+00  2.52991634e+00 -3.29505193e-05 
 9.66400000e-04  2.49979045e+00  3.85708678e+00  2.52707600e+00 -3.29709674e-05 
 9.71400000e-04  2.49982127e+00  3.85421405e+00  2.52420989e+00 -3.29916089e-05 
 9.76400000e-04  2.49985226e+00  3.85131801e+00  2.52132081e+00 -3.30124236e-05 
 9.81400000e-04  2.49988340e+00  3.84840149e+00  2.51841161e+00 -3.30333911e-05 
 9.86400000e-04  2.49991465e+00  3.84546736e+00  2.51548516e+00 -3.30544906e-05 
 9.91400000e-04  2.49994599e+00  3.84251852e+00  2.51254432e+00 -3.30757015e-05 
 9.96400000e-04  2.49997738e+00  3.83955787e+00  2.50959201e+00 -3.30970029e-05 
 1.00140000e-03  2.50000880e+00  3.83658832e+00  2.50663113e+00 -3.31183738e-05 
 1.00640000e-03  2.50004020e+00  3.83361281e+00  2.50366460e+00 -3.31397931e-05 
 1.01140000e-03  2.50007157e+00  3.83063428e+00  2.50069535e+00 -3.31612396e-05 
 1.01640000e-03  2.50010286e+00  3.82765566e+00  2.49772631e+00 -3.31826921e-05 
 1.02140000e-03  2.50013406e+00  3.82467991e+00  2.49476042e+00 -3.32041295e-05 
 1.02640000e-03  2.50016512e+00  3.82170997e+00  2.49180062e+00 -3.32255305e-05 
 1.03140000e-03  2.50019601e+00  3.81874877e+00  2.48884984e+00 -3.32468739e-05 
 1.03640000e-03  2.50022672e+00  3.81579926e+00  2.48591099e+00 -3.32681385e-05 
 1.04140000e-03  2.50025720e+00  3.81286435e+00  2.48298699e+00 -3.32893032e-05 
 1.04640000e-03  2.50028743e+00  3.80994695e+00  2.48008075e+00 -3.33103470e-05 
 1.05140000e-03  2.50031737e+00  3.80704997e+00  2.47719514e+00 -3.33312490e-05 
 1.05640000e-03  2.50034700e+00  3.80417628e+00  2.47433303e+00 -3.33519884e-05 
 1.06140000e-03  2.50037629e+00  3.80132874e+00  2.47149726e+00 -3.33725446e-05 
 1.06640000e-03  2.50040521e+00  3.79851016e+00  2.46869066e+00 -3.33928970e-05 
 1.07140000e-03  2.50043372e+00  3.79572337e+00  2.46591602e+00 -3.34130254e-05 
 1.07640000e-03  2.50046181e+00  3.79297113e+00  2.46317609e+00 -3.34329098e-05 
 1.08140000e-03  2.50048944e+00  3.79025617e+00  2.46047360e+00 -3.34525302e-05 
 1.08640000e-03  2.50051659e+00  3.78758122e+00  2.45781125e+00 -3.34718670e-05 
 1.09140000e-03  2.50054323e+00  3.78494893e+00  2.45519169e+00 -3.34909010e-05 
 1.09640000e-03  2.50056934e+00  3.78236192e+00  2.45261753e+00 -3.35096132e-05 
 1.10140000e-03  2.50059488e+00  3.77982279e+00  2.45009135e+00 -3.35279847e-05 
 1.10640000e-03  2.50061983e+00  3.77733405e+00  2.44761565e+00 -3.35459972e-05 
 1.11140000e-03  2.50064418e+00  3.77489820e+00  2.44519291e+00 -3.35636328e-05 
 1.11640000e-03  2.50066788e+00  3.77251767e+00  2.44282555e+00 -3.35808736e-05 
 1.12140000e-03  2.50069093e+00  3.77019483e+00  2.44051594e+00 -3.35977024e-05 
 1.12640000e-03  2.50071330e+00  3.76793201e+00  2.43826638e+00 -3.36141023e-05 
 1.13140000e-03  2.50073496e+00  3.76573148e+00  2.43607913e+00 -3.36300570e-05 
 1.13640000e-03  2.50075590e+00  3.76359542e+00  2.43395636e+00 -3.36455503e-05 
 1.14140000e-03  2.50077609e+00  3.76152599e+00  2.43190022e+00 -3.36605667e-05 
 1.14640000e-03  2.50079552e+00  3.75952524e+00  2.42991274e+00 -3.36750912e-05 
 1.15140000e-03  2.50081416e+00  3.75759519e+00  2.42799592e+00 -3.36891091e-05 
 1.15640000e-03  2.50083199e+00  3.75573776e+00  2.42615169e+00 -3.37026063e-05 
 1.16140000e-03  2.50084901e+00  3.75395481e+00  2.42438188e+00 -3.37155693e-05 
 1.16640000e-03  2.50086519e+00  3.75224814e+00  2.42268827e+00 -3.37279850e-05 
 1.17140000e-03  2.50088051e+00  3.75061944e+00  2.42107256e+00 -3.37398410e-05 
 1.17640000e-03  2.50089497e+00  3.74907036e+00  2.41953636e+00 -3.37511253e-05 
 1.18140000e-03  2.50090854e+00  3.74760245e+00  2.41808122e+00 -3.37618265e-05 
 1.18640000e-03  2.50092121e+00  3.74621717e+00  2.41670860e+00 -3.37719339e-05 
