 time            v(vin)          v(vout_final)   i(vdd)         
 0.00000000e+00  2.50000000e+00  3.87035911e+00 -3.18957546e-05 
 5.00000000e-08  2.50000031e+00  3.87035911e+00 -3.18957547e-05 
 1.00000000e-07  2.50000063e+00  3.87035911e+00 -3.18957549e-05 
 2.00000000e-07  2.50000126e+00  3.87035911e+00 -3.18957557e-05 
 4.00000000e-07  2.50000251e+00  3.87035909e+00 -3.18957588e-05 
 8.00000000e-07  2.50000503e+00  3.87035886e+00 -3.18957691e-05 
 1.60000000e-06  2.50001005e+00  3.87035587e+00 -3.18958021e-05 
 3.20000000e-06  2.50002010e+00  3.87032271e+00 -3.18959808e-05 
 6.40000000e-06  2.50004020e+00  3.87004214e+00 -3.18975323e-05 
 1.14000000e-05  2.50007157e+00  3.86889315e+00 -3.19047215e-05 
 1.64000000e-05  2.50010286e+00  3.86702011e+00 -3.19173127e-05 
 2.14000000e-05  2.50013406e+00  3.86476122e+00 -3.19330081e-05 
 2.64000000e-05  2.50016512e+00  3.86236103e+00 -3.19498841e-05 
 3.14000000e-05  2.50019601e+00  3.85992329e+00 -3.19670896e-05 
 3.64000000e-05  2.50022672e+00  3.85748460e+00 -3.19843234e-05 
 4.14000000e-05  2.50025720e+00  3.85505831e+00 -3.20014774e-05 
 4.64000000e-05  2.50028743e+00  3.85265028e+00 -3.20185058e-05 
 5.14000000e-05  2.50031737e+00  3.85026396e+00 -3.20353828e-05 
 5.64000000e-05  2.50034700e+00  3.84790206e+00 -3.20520887e-05 
 6.14000000e-05  2.50037629e+00  3.84556704e+00 -3.20686061e-05 
 6.64000000e-05  2.50040521e+00  3.84326123e+00 -3.20849183e-05 
 7.14000000e-05  2.50043372e+00  3.84098694e+00 -3.21010091e-05 
 7.64000000e-05  2.50046181e+00  3.83874641e+00 -3.21168623e-05 
 8.14000000e-05  2.50048944e+00  3.83654189e+00 -3.21324623e-05 
 8.64000000e-05  2.50051659e+00  3.83437554e+00 -3.21477934e-05 
 9.14000000e-05  2.50054323e+00  3.83224953e+00 -3.21628406e-05 
 9.64000000e-05  2.50056934e+00  3.83016597e+00 -3.21775887e-05 
 1.01400000e-04  2.50059488e+00  3.82812691e+00 -3.21920232e-05 
 1.06400000e-04  2.50061983e+00  3.82613440e+00 -3.22061295e-05 
 1.11400000e-04  2.50064418e+00  3.82419041e+00 -3.22198937e-05 
 1.16400000e-04  2.50066788e+00  3.82229687e+00 -3.22333021e-05 
 1.21400000e-04  2.50069093e+00  3.82045566e+00 -3.22463413e-05 
 1.26400000e-04  2.50071330e+00  3.81866862e+00 -3.22589982e-05 
 1.31400000e-04  2.50073496e+00  3.81693752e+00 -3.22712603e-05 
 1.36400000e-04  2.50075590e+00  3.81526409e+00 -3.22831153e-05 
 1.41400000e-04  2.50077609e+00  3.81364998e+00 -3.22945514e-05 
 1.46400000e-04  2.50079552e+00  3.81209681e+00 -3.23055571e-05 
 1.51400000e-04  2.50081416e+00  3.81060612e+00 -3.23161216e-05 
 1.56400000e-04  2.50083199e+00  3.80917939e+00 -3.23262342e-05 
 1.61400000e-04  2.50084901e+00  3.80781804e+00 -3.23358848e-05 
 1.66400000e-04  2.50086519e+00  3.80652343e+00 -3.23450638e-05 
 1.71400000e-04  2.50088051e+00  3.80529684e+00 -3.23537621e-05 
 1.76400000e-04  2.50089497e+00  3.80413950e+00 -3.23619709e-05 
 1.81400000e-04  2.50090854e+00  3.80305255e+00 -3.23696822e-05 
 1.86400000e-04  2.50092121e+00  3.80203707e+00 -3.23768881e-05 
 1.91400000e-04  2.50093298e+00  3.80109409e+00 -3.23835814e-05 
 1.96400000e-04  2.50094382e+00  3.80022452e+00 -3.23897557e-05 
 2.01400000e-04  2.50095374e+00  3.79942924e+00 -3.23954045e-05 
 2.06400000e-04  2.50096271e+00  3.79870903e+00 -3.24005225e-05 
 2.11400000e-04  2.50097073e+00  3.79806461e+00 -3.24051043e-05 
 2.16400000e-04  2.50097780e+00  3.79749662e+00 -3.24091456e-05 
 2.21400000e-04  2.50098390e+00  3.79700561e+00 -3.24126422e-05 
 2.26400000e-04  2.50098903e+00  3.79659208e+00 -3.24155908e-05 
 2.31400000e-04  2.50099318e+00  3.79625643e+00 -3.24179884e-05 
 2.36400000e-04  2.50099635e+00  3.79599898e+00 -3.24198327e-05 
 2.41400000e-04  2.50099854e+00  3.79582000e+00 -3.24211218e-05 
 2.46400000e-04  2.50099974e+00  3.79571964e+00 -3.24218546e-05 
 2.51400000e-04  2.50099996e+00  3.79569802e+00 -3.24220303e-05 
 2.56400000e-04  2.50099919e+00  3.79575513e+00 -3.24216488e-05 
 2.61400000e-04  2.50099744e+00  3.79589091e+00 -3.24207105e-05 
 2.66400000e-04  2.50099470e+00  3.79610523e+00 -3.24192165e-05 
 2.71400000e-04  2.50099097e+00  3.79639786e+00 -3.24171684e-05 
 2.76400000e-04  2.50098627e+00  3.79676849e+00 -3.24145681e-05 
 2.81400000e-04  2.50098060e+00  3.79721676e+00 -3.24114185e-05 
 2.86400000e-04  2.50097396e+00  3.79774220e+00 -3.24077227e-05 
 2.91400000e-04  2.50096636e+00  3.79834429e+00 -3.24034845e-05 
 2.96400000e-04  2.50095780e+00  3.79902241e+00 -3.23987083e-05 
 3.01400000e-04  2.50094830e+00  3.79977587e+00 -3.23933988e-05 
 3.06400000e-04  2.50093786e+00  3.80060392e+00 -3.23875615e-05 
 3.11400000e-04  2.50092650e+00  3.80150571e+00 -3.23812023e-05 
 3.16400000e-04  2.50091423e+00  3.80248035e+00 -3.23743276e-05 
 3.21400000e-04  2.50090105e+00  3.80352684e+00 -3.23669445e-05 
 3.26400000e-04  2.50088698e+00  3.80464413e+00 -3.23590603e-05 
 3.31400000e-04  2.50087204e+00  3.80583110e+00 -3.23506831e-05 
 3.36400000e-04  2.50085623e+00  3.80708655e+00 -3.23418213e-05 
 3.41400000e-04  2.50083958e+00  3.80840923e+00 -3.23324839e-05 
 3.46400000e-04  2.50082210e+00  3.80979779e+00 -3.23226804e-05 
 3.51400000e-04  2.50080382e+00  3.81125085e+00 -3.23124205e-05 
 3.56400000e-04  2.50078473e+00  3.81276694e+00 -3.23017147e-05 
 3.61400000e-04  2.50076488e+00  3.81434455e+00 -3.22905737e-05 
 3.66400000e-04  2.50074426e+00  3.81598209e+00 -3.22790088e-05 
 3.71400000e-04  2.50072292e+00  3.81767792e+00 -3.22670316e-05 
 3.76400000e-04  2.50070086e+00  3.81943033e+00 -3.22546542e-05 
 3.81400000e-04  2.50067811e+00  3.82123758e+00 -3.22418890e-05 
 3.86400000e-04  2.50065469e+00  3.82309784e+00 -3.22287489e-05 
 3.91400000e-04  2.50063062e+00  3.82500927e+00 -3.22152471e-05 
 3.96400000e-04  2.50060593e+00  3.82696994e+00 -3.22013970e-05 
 4.01400000e-04  2.50058065e+00  3.82897789e+00 -3.21872128e-05 
 4.06400000e-04  2.50055479e+00  3.83103111e+00 -3.21727084e-05 
 4.11400000e-04  2.50052838e+00  3.83312756e+00 -3.21578986e-05 
 4.16400000e-04  2.50050145e+00  3.83526513e+00 -3.21427982e-05 
 4.21400000e-04  2.50047403e+00  3.83744170e+00 -3.21274222e-05 
 4.26400000e-04  2.50044614e+00  3.83965508e+00 -3.21117861e-05 
 4.31400000e-04  2.50041780e+00  3.84190307e+00 -3.20959055e-05 
 4.36400000e-04  2.50038906e+00  3.84418343e+00 -3.20797963e-05 
 4.41400000e-04  2.50035993e+00  3.84649389e+00 -3.20634747e-05 
 4.46400000e-04  2.50033045e+00  3.84883213e+00 -3.20469568e-05 
 4.51400000e-04  2.50030064e+00  3.85119583e+00 -3.20302592e-05 
 4.56400000e-04  2.50027053e+00  3.85358264e+00 -3.20133986e-05 
 4.61400000e-04  2.50024016e+00  3.85599018e+00 -3.19963917e-05 
 4.66400000e-04  2.50020955e+00  3.85841607e+00 -3.19792556e-05 
 4.71400000e-04  2.50017873e+00  3.86085787e+00 -3.19620072e-05 
 4.76400000e-04  2.50014774e+00  3.86331318e+00 -3.19446637e-05 
 4.81400000e-04  2.50011660e+00  3.86577955e+00 -3.19272424e-05 
 4.86400000e-04  2.50008535e+00  3.86825453e+00 -3.19097605e-05 
 4.91400000e-04  2.50005401e+00  3.87073566e+00 -3.18922355e-05 
 4.96400000e-04  2.50002262e+00  3.87322050e+00 -3.18746847e-05 
 5.01400000e-04  2.49999120e+00  3.87570657e+00 -3.18571256e-05 
 5.06400000e-04  2.49995980e+00  3.87819141e+00 -3.18395755e-05 
 5.11400000e-04  2.49992843e+00  3.88067257e+00 -3.18220517e-05 
 5.16400000e-04  2.49989714e+00  3.88314759e+00 -3.18045717e-05 
 5.21400000e-04  2.49986594e+00  3.88561401e+00 -3.17871527e-05 
 5.26400000e-04  2.49983488e+00  3.88806941e+00 -3.17698120e-05 
 5.31400000e-04  2.49980399e+00  3.89051137e+00 -3.17525666e-05 
 5.36400000e-04  2.49977328e+00  3.89293746e+00 -3.17354335e-05 
 5.41400000e-04  2.49974280e+00  3.89534529e+00 -3.17184297e-05 
 5.46400000e-04  2.49971257e+00  3.89773250e+00 -3.17015719e-05 
 5.51400000e-04  2.49968263e+00  3.90009673e+00 -3.16848766e-05 
 5.56400000e-04  2.49965300e+00  3.90243565e+00 -3.16683603e-05 
 5.61400000e-04  2.49962371e+00  3.90474696e+00 -3.16520393e-05 
 5.66400000e-04  2.49959479e+00  3.90702839e+00 -3.16359295e-05 
 5.71400000e-04  2.49956628e+00  3.90927769e+00 -3.16200468e-05 
 5.76400000e-04  2.49953819e+00  3.91149266e+00 -3.16044067e-05 
 5.81400000e-04  2.49951056e+00  3.91367111e+00 -3.15890246e-05 
 5.86400000e-04  2.49948341e+00  3.91581092e+00 -3.15739155e-05 
 5.91400000e-04  2.49945677e+00  3.91790999e+00 -3.15590942e-05 
 5.96400000e-04  2.49943066e+00  3.91996625e+00 -3.15445752e-05 
 6.01400000e-04  2.49940512e+00  3.92197769e+00 -3.15303726e-05 
 6.06400000e-04  2.49938017e+00  3.92394234e+00 -3.15165004e-05 
 6.11400000e-04  2.49935582e+00  3.92585829e+00 -3.15029721e-05 
 6.16400000e-04  2.49933212e+00  3.92772364e+00 -3.14898008e-05 
 6.21400000e-04  2.49930907e+00  3.92953660e+00 -3.14769994e-05 
 6.26400000e-04  2.49928670e+00  3.93129537e+00 -3.14645804e-05 
 6.31400000e-04  2.49926504e+00  3.93299824e+00 -3.14525558e-05 
 6.36400000e-04  2.49924410e+00  3.93464355e+00 -3.14409374e-05 
 6.41400000e-04  2.49922391e+00  3.93622970e+00 -3.14297364e-05 
 6.46400000e-04  2.49920448e+00  3.93775513e+00 -3.14189638e-05 
 6.51400000e-04  2.49918584e+00  3.93921836e+00 -3.14086299e-05 
 6.56400000e-04  2.49916801e+00  3.94061796e+00 -3.13987449e-05 
 6.61400000e-04  2.49915099e+00  3.94195257e+00 -3.13893183e-05 
 6.66400000e-04  2.49913481e+00  3.94322088e+00 -3.13803593e-05 
 6.71400000e-04  2.49911949e+00  3.94442166e+00 -3.13718765e-05 
 6.76400000e-04  2.49910503e+00  3.94555375e+00 -3.13638782e-05 
 6.81400000e-04  2.49909146e+00  3.94661603e+00 -3.13563721e-05 
 6.86400000e-04  2.49907879e+00  3.94760748e+00 -3.13493656e-05 
 6.91400000e-04  2.49906702e+00  3.94852712e+00 -3.13428653e-05 
 6.96400000e-04  2.49905618e+00  3.94937407e+00 -3.13368777e-05 
 7.01400000e-04  2.49904626e+00  3.95014748e+00 -3.13314085e-05 
 7.06400000e-04  2.49903729e+00  3.95084662e+00 -3.13264631e-05 
 7.11400000e-04  2.49902927e+00  3.95147080e+00 -3.13220461e-05 
 7.16400000e-04  2.49902220e+00  3.95201941e+00 -3.13181620e-05 
 7.21400000e-04  2.49901610e+00  3.95249191e+00 -3.13148146e-05 
 7.26400000e-04  2.49901097e+00  3.95288783e+00 -3.13120070e-05 
 7.31400000e-04  2.49900682e+00  3.95320680e+00 -3.13097420e-05 
 7.36400000e-04  2.49900365e+00  3.95344850e+00 -3.13080218e-05 
 7.41400000e-04  2.49900146e+00  3.95361268e+00 -3.13068483e-05 
 7.46400000e-04  2.49900026e+00  3.95369918e+00 -3.13062224e-05 
 7.51400000e-04  2.49900004e+00  3.95370791e+00 -3.13061449e-05 
 7.56400000e-04  2.49900081e+00  3.95363886e+00 -3.13066159e-05 
 7.61400000e-04  2.49900256e+00  3.95349209e+00 -3.13076350e-05 
 7.66400000e-04  2.49900530e+00  3.95326773e+00 -3.13092013e-05 
 7.71400000e-04  2.49900903e+00  3.95296599e+00 -3.13113133e-05 
 7.76400000e-04  2.49901373e+00  3.95258716e+00 -3.13139690e-05 
 7.81400000e-04  2.49901940e+00  3.95213160e+00 -3.13171660e-05 
 7.86400000e-04  2.49902604e+00  3.95159973e+00 -3.13209012e-05 
 7.91400000e-04  2.49903364e+00  3.95099208e+00 -3.13251710e-05 
 7.96400000e-04  2.49904220e+00  3.95030922e+00 -3.13299715e-05 
 8.01400000e-04  2.49905170e+00  3.94955180e+00 -3.13352980e-05 
 8.06400000e-04  2.49906214e+00  3.94872055e+00 -3.13411456e-05 
 8.11400000e-04  2.49907350e+00  3.94781627e+00 -3.13475085e-05 
 8.16400000e-04  2.49908577e+00  3.94683983e+00 -3.13543807e-05 
 8.21400000e-04  2.49909895e+00  3.94579216e+00 -3.13617557e-05 
 8.26400000e-04  2.49911302e+00  3.94467427e+00 -3.13696265e-05 
 8.31400000e-04  2.49912796e+00  3.94348725e+00 -3.13779854e-05 
 8.36400000e-04  2.49914377e+00  3.94223223e+00 -3.13868245e-05 
 8.41400000e-04  2.49916042e+00  3.94091042e+00 -3.13961352e-05 
 8.46400000e-04  2.49917790e+00  3.93952311e+00 -3.14059087e-05 
 8.51400000e-04  2.49919618e+00  3.93807162e+00 -3.14161356e-05 
 8.56400000e-04  2.49921527e+00  3.93655737e+00 -3.14268060e-05 
 8.61400000e-04  2.49923512e+00  3.93498182e+00 -3.14379097e-05 
 8.66400000e-04  2.49925574e+00  3.93334649e+00 -3.14494359e-05 
 8.71400000e-04  2.49927708e+00  3.93165297e+00 -3.14613735e-05 
 8.76400000e-04  2.49929914e+00  3.92990289e+00 -3.14737112e-05 
 8.81400000e-04  2.49932189e+00  3.92809796e+00 -3.14864368e-05 
 8.86400000e-04  2.49934531e+00  3.92623992e+00 -3.14995381e-05 
 8.91400000e-04  2.49936938e+00  3.92433059e+00 -3.15130025e-05 
 8.96400000e-04  2.49939407e+00  3.92237181e+00 -3.15268169e-05 
 9.01400000e-04  2.49941935e+00  3.92036550e+00 -3.15409680e-05 
 9.06400000e-04  2.49944521e+00  3.91831359e+00 -3.15554419e-05 
 9.11400000e-04  2.49947162e+00  3.91621810e+00 -3.15702248e-05 
 9.16400000e-04  2.49949855e+00  3.91408106e+00 -3.15853021e-05 
 9.21400000e-04  2.49952597e+00  3.91190456e+00 -3.16006592e-05 
 9.26400000e-04  2.49955386e+00  3.90969072e+00 -3.16162813e-05 
 9.31400000e-04  2.49958220e+00  3.90744171e+00 -3.16321530e-05 
 9.36400000e-04  2.49961094e+00  3.90515971e+00 -3.16482590e-05 
 9.41400000e-04  2.49964007e+00  3.90284696e+00 -3.16645834e-05 
 9.46400000e-04  2.49966955e+00  3.90050573e+00 -3.16811105e-05 
 9.51400000e-04  2.49969936e+00  3.89813830e+00 -3.16978239e-05 
 9.56400000e-04  2.49972947e+00  3.89574700e+00 -3.17147074e-05 
 9.61400000e-04  2.49975984e+00  3.89333416e+00 -3.17317444e-05 
 9.66400000e-04  2.49979045e+00  3.89090216e+00 -3.17489183e-05 
 9.71400000e-04  2.49982127e+00  3.88845339e+00 -3.17662122e-05 
 9.76400000e-04  2.49985226e+00  3.88599024e+00 -3.17836092e-05 
 9.81400000e-04  2.49988340e+00  3.88351514e+00 -3.18010921e-05 
 9.86400000e-04  2.49991465e+00  3.88103052e+00 -3.18186438e-05 
 9.91400000e-04  2.49994599e+00  3.87853883e+00 -3.18362470e-05 
 9.96400000e-04  2.49997738e+00  3.87604252e+00 -3.18538845e-05 
 1.00140000e-03  2.50000880e+00  3.87354405e+00 -3.18715387e-05 
 1.00640000e-03  2.50004020e+00  3.87104588e+00 -3.18891924e-05 
 1.01140000e-03  2.50007157e+00  3.86855048e+00 -3.19068280e-05 
 1.01640000e-03  2.50010286e+00  3.86606030e+00 -3.19244283e-05 
 1.02140000e-03  2.50013406e+00  3.86357781e+00 -3.19419758e-05 
 1.02640000e-03  2.50016512e+00  3.86110546e+00 -3.19594531e-05 
 1.03140000e-03  2.50019601e+00  3.85864569e+00 -3.19768430e-05 
 1.03640000e-03  2.50022672e+00  3.85620094e+00 -3.19941283e-05 
 1.04140000e-03  2.50025720e+00  3.85377362e+00 -3.20112919e-05 
 1.04640000e-03  2.50028743e+00  3.85136613e+00 -3.20283166e-05 
 1.05140000e-03  2.50031737e+00  3.84898087e+00 -3.20451858e-05 
 1.05640000e-03  2.50034700e+00  3.84662018e+00 -3.20618825e-05 
 1.06140000e-03  2.50037629e+00  3.84428642e+00 -3.20783904e-05 
 1.06640000e-03  2.50040521e+00  3.84198189e+00 -3.20946928e-05 
 1.07140000e-03  2.50043372e+00  3.83970889e+00 -3.21107737e-05 
 1.07640000e-03  2.50046181e+00  3.83746966e+00 -3.21266171e-05 
 1.08140000e-03  2.50048944e+00  3.83526643e+00 -3.21422071e-05 
 1.08640000e-03  2.50051659e+00  3.83310138e+00 -3.21575284e-05 
 1.09140000e-03  2.50054323e+00  3.83097668e+00 -3.21725656e-05 
 1.09640000e-03  2.50056934e+00  3.82889442e+00 -3.21873037e-05 
 1.10140000e-03  2.50059488e+00  3.82685668e+00 -3.22017281e-05 
 1.10640000e-03  2.50061983e+00  3.82486548e+00 -3.22158244e-05 
 1.11140000e-03  2.50064418e+00  3.82292281e+00 -3.22295785e-05 
 1.11640000e-03  2.50066788e+00  3.82103060e+00 -3.22429767e-05 
 1.12140000e-03  2.50069093e+00  3.81919072e+00 -3.22560057e-05 
 1.12640000e-03  2.50071330e+00  3.81740501e+00 -3.22686524e-05 
 1.13140000e-03  2.50073496e+00  3.81567525e+00 -3.22809042e-05 
 1.13640000e-03  2.50075590e+00  3.81400316e+00 -3.22927489e-05 
 1.14140000e-03  2.50077609e+00  3.81239040e+00 -3.23041746e-05 
 1.14640000e-03  2.50079552e+00  3.81083858e+00 -3.23151699e-05 
 1.15140000e-03  2.50081416e+00  3.80934924e+00 -3.23257239e-05 
 1.15640000e-03  2.50083199e+00  3.80792388e+00 -3.23358260e-05 
 1.16140000e-03  2.50084901e+00  3.80656389e+00 -3.23454661e-05 
 1.16640000e-03  2.50086519e+00  3.80527065e+00 -3.23546345e-05 
 1.17140000e-03  2.50088051e+00  3.80404544e+00 -3.23633222e-05 
 1.17640000e-03  2.50089497e+00  3.80288948e+00 -3.23715204e-05 
 1.18140000e-03  2.50090854e+00  3.80180392e+00 -3.23792209e-05 
 1.18640000e-03  2.50092121e+00  3.80078984e+00 -3.23864160e-05 
 1.19140000e-03  2.50093298e+00  3.79984825e+00 -3.23930985e-05 
 1.19640000e-03  2.50094382e+00  3.79898008e+00 -3.23992619e-05 
 1.20140000e-03  2.50095374e+00  3.79818621e+00 -3.24048998e-05 
 1.20640000e-03  2.50096271e+00  3.79746741e+00 -3.24100068e-05 
 1.21140000e-03  2.50097073e+00  3.79682441e+00 -3.24145777e-05 
 1.21640000e-03  2.50097780e+00  3.79625784e+00 -3.24186079e-05 
 1.22140000e-03  2.50098390e+00  3.79576826e+00 -3.24220934e-05 
 1.22640000e-03  2.50098903e+00  3.79535616e+00 -3.24250308e-05 
 1.23140000e-03  2.50099318e+00  3.79502195e+00 -3.24274172e-05 
 1.23640000e-03  2.50099635e+00  3.79476595e+00 -3.24292503e-05 
 1.24140000e-03  2.50099854e+00  3.79458841e+00 -3.24305281e-05 
 1.24640000e-03  2.50099974e+00  3.79448951e+00 -3.24312495e-05 
 1.25140000e-03  2.50099996e+00  3.79446934e+00 -3.24314138e-05 
 1.25640000e-03  2.50099919e+00  3.79452791e+00 -3.24310208e-05 
 1.26140000e-03  2.50099744e+00  3.79466517e+00 -3.24300711e-05 
 1.26640000e-03  2.50099470e+00  3.79488096e+00 -3.24285656e-05 
 1.27140000e-03  2.50099097e+00  3.79517506e+00 -3.24265058e-05 
 1.27640000e-03  2.50098627e+00  3.79554718e+00 -3.24238940e-05 
 1.28140000e-03  2.50098060e+00  3.79599694e+00 -3.24207327e-05 
 1.28640000e-03  2.50097396e+00  3.79652387e+00 -3.24170252e-05 
 1.29140000e-03  2.50096636e+00  3.79712746e+00 -3.24127752e-05 
 1.29640000e-03  2.50095780e+00  3.79780708e+00 -3.24079872e-05 
 1.30140000e-03  2.50094830e+00  3.79856205e+00 -3.24026658e-05 
 1.30640000e-03  2.50093786e+00  3.79939161e+00 -3.23968166e-05 
 1.31140000e-03  2.50092650e+00  3.80029492e+00 -3.23904455e-05 
 1.31640000e-03  2.50091423e+00  3.80127107e+00 -3.23835588e-05 
 1.32140000e-03  2.50090105e+00  3.80231909e+00 -3.23761637e-05 
 1.32640000e-03  2.50088698e+00  3.80343791e+00 -3.23682675e-05 
 1.33140000e-03  2.50087204e+00  3.80462642e+00 -3.23598782e-05 
 1.33640000e-03  2.50085623e+00  3.80588341e+00 -3.23510042e-05 
 1.34140000e-03  2.50083958e+00  3.80720762e+00 -3.23416547e-05 
 1.34640000e-03  2.50082210e+00  3.80859773e+00 -3.23318389e-05 
 1.35140000e-03  2.50080382e+00  3.81005234e+00 -3.23215668e-05 
 1.35640000e-03  2.50078473e+00  3.81156999e+00 -3.23108487e-05 
 1.36140000e-03  2.50076488e+00  3.81314915e+00 -3.22996954e-05 
 1.36640000e-03  2.50074426e+00  3.81478825e+00 -3.22881181e-05 
 1.37140000e-03  2.50072292e+00  3.81648564e+00 -3.22761286e-05 
 1.37640000e-03  2.50070086e+00  3.81823962e+00 -3.22637387e-05 
 1.38140000e-03  2.50067811e+00  3.82004844e+00 -3.22509611e-05 
 1.38640000e-03  2.50065469e+00  3.82191028e+00 -3.22378085e-05 
 1.39140000e-03  2.50063062e+00  3.82382328e+00 -3.22242941e-05 
 1.39640000e-03  2.50060593e+00  3.82578553e+00 -3.22104316e-05 
 1.40140000e-03  2.50058065e+00  3.82779507e+00 -3.21962347e-05 
 1.40640000e-03  2.50055479e+00  3.82984988e+00 -3.21817178e-05 
 1.41140000e-03  2.50052838e+00  3.83194791e+00 -3.21668954e-05 
 1.41640000e-03  2.50050145e+00  3.83408708e+00 -3.21517823e-05 
 1.42140000e-03  2.50047403e+00  3.83626524e+00 -3.21363937e-05 
 1.42640000e-03  2.50044614e+00  3.83848021e+00 -3.21207449e-05 
 1.43140000e-03  2.50041780e+00  3.84072980e+00 -3.21048517e-05 
 1.43640000e-03  2.50038906e+00  3.84301176e+00 -3.20887298e-05 
 1.44140000e-03  2.50035993e+00  3.84532381e+00 -3.20723954e-05 
 1.44640000e-03  2.50033045e+00  3.84766366e+00 -3.20558648e-05 
 1.45140000e-03  2.50030064e+00  3.85002896e+00 -3.20391545e-05 
 1.45640000e-03  2.50027053e+00  3.85241737e+00 -3.20222811e-05 
 1.46140000e-03  2.50024016e+00  3.85482652e+00 -3.20052615e-05 
 1.46640000e-03  2.50020955e+00  3.85725401e+00 -3.19881125e-05 
 1.47140000e-03  2.50017873e+00  3.85969742e+00 -3.19708514e-05 
 1.47640000e-03  2.50014774e+00  3.86215433e+00 -3.19534951e-05 
 1.48140000e-03  2.50011660e+00  3.86462230e+00 -3.19360610e-05 
 1.48640000e-03  2.50008535e+00  3.86709889e+00 -3.19185664e-05 
 1.49140000e-03  2.50005401e+00  3.86958163e+00 -3.19010286e-05 
