 time            v(vin)          v(b1_base)      v(b1_collector) v(b2_collector) v(b3_collector) v(vout_final)   i(vdd)         
 0.00000000e+00  2.50000000e+00  9.71330183e-01  3.87082080e+00  3.87082080e+00  3.87035911e+00  3.87035911e+00 -3.18957546e-05 
 1.00000000e-08  2.50000006e+00  9.71330246e-01  3.87082063e+00  3.87082118e+00  3.87035760e+00  3.87035760e+00 -3.18957654e-05 
 2.00000000e-08  2.50000013e+00  9.71330309e-01  3.87082042e+00  3.87082181e+00  3.87035475e+00  3.87035475e+00 -3.18957855e-05 
 4.00000000e-08  2.50000025e+00  9.71330434e-01  3.87081996e+00  3.87082337e+00  3.87034729e+00  3.87034729e+00 -3.18958381e-05 
 8.00000000e-08  2.50000050e+00  9.71330686e-01  3.87081898e+00  3.87082719e+00  3.87032790e+00  3.87032790e+00 -3.18959751e-05 
 1.60000000e-07  2.50000101e+00  9.71331188e-01  3.87081699e+00  3.87083504e+00  3.87028780e+00  3.87028780e+00 -3.18962585e-05 
 3.20000000e-07  2.50000201e+00  9.71332194e-01  3.87081302e+00  3.87085070e+00  3.87020793e+00  3.87020793e+00 -3.18968228e-05 
 6.40000000e-07  2.50000402e+00  9.71334204e-01  3.87080509e+00  3.87088203e+00  3.87004799e+00  3.87004799e+00 -3.18979530e-05 
 1.28000000e-06  2.50000804e+00  9.71338225e-01  3.87078921e+00  3.87094467e+00  3.86972832e+00  3.86972832e+00 -3.19002118e-05 
 2.28000000e-06  2.50001433e+00  9.71344508e-01  3.87076441e+00  3.87104255e+00  3.86922870e+00  3.86922870e+00 -3.19037422e-05 
 3.28000000e-06  2.50002061e+00  9.71350790e-01  3.87073961e+00  3.87114041e+00  3.86872922e+00  3.86872922e+00 -3.19072717e-05 
 4.28000000e-06  2.50002689e+00  9.71357072e-01  3.87071482e+00  3.87123827e+00  3.86822968e+00  3.86822968e+00 -3.19108016e-05 
 5.28000000e-06  2.50003317e+00  9.71363352e-01  3.87069002e+00  3.87133610e+00  3.86773030e+00  3.86773030e+00 -3.19143304e-05 
 6.28000000e-06  2.50003945e+00  9.71369631e-01  3.87066524e+00  3.87143392e+00  3.86723092e+00  3.86723092e+00 -3.19178593e-05 
 7.28000000e-06  2.50004573e+00  9.71375908e-01  3.87064046e+00  3.87153170e+00  3.86673174e+00  3.86673174e+00 -3.19213868e-05 
 8.28000000e-06  2.50005200e+00  9.71382184e-01  3.87061568e+00  3.87162946e+00  3.86623260e+00  3.86623260e+00 -3.19249141e-05 
 9.28000000e-06  2.50005827e+00  9.71388457e-01  3.87059092e+00  3.87172718e+00  3.86573369e+00  3.86573369e+00 -3.19284397e-05 
 1.02800000e-05  2.50006455e+00  9.71394728e-01  3.87056616e+00  3.87182487e+00  3.86523487e+00  3.86523487e+00 -3.19319648e-05 
 1.12800000e-05  2.50007082e+00  9.71400997e-01  3.87054141e+00  3.87192251e+00  3.86473631e+00  3.86473631e+00 -3.19354880e-05 
 1.22800000e-05  2.50007708e+00  9.71407263e-01  3.87051668e+00  3.87202011e+00  3.86423788e+00  3.86423788e+00 -3.19390104e-05 
 1.32800000e-05  2.50008334e+00  9.71413525e-01  3.87049195e+00  3.87211765e+00  3.86373975e+00  3.86373975e+00 -3.19425307e-05 
 1.42800000e-05  2.50008960e+00  9.71419785e-01  3.87046724e+00  3.87221515e+00  3.86324180e+00  3.86324180e+00 -3.19460498e-05 
 1.52800000e-05  2.50009586e+00  9.71426041e-01  3.87044254e+00  3.87231258e+00  3.86274418e+00  3.86274418e+00 -3.19495665e-05 
 1.62800000e-05  2.50010211e+00  9.71432293e-01  3.87041786e+00  3.87240996e+00  3.86224679e+00  3.86224679e+00 -3.19530817e-05 
 1.72800000e-05  2.50010836e+00  9.71438541e-01  3.87039320e+00  3.87250727e+00  3.86174976e+00  3.86174976e+00 -3.19565944e-05 
 1.82800000e-05  2.50011460e+00  9.71444785e-01  3.87036855e+00  3.87260452e+00  3.86125299e+00  3.86125299e+00 -3.19601052e-05 
 1.92800000e-05  2.50012084e+00  9.71451024e-01  3.87034391e+00  3.87270169e+00  3.86075663e+00  3.86075663e+00 -3.19636132e-05 
 2.02800000e-05  2.50012708e+00  9.71457258e-01  3.87031930e+00  3.87279879e+00  3.86026057e+00  3.86026057e+00 -3.19671191e-05 
 2.12800000e-05  2.50013331e+00  9.71463488e-01  3.87029471e+00  3.87289580e+00  3.85976496e+00  3.85976496e+00 -3.19706219e-05 
 2.22800000e-05  2.50013953e+00  9.71469712e-01  3.87027013e+00  3.87299274e+00  3.85926969e+00  3.85926969e+00 -3.19741223e-05 
 2.32800000e-05  2.50014575e+00  9.71475930e-01  3.87024558e+00  3.87308958e+00  3.85877490e+00  3.85877490e+00 -3.19776194e-05 
 2.42800000e-05  2.50015196e+00  9.71482143e-01  3.87022105e+00  3.87318633e+00  3.85828051e+00  3.85828051e+00 -3.19811137e-05 
 2.52800000e-05  2.50015817e+00  9.71488350e-01  3.87019655e+00  3.87328299e+00  3.85778662e+00  3.85778662e+00 -3.19846044e-05 
 2.62800000e-05  2.50016437e+00  9.71494550e-01  3.87017207e+00  3.87337955e+00  3.85729317e+00  3.85729317e+00 -3.19880921e-05 
 2.72800000e-05  2.50017057e+00  9.71500744e-01  3.87014761e+00  3.87347600e+00  3.85680026e+00  3.85680026e+00 -3.19915760e-05 
 2.82800000e-05  2.50017675e+00  9.71506932e-01  3.87012319e+00  3.87357236e+00  3.85630783e+00  3.85630783e+00 -3.19950565e-05 
 2.92800000e-05  2.50018294e+00  9.71513112e-01  3.87009878e+00  3.87366859e+00  3.85581599e+00  3.85581599e+00 -3.19985330e-05 
 3.02800000e-05  2.50018911e+00  9.71519285e-01  3.87007441e+00  3.87376472e+00  3.85532466e+00  3.85532466e+00 -3.20020058e-05 
 3.12800000e-05  2.50019528e+00  9.71525451e-01  3.87005007e+00  3.87386072e+00  3.85483396e+00  3.85483396e+00 -3.20054742e-05 
 3.22800000e-05  2.50020143e+00  9.71531608e-01  3.87002576e+00  3.87395661e+00  3.85434381e+00  3.85434381e+00 -3.20089388e-05 
 3.32800000e-05  2.50020758e+00  9.71537758e-01  3.87000147e+00  3.87405237e+00  3.85385432e+00  3.85385432e+00 -3.20123987e-05 
 3.42800000e-05  2.50021373e+00  9.71543900e-01  3.86997723e+00  3.87414800e+00  3.85336543e+00  3.85336543e+00 -3.20158545e-05 
 3.52800000e-05  2.50021986e+00  9.71550033e-01  3.86995301e+00  3.87424349e+00  3.85287723e+00  3.85287723e+00 -3.20193053e-05 
 3.62800000e-05  2.50022598e+00  9.71556158e-01  3.86992883e+00  3.87433885e+00  3.85238968e+00  3.85238968e+00 -3.20227517e-05 
 3.72800000e-05  2.50023210e+00  9.71562273e-01  3.86990468e+00  3.87443407e+00  3.85190285e+00  3.85190285e+00 -3.20261929e-05 
 3.82800000e-05  2.50023821e+00  9.71568380e-01  3.86988057e+00  3.87452915e+00  3.85141671e+00  3.85141671e+00 -3.20296294e-05 
 3.92800000e-05  2.50024431e+00  9.71574477e-01  3.86985650e+00  3.87462407e+00  3.85093133e+00  3.85093133e+00 -3.20330604e-05 
 4.02800000e-05  2.50025039e+00  9.71580564e-01  3.86983246e+00  3.87471884e+00  3.85044668e+00  3.85044668e+00 -3.20364864e-05 
 4.12800000e-05  2.50025647e+00  9.71586641e-01  3.86980846e+00  3.87481346e+00  3.84996283e+00  3.84996283e+00 -3.20399068e-05 
 4.22800000e-05  2.50026254e+00  9.71592709e-01  3.86978451e+00  3.87490792e+00  3.84947975e+00  3.84947975e+00 -3.20433218e-05 
 4.32800000e-05  2.50026860e+00  9.71598766e-01  3.86976059e+00  3.87500222e+00  3.84899750e+00  3.84899750e+00 -3.20467309e-05 
 4.42800000e-05  2.50027464e+00  9.71604812e-01  3.86973672e+00  3.87509635e+00  3.84851605e+00  3.84851605e+00 -3.20501343e-05 
 4.52800000e-05  2.50028068e+00  9.71610847e-01  3.86971289e+00  3.87519031e+00  3.84803549e+00  3.84803549e+00 -3.20535316e-05 
 4.62800000e-05  2.50028671e+00  9.71616872e-01  3.86968910e+00  3.87528409e+00  3.84755576e+00  3.84755576e+00 -3.20569229e-05 
 4.72800000e-05  2.50029272e+00  9.71622885e-01  3.86966536e+00  3.87537770e+00  3.84707695e+00  3.84707695e+00 -3.20603078e-05 
 4.82800000e-05  2.50029872e+00  9.71628886e-01  3.86964166e+00  3.87547112e+00  3.84659902e+00  3.84659902e+00 -3.20636866e-05 
 4.92800000e-05  2.50030471e+00  9.71634876e-01  3.86961801e+00  3.87556436e+00  3.84612204e+00  3.84612204e+00 -3.20670586e-05 
 5.02800000e-05  2.50031069e+00  9.71640853e-01  3.86959440e+00  3.87565741e+00  3.84564598e+00  3.84564598e+00 -3.20704242e-05 
 5.12800000e-05  2.50031666e+00  9.71646819e-01  3.86957085e+00  3.87575027e+00  3.84517091e+00  3.84517091e+00 -3.20737828e-05 
 5.22800000e-05  2.50032261e+00  9.71652771e-01  3.86954734e+00  3.87584293e+00  3.84469679e+00  3.84469679e+00 -3.20771347e-05 
 5.32800000e-05  2.50032855e+00  9.71658711e-01  3.86952389e+00  3.87593539e+00  3.84422370e+00  3.84422370e+00 -3.20804794e-05 
 5.42800000e-05  2.50033448e+00  9.71664639e-01  3.86950048e+00  3.87602765e+00  3.84375161e+00  3.84375161e+00 -3.20838170e-05 
 5.52800000e-05  2.50034039e+00  9.71670552e-01  3.86947713e+00  3.87611970e+00  3.84328058e+00  3.84328058e+00 -3.20871472e-05 
 5.62800000e-05  2.50034629e+00  9.71676453e-01  3.86945383e+00  3.87621154e+00  3.84281059e+00  3.84281059e+00 -3.20904701e-05 
 5.72800000e-05  2.50035218e+00  9.71682339e-01  3.86943058e+00  3.87630317e+00  3.84234169e+00  3.84234169e+00 -3.20937852e-05 
 5.82800000e-05  2.50035806e+00  9.71688212e-01  3.86940739e+00  3.87639458e+00  3.84187387e+00  3.84187387e+00 -3.20970928e-05 
 5.92800000e-05  2.50036391e+00  9.71694071e-01  3.86938426e+00  3.87648576e+00  3.84140717e+00  3.84140717e+00 -3.21003924e-05 
 6.02800000e-05  2.50036976e+00  9.71699915e-01  3.86936118e+00  3.87657672e+00  3.84094160e+00  3.84094160e+00 -3.21036842e-05 
 6.12800000e-05  2.50037559e+00  9.71705745e-01  3.86933816e+00  3.87666745e+00  3.84047719e+00  3.84047719e+00 -3.21069677e-05 
 6.22800000e-05  2.50038141e+00  9.71711559e-01  3.86931520e+00  3.87675795e+00  3.84001394e+00  3.84001394e+00 -3.21102431e-05 
 6.32800000e-05  2.50038721e+00  9.71717359e-01  3.86929229e+00  3.87684822e+00  3.83955189e+00  3.83955189e+00 -3.21135101e-05 
 6.42800000e-05  2.50039299e+00  9.71723144e-01  3.86926945e+00  3.87693824e+00  3.83909103e+00  3.83909103e+00 -3.21167686e-05 
 6.52800000e-05  2.50039876e+00  9.71728912e-01  3.86924667e+00  3.87702802e+00  3.83863140e+00  3.83863140e+00 -3.21200185e-05 
 6.62800000e-05  2.50040452e+00  9.71734666e-01  3.86922395e+00  3.87711756e+00  3.83817301e+00  3.83817301e+00 -3.21232596e-05 
 6.72800000e-05  2.50041025e+00  9.71740403e-01  3.86920129e+00  3.87720684e+00  3.83771589e+00  3.83771589e+00 -3.21264918e-05 
 6.82800000e-05  2.50041598e+00  9.71746124e-01  3.86917870e+00  3.87729587e+00  3.83726003e+00  3.83726003e+00 -3.21297151e-05 
 6.92800000e-05  2.50042168e+00  9.71751828e-01  3.86915617e+00  3.87738464e+00  3.83680549e+00  3.83680549e+00 -3.21329291e-05 
 7.02800000e-05  2.50042737e+00  9.71757516e-01  3.86913371e+00  3.87747316e+00  3.83635224e+00  3.83635224e+00 -3.21361340e-05 
 7.12800000e-05  2.50043304e+00  9.71763187e-01  3.86911131e+00  3.87756141e+00  3.83590035e+00  3.83590035e+00 -3.21393293e-05 
 7.22800000e-05  2.50043870e+00  9.71768841e-01  3.86908899e+00  3.87764939e+00  3.83544979e+00  3.83544979e+00 -3.21425153e-05 
 7.32800000e-05  2.50044433e+00  9.71774477e-01  3.86906673e+00  3.87773710e+00  3.83500061e+00  3.83500061e+00 -3.21456915e-05 
 7.42800000e-05  2.50044996e+00  9.71780096e-01  3.86904454e+00  3.87782453e+00  3.83455281e+00  3.83455281e+00 -3.21488580e-05 
 7.52800000e-05  2.50045556e+00  9.71785697e-01  3.86902241e+00  3.87791169e+00  3.83410642e+00  3.83410642e+00 -3.21520145e-05 
 7.62800000e-05  2.50046114e+00  9.71791281e-01  3.86900037e+00  3.87799857e+00  3.83366145e+00  3.83366145e+00 -3.21551610e-05 
 7.72800000e-05  2.50046671e+00  9.71796846e-01  3.86897839e+00  3.87808516e+00  3.83321792e+00  3.83321792e+00 -3.21582974e-05 
 7.82800000e-05  2.50047226e+00  9.71802392e-01  3.86895648e+00  3.87817146e+00  3.83277585e+00  3.83277585e+00 -3.21614235e-05 
 7.92800000e-05  2.50047778e+00  9.71807920e-01  3.86893465e+00  3.87825747e+00  3.83233526e+00  3.83233526e+00 -3.21645391e-05 
 8.02800000e-05  2.50048329e+00  9.71813429e-01  3.86891289e+00  3.87834319e+00  3.83189615e+00  3.83189615e+00 -3.21676443e-05 
 8.12800000e-05  2.50048879e+00  9.71818919e-01  3.86889121e+00  3.87842861e+00  3.83145856e+00  3.83145856e+00 -3.21707388e-05 
 8.22800000e-05  2.50049426e+00  9.71824390e-01  3.86886961e+00  3.87851372e+00  3.83102249e+00  3.83102249e+00 -3.21738226e-05 
 8.32800000e-05  2.50049971e+00  9.71829841e-01  3.86884808e+00  3.87859854e+00  3.83058797e+00  3.83058797e+00 -3.21768953e-05 
 8.42800000e-05  2.50050514e+00  9.71835272e-01  3.86882663e+00  3.87868304e+00  3.83015502e+00  3.83015502e+00 -3.21799571e-05 
 8.52800000e-05  2.50051055e+00  9.71840683e-01  3.86880525e+00  3.87876723e+00  3.82972365e+00  3.82972365e+00 -3.21830077e-05 
 8.62800000e-05  2.50051595e+00  9.71846074e-01  3.86878396e+00  3.87885111e+00  3.82929386e+00  3.82929386e+00 -3.21860472e-05 
 8.72800000e-05  2.50052132e+00  9.71851445e-01  3.86876275e+00  3.87893467e+00  3.82886570e+00  3.82886570e+00 -3.21890751e-05 
 8.82800000e-05  2.50052667e+00  9.71856795e-01  3.86874162e+00  3.87901790e+00  3.82843916e+00  3.82843916e+00 -3.21920916e-05 
 8.92800000e-05  2.50053200e+00  9.71862125e-01  3.86872057e+00  3.87910081e+00  3.82801428e+00  3.82801428e+00 -3.21950964e-05 
 9.02800000e-05  2.50053731e+00  9.71867433e-01  3.86869960e+00  3.87918340e+00  3.82759105e+00  3.82759105e+00 -3.21980896e-05 
 9.12800000e-05  2.50054260e+00  9.71872720e-01  3.86867872e+00  3.87926565e+00  3.82716951e+00  3.82716951e+00 -3.22010708e-05 
 9.22800000e-05  2.50054787e+00  9.71877986e-01  3.86865792e+00  3.87934757e+00  3.82674967e+00  3.82674967e+00 -3.22040400e-05 
 9.32800000e-05  2.50055311e+00  9.71883230e-01  3.86863721e+00  3.87942915e+00  3.82633155e+00  3.82633155e+00 -3.22069971e-05 
 9.42800000e-05  2.50055834e+00  9.71888453e-01  3.86861658e+00  3.87951039e+00  3.82591515e+00  3.82591515e+00 -3.22099420e-05 
 9.52800000e-05  2.50056354e+00  9.71893653e-01  3.86859604e+00  3.87959128e+00  3.82550051e+00  3.82550051e+00 -3.22128746e-05 
 9.62800000e-05  2.50056872e+00  9.71898831e-01  3.86857559e+00  3.87967183e+00  3.82508763e+00  3.82508763e+00 -3.22157947e-05 
 9.72800000e-05  2.50057387e+00  9.71903986e-01  3.86855523e+00  3.87975202e+00  3.82467653e+00  3.82467653e+00 -3.22187022e-05 
 9.82800000e-05  2.50057901e+00  9.71909119e-01  3.86853496e+00  3.87983187e+00  3.82426723e+00  3.82426723e+00 -3.22215970e-05 
 9.92800000e-05  2.50058412e+00  9.71914229e-01  3.86851477e+00  3.87991135e+00  3.82385975e+00  3.82385975e+00 -3.22244790e-05 
 1.00280000e-04  2.50058921e+00  9.71919316e-01  3.86849468e+00  3.87999048e+00  3.82345409e+00  3.82345409e+00 -3.22273481e-05 
 1.01280000e-04  2.50059427e+00  9.71924379e-01  3.86847468e+00  3.88006924e+00  3.82305028e+00  3.82305028e+00 -3.22302041e-05 
 1.02280000e-04  2.50059931e+00  9.71929419e-01  3.86845477e+00  3.88014764e+00  3.82264834e+00  3.82264834e+00 -3.22330470e-05 
 1.03280000e-04  2.50060433e+00  9.71934436e-01  3.86843496e+00  3.88022567e+00  3.82224827e+00  3.82224827e+00 -3.22358766e-05 
 1.04280000e-04  2.50060933e+00  9.71939428e-01  3.86841524e+00  3.88030332e+00  3.82185010e+00  3.82185010e+00 -3.22386929e-05 
 1.05280000e-04  2.50061430e+00  9.71944397e-01  3.86839561e+00  3.88038060e+00  3.82145384e+00  3.82145384e+00 -3.22414956e-05 
 1.06280000e-04  2.50061924e+00  9.71949341e-01  3.86837608e+00  3.88045750e+00  3.82105951e+00  3.82105951e+00 -3.22442848e-05 
 1.07280000e-04  2.50062416e+00  9.71954261e-01  3.86835665e+00  3.88053402e+00  3.82066712e+00  3.82066712e+00 -3.22470601e-05 
 1.08280000e-04  2.50062906e+00  9.71959156e-01  3.86833731e+00  3.88061016e+00  3.82027668e+00  3.82027668e+00 -3.22498218e-05 
 1.09280000e-04  2.50063393e+00  9.71964026e-01  3.86831808e+00  3.88068590e+00  3.81988823e+00  3.81988823e+00 -3.22525694e-05 
 1.10280000e-04  2.50063878e+00  9.71968872e-01  3.86829894e+00  3.88076126e+00  3.81950175e+00  3.81950175e+00 -3.22553030e-05 
 1.11280000e-04  2.50064360e+00  9.71973692e-01  3.86827990e+00  3.88083622e+00  3.81911729e+00  3.81911729e+00 -3.22580224e-05 
 1.12280000e-04  2.50064840e+00  9.71978486e-01  3.86826096e+00  3.88091079e+00  3.81873484e+00  3.81873484e+00 -3.22607276e-05 
 1.13280000e-04  2.50065317e+00  9.71983255e-01  3.86824212e+00  3.88098496e+00  3.81835444e+00  3.81835444e+00 -3.22634184e-05 
 1.14280000e-04  2.50065791e+00  9.71987998e-01  3.86822338e+00  3.88105873e+00  3.81797607e+00  3.81797607e+00 -3.22660947e-05 
 1.15280000e-04  2.50066263e+00  9.71992716e-01  3.86820475e+00  3.88113209e+00  3.81759978e+00  3.81759978e+00 -3.22687564e-05 
 1.16280000e-04  2.50066732e+00  9.71997407e-01  3.86818622e+00  3.88120504e+00  3.81722556e+00  3.81722556e+00 -3.22714035e-05 
 1.17280000e-04  2.50067199e+00  9.72002071e-01  3.86816779e+00  3.88127758e+00  3.81685345e+00  3.81685345e+00 -3.22740357e-05 
 1.18280000e-04  2.50067663e+00  9.72006710e-01  3.86814947e+00  3.88134971e+00  3.81648344e+00  3.81648344e+00 -3.22766530e-05 
 1.19280000e-04  2.50068124e+00  9.72011321e-01  3.86813126e+00  3.88142142e+00  3.81611555e+00  3.81611555e+00 -3.22792553e-05 
 1.20280000e-04  2.50068583e+00  9.72015905e-01  3.86811315e+00  3.88149272e+00  3.81574981e+00  3.81574981e+00 -3.22818425e-05 
 1.21280000e-04  2.50069039e+00  9.72020463e-01  3.86809514e+00  3.88156359e+00  3.81538622e+00  3.81538622e+00 -3.22844144e-05 
 1.22280000e-04  2.50069492e+00  9.72024993e-01  3.86807725e+00  3.88163403e+00  3.81502479e+00  3.81502479e+00 -3.22869711e-05 
 1.23280000e-04  2.50069942e+00  9.72029496e-01  3.86805946e+00  3.88170405e+00  3.81466556e+00  3.81466556e+00 -3.22895123e-05 
 1.24280000e-04  2.50070390e+00  9.72033971e-01  3.86804178e+00  3.88177364e+00  3.81430852e+00  3.81430852e+00 -3.22920380e-05 
 1.25280000e-04  2.50070835e+00  9.72038418e-01  3.86802421e+00  3.88184279e+00  3.81395369e+00  3.81395369e+00 -3.22945480e-05 
 1.26280000e-04  2.50071277e+00  9.72042837e-01  3.86800676e+00  3.88191151e+00  3.81360109e+00  3.81360109e+00 -3.22970423e-05 
 1.27280000e-04  2.50071716e+00  9.72047229e-01  3.86798941e+00  3.88197979e+00  3.81325072e+00  3.81325072e+00 -3.22995208e-05 
 1.28280000e-04  2.50072153e+00  9.72051591e-01  3.86797217e+00  3.88204763e+00  3.81290261e+00  3.81290261e+00 -3.23019834e-05 
 1.29280000e-04  2.50072586e+00  9.72055926e-01  3.86795505e+00  3.88211502e+00  3.81255678e+00  3.81255678e+00 -3.23044299e-05 
 1.30280000e-04  2.50073017e+00  9.72060231e-01  3.86793804e+00  3.88218197e+00  3.81221321e+00  3.81221321e+00 -3.23068603e-05 
 1.31280000e-04  2.50073445e+00  9.72064508e-01  3.86792115e+00  3.88224847e+00  3.81187195e+00  3.81187195e+00 -3.23092745e-05 
 1.32280000e-04  2.50073870e+00  9.72068756e-01  3.86790436e+00  3.88231452e+00  3.81153300e+00  3.81153300e+00 -3.23116724e-05 
 1.33280000e-04  2.50074292e+00  9.72072975e-01  3.86788770e+00  3.88238011e+00  3.81119637e+00  3.81119637e+00 -3.23140538e-05 
 1.34280000e-04  2.50074711e+00  9.72077164e-01  3.86787115e+00  3.88244525e+00  3.81086207e+00  3.81086207e+00 -3.23164187e-05 
 1.35280000e-04  2.50075127e+00  9.72081324e-01  3.86785471e+00  3.88250992e+00  3.81053013e+00  3.81053013e+00 -3.23187670e-05 
 1.36280000e-04  2.50075541e+00  9.72085454e-01  3.86783840e+00  3.88257414e+00  3.81020054e+00  3.81020054e+00 -3.23210987e-05 
 1.37280000e-04  2.50075951e+00  9.72089554e-01  3.86782220e+00  3.88263789e+00  3.80987334e+00  3.80987334e+00 -3.23234135e-05 
 1.38280000e-04  2.50076358e+00  9.72093625e-01  3.86780612e+00  3.88270117e+00  3.80954852e+00  3.80954852e+00 -3.23257114e-05 
 1.39280000e-04  2.50076762e+00  9.72097665e-01  3.86779016e+00  3.88276398e+00  3.80922610e+00  3.80922610e+00 -3.23279924e-05 
 1.40280000e-04  2.50077163e+00  9.72101675e-01  3.86777432e+00  3.88282632e+00  3.80890610e+00  3.80890610e+00 -3.23302563e-05 
 1.41280000e-04  2.50077561e+00  9.72105654e-01  3.86775859e+00  3.88288819e+00  3.80858853e+00  3.80858853e+00 -3.23325030e-05 
 1.42280000e-04  2.50077957e+00  9.72109603e-01  3.86774299e+00  3.88294958e+00  3.80827339e+00  3.80827339e+00 -3.23347325e-05 
 1.43280000e-04  2.50078349e+00  9.72113521e-01  3.86772751e+00  3.88301049e+00  3.80796071e+00  3.80796071e+00 -3.23369446e-05 
 1.44280000e-04  2.50078737e+00  9.72117408e-01  3.86771216e+00  3.88307092e+00  3.80765050e+00  3.80765050e+00 -3.23391393e-05 
 1.45280000e-04  2.50079123e+00  9.72121264e-01  3.86769692e+00  3.88313086e+00  3.80734276e+00  3.80734276e+00 -3.23413165e-05 
 1.46280000e-04  2.50079506e+00  9.72125088e-01  3.86768181e+00  3.88319032e+00  3.80703751e+00  3.80703751e+00 -3.23434760e-05 
