 time            v(vin)          v(b3_collector) v(vout_drv)     v(vout_final)   i(vdd)         
 0.00000000e+00  2.50000000e+00  3.82990743e+00  2.50000000e+00  2.50000000e+00 -3.31711234e-05 
 5.00000000e-08  2.50000031e+00  3.82990743e+00  2.50000000e+00  2.50000000e+00 -3.31711235e-05 
 1.00000000e-07  2.50000063e+00  3.82990743e+00  2.50000000e+00  2.50000000e+00 -3.31711238e-05 
 2.00000000e-07  2.50000126e+00  3.82990742e+00  2.50000000e+00  2.50000000e+00 -3.31711247e-05 
 4.00000000e-07  2.50000251e+00  3.82990740e+00  2.49999997e+00  2.50000000e+00 -3.31711280e-05 
 8.00000000e-07  2.50000503e+00  3.82990704e+00  2.49999961e+00  2.49999998e+00 -3.31711394e-05 
 1.60000000e-06  2.50001005e+00  3.82990263e+00  2.49999520e+00  2.49999959e+00 -3.31711815e-05 
 3.20000000e-06  2.50002010e+00  3.82985761e+00  2.49995021e+00  2.49999191e+00 -3.31714341e-05 
 6.40000000e-06  2.50004020e+00  3.82951583e+00  2.49960878e+00  2.49988570e+00 -3.31733728e-05 
 1.14000000e-05  2.50007157e+00  3.82823690e+00  2.49833196e+00  2.49925877e+00 -3.31813546e-05 
 1.64000000e-05  2.50010286e+00  3.82624786e+00  2.49634740e+00  2.49794432e+00 -3.31946078e-05 
 2.14000000e-05  2.50013406e+00  3.82385383e+00  2.49395996e+00  2.49603292e+00 -3.32111514e-05 
 2.64000000e-05  2.50016512e+00  3.82123870e+00  2.49135297e+00  2.49372028e+00 -3.32295607e-05 
 3.14000000e-05  2.50019601e+00  3.81849555e+00  2.48861901e+00  2.49116255e+00 -3.32490651e-05 
 3.64000000e-05  2.50022672e+00  3.81568043e+00  2.48581382e+00  2.48845971e+00 -3.32691961e-05 
 4.14000000e-05  2.50025720e+00  3.81282868e+00  2.48297254e+00  2.48567442e+00 -3.32896595e-05 
 4.64000000e-05  2.50028743e+00  3.80996304e+00  2.48011780e+00  2.48284616e+00 -3.33102667e-05 
 5.14000000e-05  2.50031737e+00  3.80709857e+00  2.47726456e+00  2.48000029e+00 -3.33308945e-05 
 5.64000000e-05  2.50034700e+00  3.80424559e+00  2.47442311e+00  2.47715340e+00 -3.33514592e-05 
 6.14000000e-05  2.50037629e+00  3.80141152e+00  2.47160081e+00  2.47431680e+00 -3.33719017e-05 
 6.64000000e-05  2.50040521e+00  3.79860198e+00  2.46880327e+00  2.47149847e+00 -3.33921779e-05 
 7.14000000e-05  2.50043372e+00  3.79582149e+00  2.46603498e+00  2.46870440e+00 -3.34122531e-05 
 7.64000000e-05  2.50046181e+00  3.79307387e+00  2.46329974e+00  2.46593930e+00 -3.34320984e-05 
 8.14000000e-05  2.50048944e+00  3.79036251e+00  2.46060092e+00  2.46320713e+00 -3.34516886e-05 
 8.64000000e-05  2.50051659e+00  3.78769049e+00  2.45794161e+00  2.46051133e+00 -3.34710006e-05 
 9.14000000e-05  2.50054323e+00  3.78506073e+00  2.45532468e+00  2.45785504e+00 -3.34900133e-05 
 9.64000000e-05  2.50056934e+00  3.78247599e+00  2.45275290e+00  2.45524117e+00 -3.35087063e-05 
 1.01400000e-04  2.50059488e+00  3.77993895e+00  2.45022893e+00  2.45267251e+00 -3.35270601e-05 
 1.06400000e-04  2.50061983e+00  3.77745219e+00  2.44775534e+00  2.45015170e+00 -3.35450559e-05 
 1.11400000e-04  2.50064418e+00  3.77501822e+00  2.44533463e+00  2.44768135e+00 -3.35626755e-05 
 1.16400000e-04  2.50066788e+00  3.77263951e+00  2.44296924e+00  2.44526394e+00 -3.35799009e-05 
 1.21400000e-04  2.50069093e+00  3.77031844e+00  2.44066154e+00  2.44290192e+00 -3.35967148e-05 
 1.26400000e-04  2.50071330e+00  3.76805734e+00  2.43841386e+00  2.44059766e+00 -3.36131003e-05 
 1.31400000e-04  2.50073496e+00  3.76585846e+00  2.43622844e+00  2.43835347e+00 -3.36290409e-05 
 1.36400000e-04  2.50075590e+00  3.76372403e+00  2.43410746e+00  2.43617161e+00 -3.36445205e-05 
 1.41400000e-04  2.50077609e+00  3.76165616e+00  2.43205307e+00  2.43405425e+00 -3.36595236e-05 
 1.46400000e-04  2.50079552e+00  3.75965694e+00  2.43006730e+00  2.43200352e+00 -3.36740352e-05 
 1.51400000e-04  2.50081416e+00  3.75772836e+00  2.42815215e+00  2.43002147e+00 -3.36880406e-05 
 1.56400000e-04  2.50083199e+00  3.75587235e+00  2.42630954e+00  2.42811008e+00 -3.37015258e-05 
 1.61400000e-04  2.50084901e+00  3.75409078e+00  2.42454131e+00  2.42627128e+00 -3.37144772e-05 
 1.66400000e-04  2.50086519e+00  3.75238543e+00  2.42284923e+00  2.42450689e+00 -3.37268817e-05 
 1.71400000e-04  2.50088051e+00  3.75075801e+00  2.42123501e+00  2.42281869e+00 -3.37387269e-05 
 1.76400000e-04  2.50089497e+00  3.74921014e+00  2.41970025e+00  2.42120837e+00 -3.37500009e-05 
 1.81400000e-04  2.50090854e+00  3.74774339e+00  2.41824649e+00  2.41967755e+00 -3.37606923e-05 
 1.86400000e-04  2.50092121e+00  3.74635921e+00  2.41687520e+00  2.41822775e+00 -3.37707904e-05 
 1.91400000e-04  2.50093298e+00  3.74505900e+00  2.41558775e+00  2.41686044e+00 -3.37802850e-05 
 1.96400000e-04  2.50094382e+00  3.74384407e+00  2.41438542e+00  2.41557698e+00 -3.37891664e-05 
 2.01400000e-04  2.50095374e+00  3.74271562e+00  2.41326943e+00  2.41437865e+00 -3.37974259e-05 
 2.06400000e-04  2.50096271e+00  3.74167480e+00  2.41224089e+00  2.41326667e+00 -3.38050551e-05 
 2.11400000e-04  2.50097073e+00  3.74072264e+00  2.41130083e+00  2.41224214e+00 -3.38120462e-05 
 2.16400000e-04  2.50097780e+00  3.73986011e+00  2.41045021e+00  2.41130610e+00 -3.38183922e-05 
 2.21400000e-04  2.50098390e+00  3.73908806e+00  2.40968986e+00  2.41045948e+00 -3.38240868e-05 
 2.26400000e-04  2.50098903e+00  3.73840727e+00  2.40902056e+00  2.40970313e+00 -3.38291242e-05 
 2.31400000e-04  2.50099318e+00  3.73781843e+00  2.40844297e+00  2.40903781e+00 -3.38334994e-05 
 2.36400000e-04  2.50099635e+00  3.73732212e+00  2.40795768e+00  2.40846419e+00 -3.38372078e-05 
 2.41400000e-04  2.50099854e+00  3.73691885e+00  2.40756516e+00  2.40798284e+00 -3.38402459e-05 
 2.46400000e-04  2.50099974e+00  3.73660901e+00  2.40726583e+00  2.40759425e+00 -3.38426105e-05 
 2.51400000e-04  2.50099996e+00  3.73639291e+00  2.40705996e+00  2.40729880e+00 -3.38442992e-05 
 2.56400000e-04  2.50099919e+00  3.73627078e+00  2.40694778e+00  2.40709679e+00 -3.38453105e-05 
 2.61400000e-04  2.50099744e+00  3.73624274e+00  2.40692939e+00  2.40698843e+00 -3.38456432e-05 
 2.66400000e-04  2.50099470e+00  3.73630881e+00  2.40700481e+00  2.40697382e+00 -3.38452970e-05 
 2.71400000e-04  2.50099097e+00  3.73646892e+00  2.40717396e+00  2.40705297e+00 -3.38442723e-05 
 2.76400000e-04  2.50098627e+00  3.73672292e+00  2.40743667e+00  2.40722581e+00 -3.38425702e-05 
 2.81400000e-04  2.50098060e+00  3.73707055e+00  2.40779269e+00  2.40749216e+00 -3.38401923e-05 
 2.86400000e-04  2.50097396e+00  3.73751145e+00  2.40824164e+00  2.40785175e+00 -3.38371411e-05 
 2.91400000e-04  2.50096636e+00  3.73804519e+00  2.40878308e+00  2.40830422e+00 -3.38334197e-05 
 2.96400000e-04  2.50095780e+00  3.73867123e+00  2.40941646e+00  2.40884912e+00 -3.38290318e-05 
 3.01400000e-04  2.50094830e+00  3.73938894e+00  2.41014115e+00  2.40948589e+00 -3.38239818e-05 
 3.06400000e-04  2.50093786e+00  3.74019759e+00  2.41095642e+00  2.41021390e+00 -3.38182750e-05 
 3.11400000e-04  2.50092650e+00  3.74109638e+00  2.41186145e+00  2.41103242e+00 -3.38119170e-05 
 3.16400000e-04  2.50091423e+00  3.74208440e+00  2.41285533e+00  2.41194062e+00 -3.38049143e-05 
 3.21400000e-04  2.50090105e+00  3.74316066e+00  2.41393706e+00  2.41293759e+00 -3.37972739e-05 
 3.26400000e-04  2.50088698e+00  3.74432408e+00  2.41510556e+00  2.41402233e+00 -3.37890035e-05 
 3.31400000e-04  2.50087204e+00  3.74557349e+00  2.41635965e+00  2.41519375e+00 -3.37801116e-05 
 3.36400000e-04  2.50085623e+00  3.74690764e+00  2.41769807e+00  2.41645067e+00 -3.37706071e-05 
 3.41400000e-04  2.50083958e+00  3.74832518e+00  2.41911948e+00  2.41779184e+00 -3.37604995e-05 
 3.46400000e-04  2.50082210e+00  3.74982470e+00  2.42062246e+00  2.41921590e+00 -3.37497991e-05 
 3.51400000e-04  2.50080382e+00  3.75140469e+00  2.42220549e+00  2.42072143e+00 -3.37385166e-05 
 3.56400000e-04  2.50078473e+00  3.75306357e+00  2.42386699e+00  2.42230691e+00 -3.37266634e-05 
 3.61400000e-04  2.50076488e+00  3.75479966e+00  2.42560529e+00  2.42397076e+00 -3.37142515e-05 
 3.66400000e-04  2.50074426e+00  3.75661125e+00  2.42741865e+00  2.42571131e+00 -3.37012933e-05 
 3.71400000e-04  2.50072292e+00  3.75849649e+00  2.42930525e+00  2.42752682e+00 -3.36878020e-05 
 3.76400000e-04  2.50070086e+00  3.76045352e+00  2.43126320e+00  2.42941545e+00 -3.36737910e-05 
 3.81400000e-04  2.50067811e+00  3.76248036e+00  2.43329055e+00  2.43137533e+00 -3.36592745e-05 
 3.86400000e-04  2.50065469e+00  3.76457500e+00  2.43538525e+00  2.43340449e+00 -3.36442670e-05 
 3.91400000e-04  2.50063062e+00  3.76673532e+00  2.43754522e+00  2.43550089e+00 -3.36287837e-05 
 3.96400000e-04  2.50060593e+00  3.76895918e+00  2.43976829e+00  2.43766244e+00 -3.36128401e-05 
 4.01400000e-04  2.50058065e+00  3.77124434e+00  2.44205224e+00  2.43988698e+00 -3.35964522e-05 
 4.06400000e-04  2.50055479e+00  3.77358852e+00  2.44439479e+00  2.44217228e+00 -3.35796365e-05 
 4.11400000e-04  2.50052838e+00  3.77598937e+00  2.44679359e+00  2.44451605e+00 -3.35624097e-05 
 4.16400000e-04  2.50050145e+00  3.77844451e+00  2.44924624e+00  2.44691596e+00 -3.35447893e-05 
 4.21400000e-04  2.50047403e+00  3.78095147e+00  2.45175030e+00  2.44936960e+00 -3.35267929e-05 
 4.26400000e-04  2.50044614e+00  3.78350776e+00  2.45430327e+00  2.45187452e+00 -3.35084384e-05 
 4.31400000e-04  2.50041780e+00  3.78611082e+00  2.45690260e+00  2.45442823e+00 -3.34897442e-05 
 4.36400000e-04  2.50038906e+00  3.78875805e+00  2.45954569e+00  2.45702817e+00 -3.34707291e-05 
 4.41400000e-04  2.50035993e+00  3.79144682e+00  2.46222991e+00  2.45967175e+00 -3.34514121e-05 
 4.46400000e-04  2.50033045e+00  3.79417444e+00  2.46495258e+00  2.46235634e+00 -3.34318124e-05 
 4.51400000e-04  2.50030064e+00  3.79693821e+00  2.46771100e+00  2.46507925e+00 -3.34119497e-05 
 4.56400000e-04  2.50027053e+00  3.79973536e+00  2.47050242e+00  2.46783779e+00 -3.33918437e-05 
 4.61400000e-04  2.50024016e+00  3.80256312e+00  2.47332405e+00  2.47062919e+00 -3.33715146e-05 
 4.66400000e-04  2.50020955e+00  3.80541867e+00  2.47617310e+00  2.47345069e+00 -3.33509825e-05 
 4.71400000e-04  2.50017873e+00  3.80829918e+00  2.47904673e+00  2.47629948e+00 -3.33302678e-05 
 4.76400000e-04  2.50014774e+00  3.81120178e+00  2.48194208e+00  2.47917272e+00 -3.33093914e-05 
 4.81400000e-04  2.50011660e+00  3.81412358e+00  2.48485629e+00  2.48206756e+00 -3.32883738e-05 
 4.86400000e-04  2.50008535e+00  3.81706170e+00  2.48778645e+00  2.48498113e+00 -3.32672359e-05 
 4.91400000e-04  2.50005401e+00  3.82001322e+00  2.49072967e+00  2.48791053e+00 -3.32459988e-05 
 4.96400000e-04  2.50002262e+00  3.82297521e+00  2.49368302e+00  2.49085287e+00 -3.32246835e-05 
 5.01400000e-04  2.49999120e+00  3.82594473e+00  2.49664358e+00  2.49380522e+00 -3.32033112e-05 
 5.06400000e-04  2.49995980e+00  3.82891886e+00  2.49960842e+00  2.49676466e+00 -3.31819029e-05 
 5.11400000e-04  2.49992843e+00  3.83189464e+00  2.50257461e+00  2.49972826e+00 -3.31604800e-05 
 5.16400000e-04  2.49989714e+00  3.83486914e+00  2.50553922e+00  2.50269309e+00 -3.31390635e-05 
 5.21400000e-04  2.49986594e+00  3.83783941e+00  2.50849931e+00  2.50565622e+00 -3.31176747e-05 
 5.26400000e-04  2.49983488e+00  3.84080253e+00  2.51145196e+00  2.50861473e+00 -3.30963346e-05 
 5.31400000e-04  2.49980399e+00  3.84375558e+00  2.51439427e+00  2.51156568e+00 -3.30750643e-05 
 5.36400000e-04  2.49977328e+00  3.84669563e+00  2.51732333e+00  2.51450617e+00 -3.30538848e-05 
 5.41400000e-04  2.49974280e+00  3.84961980e+00  2.52023625e+00  2.51743331e+00 -3.30328168e-05 
 5.46400000e-04  2.49971257e+00  3.85252520e+00  2.52313017e+00  2.52034420e+00 -3.30118812e-05 
 5.51400000e-04  2.49968263e+00  3.85540898e+00  2.52600225e+00  2.52323599e+00 -3.29910984e-05 
 5.56400000e-04  2.49965300e+00  3.85826831e+00  2.52884965e+00  2.52610582e+00 -3.29704890e-05 
 5.61400000e-04  2.49962371e+00  3.86110037e+00  2.53166958e+00  2.52895088e+00 -3.29500730e-05 
 5.66400000e-04  2.49959479e+00  3.86390239e+00  2.53445928e+00  2.53176838e+00 -3.29298705e-05 
 5.71400000e-04  2.49956628e+00  3.86667162e+00  2.53721600e+00  2.53455554e+00 -3.29099013e-05 
 5.76400000e-04  2.49953819e+00  3.86940534e+00  2.53993705e+00  2.53730964e+00 -3.28901849e-05 
 5.81400000e-04  2.49951056e+00  3.87210088e+00  2.54261977e+00  2.54002798e+00 -3.28707405e-05 
 5.86400000e-04  2.49948341e+00  3.87475561e+00  2.54526152e+00  2.54270789e+00 -3.28515872e-05 
 5.91400000e-04  2.49945677e+00  3.87736691e+00  2.54785973e+00  2.54534675e+00 -3.28327436e-05 
 5.96400000e-04  2.49943066e+00  3.87993226e+00  2.55041185e+00  2.54794198e+00 -3.28142281e-05 
 6.01400000e-04  2.49940512e+00  3.88244913e+00  2.55291540e+00  2.55049105e+00 -3.27960587e-05 
 6.06400000e-04  2.49938017e+00  3.88491508e+00  2.55536793e+00  2.55299147e+00 -3.27782530e-05 
 6.11400000e-04  2.49935582e+00  3.88732769e+00  2.55776705e+00  2.55544080e+00 -3.27608283e-05 
 6.16400000e-04  2.49933212e+00  3.88968463e+00  2.56011043e+00  2.55783665e+00 -3.27438017e-05 
 6.21400000e-04  2.49930907e+00  3.89198360e+00  2.56239579e+00  2.56017669e+00 -3.27271895e-05 
 6.26400000e-04  2.49928670e+00  3.89422236e+00  2.56462090e+00  2.56245864e+00 -3.27110078e-05 
 6.31400000e-04  2.49926504e+00  3.89639874e+00  2.56678359e+00  2.56468029e+00 -3.26952724e-05 
 6.36400000e-04  2.49924410e+00  3.89851062e+00  2.56888178e+00  2.56683946e+00 -3.26799985e-05 
 6.41400000e-04  2.49922391e+00  3.90055595e+00  2.57091342e+00  2.56893408e+00 -3.26652007e-05 
 6.46400000e-04  2.49920448e+00  3.90253275e+00  2.57287654e+00  2.57096209e+00 -3.26508934e-05 
 6.51400000e-04  2.49918584e+00  3.90443910e+00  2.57476924e+00  2.57292154e+00 -3.26370904e-05 
 6.56400000e-04  2.49916801e+00  3.90627316e+00  2.57658969e+00  2.57481053e+00 -3.26238050e-05 
 6.61400000e-04  2.49915099e+00  3.90803316e+00  2.57833612e+00  2.57662722e+00 -3.26110500e-05 
 6.66400000e-04  2.49913481e+00  3.90971738e+00  2.58000685e+00  2.57836987e+00 -3.25988376e-05 
 6.71400000e-04  2.49911949e+00  3.91132420e+00  2.58160026e+00  2.58003678e+00 -3.25871796e-05 
 6.76400000e-04  2.49910503e+00  3.91285207e+00  2.58311481e+00  2.58162634e+00 -3.25760873e-05 
 6.81400000e-04  2.49909146e+00  3.91429952e+00  2.58454904e+00  2.58313701e+00 -3.25655712e-05 
 6.86400000e-04  2.49907879e+00  3.91566514e+00  2.58590156e+00  2.58456734e+00 -3.25556415e-05 
 6.91400000e-04  2.49906702e+00  3.91694762e+00  2.58717106e+00  2.58591595e+00 -3.25463076e-05 
 6.96400000e-04  2.49905618e+00  3.91814571e+00  2.58835634e+00  2.58718153e+00 -3.25375786e-05 
 7.01400000e-04  2.49904626e+00  3.91925828e+00  2.58945623e+00  2.58836287e+00 -3.25294628e-05 
 7.06400000e-04  2.49903729e+00  3.92028424e+00  2.59046969e+00  2.58945882e+00 -3.25219679e-05 
 7.11400000e-04  2.49902927e+00  3.92122261e+00  2.59139573e+00  2.59046833e+00 -3.25151012e-05 
 7.16400000e-04  2.49902220e+00  3.92207247e+00  2.59223347e+00  2.59139043e+00 -3.25088693e-05 
 7.21400000e-04  2.49901610e+00  3.92283303e+00  2.59298209e+00  2.59222423e+00 -3.25032780e-05 
 7.26400000e-04  2.49901097e+00  3.92350353e+00  2.59364088e+00  2.59296892e+00 -3.24983328e-05 
 7.31400000e-04  2.49900682e+00  3.92408334e+00  2.59420920e+00  2.59362380e+00 -3.24940383e-05 
 7.36400000e-04  2.49900365e+00  3.92457190e+00  2.59468651e+00  2.59418822e+00 -3.24903987e-05 
 7.41400000e-04  2.49900146e+00  3.92496873e+00  2.59507234e+00  2.59466165e+00 -3.24874175e-05 
 7.46400000e-04  2.49900026e+00  3.92527347e+00  2.59536633e+00  2.59504363e+00 -3.24850976e-05 
 7.51400000e-04  2.49900004e+00  3.92548580e+00  2.59556819e+00  2.59533379e+00 -3.24834410e-05 
 7.56400000e-04  2.49900081e+00  3.92560554e+00  2.59567773e+00  2.59553185e+00 -3.24824496e-05 
 7.61400000e-04  2.49900256e+00  3.92563255e+00  2.59569484e+00  2.59563763e+00 -3.24821241e-05 
 7.66400000e-04  2.49900530e+00  3.92556683e+00  2.59561950e+00  2.59565101e+00 -3.24824650e-05 
 7.71400000e-04  2.49900903e+00  3.92540841e+00  2.59545179e+00  2.59557199e+00 -3.24834718e-05 
 7.76400000e-04  2.49901373e+00  3.92515747e+00  2.59519186e+00  2.59540065e+00 -3.24851438e-05 
 7.81400000e-04  2.49901940e+00  3.92481424e+00  2.59483997e+00  2.59513713e+00 -3.24874792e-05 
 7.86400000e-04  2.49902604e+00  3.92437905e+00  2.59439646e+00  2.59478171e+00 -3.24904759e-05 
 7.91400000e-04  2.49903364e+00  3.92385231e+00  2.59386174e+00  2.59433471e+00 -3.24941310e-05 
 7.96400000e-04  2.49904220e+00  3.92323454e+00  2.59323633e+00  2.59379658e+00 -3.24984410e-05 
 8.01400000e-04  2.49905170e+00  3.92252631e+00  2.59252083e+00  2.59316781e+00 -3.25034019e-05 
 8.06400000e-04  2.49906214e+00  3.92172833e+00  2.59171593e+00  2.59244902e+00 -3.25090089e-05 
 8.11400000e-04  2.49907350e+00  3.92084134e+00  2.59082241e+00  2.59164090e+00 -3.25152567e-05 
 8.16400000e-04  2.49908577e+00  3.91986621e+00  2.58984111e+00  2.59074423e+00 -3.25221393e-05 
 8.21400000e-04  2.49909895e+00  3.91880387e+00  2.58877299e+00  2.58975986e+00 -3.25296501e-05 
 8.26400000e-04  2.49911302e+00  3.91765535e+00  2.58761908e+00  2.58868875e+00 -3.25377820e-05 
 8.31400000e-04  2.49912796e+00  3.91642174e+00  2.58638047e+00  2.58753192e+00 -3.25465272e-05 
 8.36400000e-04  2.49914377e+00  3.91510425e+00  2.58505838e+00  2.58629048e+00 -3.25558774e-05 
 8.41400000e-04  2.49916042e+00  3.91370413e+00  2.58365406e+00  2.58496564e+00 -3.25658235e-05 
 8.46400000e-04  2.49917790e+00  3.91222273e+00  2.58216888e+00  2.58355868e+00 -3.25763561e-05 
 8.51400000e-04  2.49919618e+00  3.91066150e+00  2.58060427e+00  2.58207093e+00 -3.25874650e-05 
 8.56400000e-04  2.49921527e+00  3.90902193e+00  2.57896173e+00  2.58050385e+00 -3.25991396e-05 
 8.61400000e-04  2.49923512e+00  3.90730560e+00  2.57724286e+00  2.57885895e+00 -3.26113688e-05 
 8.66400000e-04  2.49925574e+00  3.90551418e+00  2.57544931e+00  2.57713781e+00 -3.26241407e-05 
 8.71400000e-04  2.49927708e+00  3.90364940e+00  2.57358282e+00  2.57534210e+00 -3.26374430e-05 
 8.76400000e-04  2.49929914e+00  3.90171306e+00  2.57164520e+00  2.57347355e+00 -3.26512630e-05 
 8.81400000e-04  2.49932189e+00  3.89970704e+00  2.56963833e+00  2.57153397e+00 -3.26655874e-05 
 8.86400000e-04  2.49934531e+00  3.89763328e+00  2.56756413e+00  2.56952524e+00 -3.26804023e-05 
 8.91400000e-04  2.49936938e+00  3.89549379e+00  2.56542464e+00  2.56744931e+00 -3.26956935e-05 
 8.96400000e-04  2.49939407e+00  3.89329066e+00  2.56322192e+00  2.56530820e+00 -3.27114461e-05 
 9.01400000e-04  2.49941935e+00  3.89102601e+00  2.56095812e+00  2.56310397e+00 -3.27276449e-05 
 9.06400000e-04  2.49944521e+00  3.88870205e+00  2.55863542e+00  2.56083876e+00 -3.27442744e-05 
 9.11400000e-04  2.49947162e+00  3.88632103e+00  2.55625611e+00  2.55851479e+00 -3.27613183e-05 
 9.16400000e-04  2.49949855e+00  3.88388529e+00  2.55382248e+00  2.55613431e+00 -3.27787601e-05 
 9.21400000e-04  2.49952597e+00  3.88139719e+00  2.55133690e+00  2.55369964e+00 -3.27965829e-05 
 9.26400000e-04  2.49955386e+00  3.87885915e+00  2.54880181e+00  2.55121315e+00 -3.28147694e-05 
 9.31400000e-04  2.49958220e+00  3.87627365e+00  2.54621968e+00  2.54867726e+00 -3.28333020e-05 
 9.36400000e-04  2.49961094e+00  3.87364321e+00  2.54359302e+00  2.54609444e+00 -3.28521624e-05 
 9.41400000e-04  2.49964007e+00  3.87097041e+00  2.54092440e+00  2.54346723e+00 -3.28713325e-05 
 9.46400000e-04  2.49966955e+00  3.86825787e+00  2.53821644e+00  2.54079818e+00 -3.28907935e-05 
 9.51400000e-04  2.49969936e+00  3.86550822e+00  2.53547177e+00  2.53808991e+00 -3.29105263e-05 
 9.56400000e-04  2.49972947e+00  3.86272417e+00  2.53269310e+00  2.53534506e+00 -3.29305117e-05 
 9.61400000e-04  2.49975984e+00  3.85990845e+00  2.52988314e+00  2.53256633e+00 -3.29507302e-05 
 9.66400000e-04  2.49979045e+00  3.85706381e+00  2.52704465e+00  2.52975644e+00 -3.29711620e-05 
 9.71400000e-04  2.49982127e+00  3.85419305e+00  2.52418041e+00  2.52691814e+00 -3.29917869e-05 
 9.76400000e-04  2.49985226e+00  3.85129899e+00  2.52129324e+00  2.52405423e+00 -3.30125849e-05 
 9.81400000e-04  2.49988340e+00  3.84838448e+00  2.51838598e+00  2.52116750e+00 -3.30335354e-05 
 9.86400000e-04  2.49991465e+00  3.84545238e+00  2.51546149e+00  2.51826081e+00 -3.30546179e-05 
