 time            v(vin)          v(b1_base)      v(b1_collector) v(b2_collector) v(b3_collector) v(vout_final)   i(vdd)         
 0.00000000e+00  2.50000000e+00  9.71330183e-01  3.87082080e+00  3.87082080e+00  3.87035911e+00  3.87035911e+00 -3.18957546e-05 
 1.00000000e-08  2.50000006e+00  9.71330246e-01  3.87082064e+00  3.87082126e+00  3.87035909e+00  3.87035909e+00 -3.18957522e-05 
 2.00000000e-08  2.50000013e+00  9.71330309e-01  3.87082043e+00  3.87082199e+00  3.87035904e+00  3.87035904e+00 -3.18957481e-05 
 4.00000000e-08  2.50000025e+00  9.71330434e-01  3.87081997e+00  3.87082371e+00  3.87035887e+00  3.87035887e+00 -3.18957386e-05 
 8.00000000e-08  2.50000050e+00  9.71330686e-01  3.87081898e+00  3.87082763e+00  3.87035807e+00  3.87035807e+00 -3.18957199e-05 
 1.60000000e-07  2.50000101e+00  9.71331188e-01  3.87081700e+00  3.87083542e+00  3.87035462e+00  3.87035462e+00 -3.18956984e-05 
 3.20000000e-07  2.50000201e+00  9.71332194e-01  3.87081302e+00  3.87085107e+00  3.87034088e+00  3.87034088e+00 -3.18957116e-05 
 6.40000000e-07  2.50000402e+00  9.71334204e-01  3.87080509e+00  3.87088232e+00  3.87029011e+00  3.87029011e+00 -3.18959328e-05 
 1.28000000e-06  2.50000804e+00  9.71338225e-01  3.87078921e+00  3.87094490e+00  3.87011983e+00  3.87011983e+00 -3.18969472e-05 
 2.28000000e-06  2.50001433e+00  9.71344508e-01  3.87076441e+00  3.87104270e+00  3.86974137e+00  3.86974137e+00 -3.18994687e-05 
 3.28000000e-06  2.50002061e+00  9.71350790e-01  3.87073961e+00  3.87114056e+00  3.86929184e+00  3.86929184e+00 -3.19025820e-05 
 4.28000000e-06  2.50002689e+00  9.71357072e-01  3.87071482e+00  3.87123839e+00  3.86881296e+00  3.86881296e+00 -3.19059399e-05 
 5.28000000e-06  2.50003317e+00  9.71363352e-01  3.87069002e+00  3.87133623e+00  3.86832200e+00  3.86832200e+00 -3.19093985e-05 
 6.28000000e-06  2.50003945e+00  9.71369631e-01  3.87066524e+00  3.87143403e+00  3.86782611e+00  3.86782611e+00 -3.19128985e-05 
 7.28000000e-06  2.50004573e+00  9.71375908e-01  3.87064046e+00  3.87153183e+00  3.86732822e+00  3.86732822e+00 -3.19164150e-05 
 8.28000000e-06  2.50005200e+00  9.71382184e-01  3.87061568e+00  3.87162957e+00  3.86682959e+00  3.86682959e+00 -3.19199382e-05 
 9.28000000e-06  2.50005827e+00  9.71388457e-01  3.87059092e+00  3.87172730e+00  3.86633072e+00  3.86633072e+00 -3.19234633e-05 
 1.02800000e-05  2.50006455e+00  9.71394728e-01  3.87056616e+00  3.87182497e+00  3.86583186e+00  3.86583186e+00 -3.19269889e-05 
 1.12800000e-05  2.50007082e+00  9.71400997e-01  3.87054141e+00  3.87192263e+00  3.86533310e+00  3.86533310e+00 -3.19305137e-05 
 1.22800000e-05  2.50007708e+00  9.71407263e-01  3.87051668e+00  3.87202021e+00  3.86483449e+00  3.86483449e+00 -3.19340377e-05 
 1.32800000e-05  2.50008334e+00  9.71413525e-01  3.87049195e+00  3.87211777e+00  3.86433608e+00  3.86433608e+00 -3.19375602e-05 
 1.42800000e-05  2.50008960e+00  9.71419785e-01  3.87046724e+00  3.87221526e+00  3.86383789e+00  3.86383789e+00 -3.19410814e-05 
 1.52800000e-05  2.50009586e+00  9.71426041e-01  3.87044254e+00  3.87231271e+00  3.86333994e+00  3.86333994e+00 -3.19446008e-05 
 1.62800000e-05  2.50010211e+00  9.71432293e-01  3.87041786e+00  3.87241007e+00  3.86284225e+00  3.86284225e+00 -3.19481186e-05 
 1.72800000e-05  2.50010836e+00  9.71438541e-01  3.87039319e+00  3.87250740e+00  3.86234484e+00  3.86234484e+00 -3.19516343e-05 
 1.82800000e-05  2.50011460e+00  9.71444785e-01  3.87036855e+00  3.87260463e+00  3.86184773e+00  3.86184773e+00 -3.19551481e-05 
 1.92800000e-05  2.50012084e+00  9.71451024e-01  3.87034391e+00  3.87270181e+00  3.86135094e+00  3.86135094e+00 -3.19586596e-05 
 2.02800000e-05  2.50012708e+00  9.71457258e-01  3.87031930e+00  3.87279890e+00  3.86085450e+00  3.86085450e+00 -3.19621688e-05 
 2.12800000e-05  2.50013331e+00  9.71463488e-01  3.87029471e+00  3.87289592e+00  3.86035841e+00  3.86035841e+00 -3.19656754e-05 
 2.22800000e-05  2.50013953e+00  9.71469712e-01  3.87027013e+00  3.87299285e+00  3.85986270e+00  3.85986270e+00 -3.19691796e-05 
 2.32800000e-05  2.50014575e+00  9.71475930e-01  3.87024558e+00  3.87308970e+00  3.85936740e+00  3.85936740e+00 -3.19726808e-05 
 2.42800000e-05  2.50015196e+00  9.71482143e-01  3.87022105e+00  3.87318644e+00  3.85887251e+00  3.85887251e+00 -3.19761793e-05 
 2.52800000e-05  2.50015817e+00  9.71488350e-01  3.87019655e+00  3.87328311e+00  3.85837806e+00  3.85837806e+00 -3.19796746e-05 
 2.62800000e-05  2.50016437e+00  9.71494550e-01  3.87017207e+00  3.87337966e+00  3.85788408e+00  3.85788408e+00 -3.19831669e-05 
 2.72800000e-05  2.50017057e+00  9.71500744e-01  3.87014761e+00  3.87347612e+00  3.85739056e+00  3.85739056e+00 -3.19866557e-05 
 2.82800000e-05  2.50017675e+00  9.71506932e-01  3.87012319e+00  3.87357247e+00  3.85689755e+00  3.85689755e+00 -3.19901412e-05 
 2.92800000e-05  2.50018294e+00  9.71513112e-01  3.87009878e+00  3.87366871e+00  3.85640505e+00  3.85640505e+00 -3.19936231e-05 
 3.02800000e-05  2.50018911e+00  9.71519285e-01  3.87007441e+00  3.87376483e+00  3.85591309e+00  3.85591309e+00 -3.19971012e-05 
 3.12800000e-05  2.50019528e+00  9.71525451e-01  3.87005007e+00  3.87386084e+00  3.85542169e+00  3.85542169e+00 -3.20005754e-05 
 3.22800000e-05  2.50020143e+00  9.71531608e-01  3.87002576e+00  3.87395672e+00  3.85493086e+00  3.85493086e+00 -3.20040457e-05 
 3.32800000e-05  2.50020758e+00  9.71537758e-01  3.87000147e+00  3.87405248e+00  3.85444063e+00  3.85444063e+00 -3.20075118e-05 
 3.42800000e-05  2.50021373e+00  9.71543900e-01  3.86997723e+00  3.87414811e+00  3.85395101e+00  3.85395101e+00 -3.20109737e-05 
 3.52800000e-05  2.50021986e+00  9.71550033e-01  3.86995301e+00  3.87424361e+00  3.85346202e+00  3.85346202e+00 -3.20144311e-05 
 3.62800000e-05  2.50022598e+00  9.71556158e-01  3.86992883e+00  3.87433896e+00  3.85297369e+00  3.85297369e+00 -3.20178839e-05 
 3.72800000e-05  2.50023210e+00  9.71562273e-01  3.86990468e+00  3.87443419e+00  3.85248604e+00  3.85248604e+00 -3.20213321e-05 
 3.82800000e-05  2.50023821e+00  9.71568380e-01  3.86988057e+00  3.87452926e+00  3.85199907e+00  3.85199907e+00 -3.20247754e-05 
 3.92800000e-05  2.50024431e+00  9.71574477e-01  3.86985650e+00  3.87462419e+00  3.85151281e+00  3.85151281e+00 -3.20282138e-05 
 4.02800000e-05  2.50025039e+00  9.71580564e-01  3.86983246e+00  3.87471896e+00  3.85102729e+00  3.85102729e+00 -3.20316471e-05 
 4.12800000e-05  2.50025647e+00  9.71586641e-01  3.86980846e+00  3.87481358e+00  3.85054252e+00  3.85054252e+00 -3.20350751e-05 
 4.22800000e-05  2.50026254e+00  9.71592709e-01  3.86978451e+00  3.87490803e+00  3.85005851e+00  3.85005851e+00 -3.20384978e-05 
 4.32800000e-05  2.50026860e+00  9.71598766e-01  3.86976059e+00  3.87500233e+00  3.84957529e+00  3.84957529e+00 -3.20419149e-05 
 4.42800000e-05  2.50027464e+00  9.71604812e-01  3.86973672e+00  3.87509646e+00  3.84909288e+00  3.84909288e+00 -3.20453264e-05 
 4.52800000e-05  2.50028068e+00  9.71610847e-01  3.86971289e+00  3.87519042e+00  3.84861130e+00  3.84861130e+00 -3.20487321e-05 
 4.62800000e-05  2.50028671e+00  9.71616872e-01  3.86968910e+00  3.87528420e+00  3.84813057e+00  3.84813057e+00 -3.20521319e-05 
 4.72800000e-05  2.50029272e+00  9.71622885e-01  3.86966536e+00  3.87537781e+00  3.84765069e+00  3.84765069e+00 -3.20555256e-05 
 4.82800000e-05  2.50029872e+00  9.71628886e-01  3.86964166e+00  3.87547123e+00  3.84717171e+00  3.84717171e+00 -3.20589132e-05 
 4.92800000e-05  2.50030471e+00  9.71634876e-01  3.86961801e+00  3.87556447e+00  3.84669362e+00  3.84669362e+00 -3.20622944e-05 
 5.02800000e-05  2.50031069e+00  9.71640853e-01  3.86959440e+00  3.87565752e+00  3.84621646e+00  3.84621646e+00 -3.20656692e-05 
 5.12800000e-05  2.50031666e+00  9.71646819e-01  3.86957085e+00  3.87575038e+00  3.84574024e+00  3.84574024e+00 -3.20690374e-05 
 5.22800000e-05  2.50032261e+00  9.71652771e-01  3.86954734e+00  3.87584304e+00  3.84526498e+00  3.84526498e+00 -3.20723989e-05 
 5.32800000e-05  2.50032855e+00  9.71658711e-01  3.86952389e+00  3.87593551e+00  3.84479069e+00  3.84479069e+00 -3.20757535e-05 
 5.42800000e-05  2.50033448e+00  9.71664639e-01  3.86950048e+00  3.87602776e+00  3.84431741e+00  3.84431741e+00 -3.20791011e-05 
 5.52800000e-05  2.50034039e+00  9.71670552e-01  3.86947713e+00  3.87611981e+00  3.84384514e+00  3.84384514e+00 -3.20824416e-05 
 5.62800000e-05  2.50034629e+00  9.71676453e-01  3.86945383e+00  3.87621165e+00  3.84337390e+00  3.84337390e+00 -3.20857748e-05 
 5.72800000e-05  2.50035218e+00  9.71682339e-01  3.86943058e+00  3.87630328e+00  3.84290372e+00  3.84290372e+00 -3.20891006e-05 
 5.82800000e-05  2.50035806e+00  9.71688212e-01  3.86940739e+00  3.87639468e+00  3.84243462e+00  3.84243462e+00 -3.20924190e-05 
 5.92800000e-05  2.50036391e+00  9.71694071e-01  3.86938426e+00  3.87648587e+00  3.84196660e+00  3.84196660e+00 -3.20957296e-05 
 6.02800000e-05  2.50036976e+00  9.71699915e-01  3.86936118e+00  3.87657683e+00  3.84149969e+00  3.84149969e+00 -3.20990325e-05 
 6.12800000e-05  2.50037559e+00  9.71705745e-01  3.86933816e+00  3.87666756e+00  3.84103391e+00  3.84103391e+00 -3.21023274e-05 
 6.22800000e-05  2.50038141e+00  9.71711559e-01  3.86931520e+00  3.87675806e+00  3.84056928e+00  3.84056928e+00 -3.21056143e-05 
 6.32800000e-05  2.50038721e+00  9.71717359e-01  3.86929229e+00  3.87684833e+00  3.84010582e+00  3.84010582e+00 -3.21088930e-05 
 6.42800000e-05  2.50039299e+00  9.71723144e-01  3.86926945e+00  3.87693835e+00  3.83964354e+00  3.83964354e+00 -3.21121634e-05 
 6.52800000e-05  2.50039876e+00  9.71728912e-01  3.86924667e+00  3.87702813e+00  3.83918246e+00  3.83918246e+00 -3.21154254e-05 
 6.62800000e-05  2.50040452e+00  9.71734666e-01  3.86922395e+00  3.87711766e+00  3.83872260e+00  3.83872260e+00 -3.21186788e-05 
 6.72800000e-05  2.50041025e+00  9.71740403e-01  3.86920129e+00  3.87720695e+00  3.83826398e+00  3.83826398e+00 -3.21219235e-05 
 6.82800000e-05  2.50041598e+00  9.71746124e-01  3.86917870e+00  3.87729598e+00  3.83780661e+00  3.83780661e+00 -3.21251593e-05 
 6.92800000e-05  2.50042168e+00  9.71751828e-01  3.86915617e+00  3.87738475e+00  3.83735052e+00  3.83735052e+00 -3.21283862e-05 
 7.02800000e-05  2.50042737e+00  9.71757516e-01  3.86913371e+00  3.87747326e+00  3.83689573e+00  3.83689573e+00 -3.21316040e-05 
 7.12800000e-05  2.50043304e+00  9.71763187e-01  3.86911131e+00  3.87756151e+00  3.83644224e+00  3.83644224e+00 -3.21348126e-05 
 7.22800000e-05  2.50043870e+00  9.71768841e-01  3.86908899e+00  3.87764949e+00  3.83599009e+00  3.83599009e+00 -3.21380119e-05 
 7.32800000e-05  2.50044433e+00  9.71774477e-01  3.86906673e+00  3.87773720e+00  3.83553928e+00  3.83553928e+00 -3.21412016e-05 
 7.42800000e-05  2.50044996e+00  9.71780096e-01  3.86904454e+00  3.87782464e+00  3.83508984e+00  3.83508984e+00 -3.21443818e-05 
 7.52800000e-05  2.50045556e+00  9.71785697e-01  3.86902241e+00  3.87791180e+00  3.83464178e+00  3.83464178e+00 -3.21475522e-05 
 7.62800000e-05  2.50046114e+00  9.71791281e-01  3.86900037e+00  3.87799867e+00  3.83419513e+00  3.83419513e+00 -3.21507128e-05 
 7.72800000e-05  2.50046671e+00  9.71796846e-01  3.86897839e+00  3.87808526e+00  3.83374989e+00  3.83374989e+00 -3.21538634e-05 
 7.82800000e-05  2.50047226e+00  9.71802392e-01  3.86895648e+00  3.87817156e+00  3.83330609e+00  3.83330609e+00 -3.21570039e-05 
 7.92800000e-05  2.50047778e+00  9.71807920e-01  3.86893465e+00  3.87825758e+00  3.83286374e+00  3.83286374e+00 -3.21601342e-05 
 8.02800000e-05  2.50048329e+00  9.71813429e-01  3.86891289e+00  3.87834329e+00  3.83242287e+00  3.83242287e+00 -3.21632541e-05 
 8.12800000e-05  2.50048879e+00  9.71818919e-01  3.86889121e+00  3.87842871e+00  3.83198348e+00  3.83198348e+00 -3.21663636e-05 
 8.22800000e-05  2.50049426e+00  9.71824390e-01  3.86886961e+00  3.87851383e+00  3.83154560e+00  3.83154560e+00 -3.21694624e-05 
 8.32800000e-05  2.50049971e+00  9.71829841e-01  3.86884808e+00  3.87859864e+00  3.83110925e+00  3.83110925e+00 -3.21725505e-05 
 8.42800000e-05  2.50050514e+00  9.71835272e-01  3.86882663e+00  3.87868314e+00  3.83067443e+00  3.83067443e+00 -3.21756278e-05 
 8.52800000e-05  2.50051055e+00  9.71840683e-01  3.86880525e+00  3.87876733e+00  3.83024118e+00  3.83024118e+00 -3.21786940e-05 
 8.62800000e-05  2.50051595e+00  9.71846074e-01  3.86878396e+00  3.87885121e+00  3.82980951e+00  3.82980951e+00 -3.21817492e-05 
 8.72800000e-05  2.50052132e+00  9.71851445e-01  3.86876275e+00  3.87893477e+00  3.82937942e+00  3.82937942e+00 -3.21847932e-05 
 8.82800000e-05  2.50052667e+00  9.71856795e-01  3.86874162e+00  3.87901800e+00  3.82895095e+00  3.82895095e+00 -3.21878258e-05 
 8.92800000e-05  2.50053200e+00  9.71862125e-01  3.86872057e+00  3.87910091e+00  3.82852410e+00  3.82852410e+00 -3.21908470e-05 
 9.02800000e-05  2.50053731e+00  9.71867433e-01  3.86869960e+00  3.87918350e+00  3.82809890e+00  3.82809890e+00 -3.21938566e-05 
 9.12800000e-05  2.50054260e+00  9.71872720e-01  3.86867872e+00  3.87926575e+00  3.82767536e+00  3.82767536e+00 -3.21968545e-05 
 9.22800000e-05  2.50054787e+00  9.71877986e-01  3.86865792e+00  3.87934767e+00  3.82725350e+00  3.82725350e+00 -3.21998405e-05 
 9.32800000e-05  2.50055311e+00  9.71883230e-01  3.86863721e+00  3.87942925e+00  3.82683334e+00  3.82683334e+00 -3.22028146e-05 
 9.42800000e-05  2.50055834e+00  9.71888453e-01  3.86861658e+00  3.87951048e+00  3.82641489e+00  3.82641489e+00 -3.22057767e-05 
 9.52800000e-05  2.50056354e+00  9.71893653e-01  3.86859604e+00  3.87959138e+00  3.82599816e+00  3.82599816e+00 -3.22087266e-05 
 9.62800000e-05  2.50056872e+00  9.71898831e-01  3.86857559e+00  3.87967192e+00  3.82558318e+00  3.82558318e+00 -3.22116642e-05 
 9.72800000e-05  2.50057387e+00  9.71903986e-01  3.86855523e+00  3.87975212e+00  3.82516997e+00  3.82516997e+00 -3.22145893e-05 
 9.82800000e-05  2.50057901e+00  9.71909119e-01  3.86853496e+00  3.87983196e+00  3.82475853e+00  3.82475853e+00 -3.22175020e-05 
 9.92800000e-05  2.50058412e+00  9.71914229e-01  3.86851477e+00  3.87991145e+00  3.82434889e+00  3.82434889e+00 -3.22204020e-05 
 1.00280000e-04  2.50058921e+00  9.71919316e-01  3.86849468e+00  3.87999057e+00  3.82394106e+00  3.82394106e+00 -3.22232892e-05 
 1.01280000e-04  2.50059427e+00  9.71924379e-01  3.86847468e+00  3.88006934e+00  3.82353505e+00  3.82353505e+00 -3.22261636e-05 
 1.02280000e-04  2.50059931e+00  9.71929419e-01  3.86845477e+00  3.88014773e+00  3.82313089e+00  3.82313089e+00 -3.22290249e-05 
 1.03280000e-04  2.50060433e+00  9.71934436e-01  3.86843496e+00  3.88022576e+00  3.82272859e+00  3.82272859e+00 -3.22318732e-05 
 1.04280000e-04  2.50060933e+00  9.71939428e-01  3.86841524e+00  3.88030341e+00  3.82232816e+00  3.82232816e+00 -3.22347082e-05 
 1.05280000e-04  2.50061430e+00  9.71944397e-01  3.86839561e+00  3.88038069e+00  3.82192963e+00  3.82192963e+00 -3.22375299e-05 
 1.06280000e-04  2.50061924e+00  9.71949341e-01  3.86837608e+00  3.88045759e+00  3.82153301e+00  3.82153301e+00 -3.22403381e-05 
 1.07280000e-04  2.50062416e+00  9.71954261e-01  3.86835665e+00  3.88053411e+00  3.82113830e+00  3.82113830e+00 -3.22431328e-05 
 1.08280000e-04  2.50062906e+00  9.71959156e-01  3.86833731e+00  3.88061025e+00  3.82074554e+00  3.82074554e+00 -3.22459138e-05 
 1.09280000e-04  2.50063393e+00  9.71964026e-01  3.86831808e+00  3.88068600e+00  3.82035473e+00  3.82035473e+00 -3.22486810e-05 
 1.10280000e-04  2.50063878e+00  9.71968872e-01  3.86829894e+00  3.88076135e+00  3.81996590e+00  3.81996590e+00 -3.22514344e-05 
 1.11280000e-04  2.50064360e+00  9.71973692e-01  3.86827990e+00  3.88083632e+00  3.81957904e+00  3.81957904e+00 -3.22541737e-05 
 1.12280000e-04  2.50064840e+00  9.71978486e-01  3.86826096e+00  3.88091088e+00  3.81919419e+00  3.81919419e+00 -3.22568989e-05 
 1.13280000e-04  2.50065317e+00  9.71983255e-01  3.86824212e+00  3.88098505e+00  3.81881136e+00  3.81881136e+00 -3.22596099e-05 
 1.14280000e-04  2.50065791e+00  9.71987998e-01  3.86822338e+00  3.88105882e+00  3.81843056e+00  3.81843056e+00 -3.22623066e-05 
 1.15280000e-04  2.50066263e+00  9.71992716e-01  3.86820475e+00  3.88113218e+00  3.81805181e+00  3.81805181e+00 -3.22649888e-05 
 1.16280000e-04  2.50066732e+00  9.71997407e-01  3.86818622e+00  3.88120513e+00  3.81767511e+00  3.81767511e+00 -3.22676565e-05 
 1.17280000e-04  2.50067199e+00  9.72002071e-01  3.86816779e+00  3.88127767e+00  3.81730050e+00  3.81730050e+00 -3.22703095e-05 
 1.18280000e-04  2.50067663e+00  9.72006710e-01  3.86814947e+00  3.88134980e+00  3.81692798e+00  3.81692798e+00 -3.22729477e-05 
 1.19280000e-04  2.50068124e+00  9.72011321e-01  3.86813126e+00  3.88142151e+00  3.81655756e+00  3.81655756e+00 -3.22755711e-05 
 1.20280000e-04  2.50068583e+00  9.72015905e-01  3.86811315e+00  3.88149280e+00  3.81618927e+00  3.81618927e+00 -3.22781796e-05 
 1.21280000e-04  2.50069039e+00  9.72020463e-01  3.86809514e+00  3.88156367e+00  3.81582311e+00  3.81582311e+00 -3.22807729e-05 
 1.22280000e-04  2.50069492e+00  9.72024993e-01  3.86807725e+00  3.88163412e+00  3.81545911e+00  3.81545911e+00 -3.22833511e-05 
 1.23280000e-04  2.50069942e+00  9.72029496e-01  3.86805946e+00  3.88170414e+00  3.81509727e+00  3.81509727e+00 -3.22859140e-05 
 1.24280000e-04  2.50070390e+00  9.72033971e-01  3.86804178e+00  3.88177372e+00  3.81473761e+00  3.81473761e+00 -3.22884615e-05 
 1.25280000e-04  2.50070835e+00  9.72038418e-01  3.86802421e+00  3.88184288e+00  3.81438015e+00  3.81438015e+00 -3.22909935e-05 
 1.26280000e-04  2.50071277e+00  9.72042837e-01  3.86800676e+00  3.88191159e+00  3.81402489e+00  3.81402489e+00 -3.22935099e-05 
 1.27280000e-04  2.50071716e+00  9.72047229e-01  3.86798941e+00  3.88197987e+00  3.81367186e+00  3.81367186e+00 -3.22960106e-05 
 1.28280000e-04  2.50072153e+00  9.72051591e-01  3.86797217e+00  3.88204771e+00  3.81332107e+00  3.81332107e+00 -3.22984956e-05 
 1.29280000e-04  2.50072586e+00  9.72055926e-01  3.86795505e+00  3.88211511e+00  3.81297252e+00  3.81297252e+00 -3.23009646e-05 
 1.30280000e-04  2.50073017e+00  9.72060231e-01  3.86793804e+00  3.88218205e+00  3.81262625e+00  3.81262625e+00 -3.23034177e-05 
 1.31280000e-04  2.50073445e+00  9.72064508e-01  3.86792115e+00  3.88224855e+00  3.81228225e+00  3.81228225e+00 -3.23058547e-05 
 1.32280000e-04  2.50073870e+00  9.72068756e-01  3.86790436e+00  3.88231460e+00  3.81194054e+00  3.81194054e+00 -3.23082755e-05 
 1.33280000e-04  2.50074292e+00  9.72072975e-01  3.86788770e+00  3.88238019e+00  3.81160114e+00  3.81160114e+00 -3.23106800e-05 
 1.34280000e-04  2.50074711e+00  9.72077164e-01  3.86787115e+00  3.88244533e+00  3.81126406e+00  3.81126406e+00 -3.23130681e-05 
 1.35280000e-04  2.50075127e+00  9.72081324e-01  3.86785471e+00  3.88251000e+00  3.81092932e+00  3.81092932e+00 -3.23154398e-05 
 1.36280000e-04  2.50075541e+00  9.72085454e-01  3.86783840e+00  3.88257422e+00  3.81059692e+00  3.81059692e+00 -3.23177949e-05 
 1.37280000e-04  2.50075951e+00  9.72089554e-01  3.86782220e+00  3.88263796e+00  3.81026688e+00  3.81026688e+00 -3.23201333e-05 
 1.38280000e-04  2.50076358e+00  9.72093625e-01  3.86780612e+00  3.88270125e+00  3.80993921e+00  3.80993921e+00 -3.23224550e-05 
 1.39280000e-04  2.50076762e+00  9.72097665e-01  3.86779016e+00  3.88276406e+00  3.80961393e+00  3.80961393e+00 -3.23247598e-05 
 1.40280000e-04  2.50077163e+00  9.72101675e-01  3.86777432e+00  3.88282640e+00  3.80929105e+00  3.80929105e+00 -3.23270477e-05 
 1.41280000e-04  2.50077561e+00  9.72105654e-01  3.86775859e+00  3.88288826e+00  3.80897058e+00  3.80897058e+00 -3.23293185e-05 
 1.42280000e-04  2.50077957e+00  9.72109603e-01  3.86774299e+00  3.88294965e+00  3.80865254e+00  3.80865254e+00 -3.23315722e-05 
 1.43280000e-04  2.50078349e+00  9.72113521e-01  3.86772751e+00  3.88301056e+00  3.80833694e+00  3.80833694e+00 -3.23338088e-05 
 1.44280000e-04  2.50078737e+00  9.72117408e-01  3.86771216e+00  3.88307099e+00  3.80802378e+00  3.80802378e+00 -3.23360280e-05 
 1.45280000e-04  2.50079123e+00  9.72121264e-01  3.86769692e+00  3.88313094e+00  3.80771309e+00  3.80771309e+00 -3.23382298e-05 
 1.46280000e-04  2.50079506e+00  9.72125088e-01  3.86768181e+00  3.88319039e+00  3.80740487e+00  3.80740487e+00 -3.23404141e-05 
