 time            v(vin)          v(b3_collector) v(vout_final)   i(vdd)         
 0.00000000e+00  2.50000000e+00  3.82990743e+00  2.50000000e+00 -3.31711234e-05 
 5.00000000e-08  2.50000031e+00  3.82990743e+00  2.50000000e+00 -3.31711235e-05 
 1.00000000e-07  2.50000063e+00  3.82990743e+00  2.50000000e+00 -3.31711238e-05 
 2.00000000e-07  2.50000126e+00  3.82990743e+00  2.50000000e+00 -3.31711246e-05 
 4.00000000e-07  2.50000251e+00  3.82990740e+00  2.49999997e+00 -3.31711279e-05 
 8.00000000e-07  2.50000503e+00  3.82990712e+00  2.49999969e+00 -3.31711388e-05 
 1.60000000e-06  2.50001005e+00  3.82990342e+00  2.49999600e+00 -3.31711748e-05 
 3.20000000e-06  2.50002010e+00  3.82986252e+00  2.49995516e+00 -3.31713927e-05 
 6.40000000e-06  2.50004020e+00  3.82951850e+00  2.49961166e+00 -3.31733503e-05 
 1.14000000e-05  2.50007157e+00  3.82811894e+00  2.49821431e+00 -3.31823497e-05 
 1.64000000e-05  2.50010286e+00  3.82585048e+00  2.49594962e+00 -3.31979599e-05 
 2.14000000e-05  2.50013406e+00  3.82312646e+00  2.49323039e+00 -3.32172872e-05 
 2.64000000e-05  2.50016512e+00  3.82023810e+00  2.49034748e+00 -3.32380015e-05 
 3.14000000e-05  2.50019601e+00  3.81730516e+00  2.48742047e+00 -3.32591070e-05 
 3.64000000e-05  2.50022672e+00  3.81436856e+00  2.48449025e+00 -3.32802631e-05 
 4.14000000e-05  2.50025720e+00  3.81144293e+00  2.48157142e+00 -3.33013499e-05 
 4.64000000e-05  2.50028743e+00  3.80853476e+00  2.47867043e+00 -3.33223164e-05 
 5.14000000e-05  2.50031737e+00  3.80564801e+00  2.47579126e+00 -3.33431325e-05 
 5.64000000e-05  2.50034700e+00  3.80278587e+00  2.47293709e+00 -3.33637748e-05 
 6.14000000e-05  2.50037629e+00  3.79995129e+00  2.47011086e+00 -3.33842218e-05 
 6.64000000e-05  2.50040521e+00  3.79714713e+00  2.46731541e+00 -3.34044530e-05 
 7.14000000e-05  2.50043372e+00  3.79437618e+00  2.46455352e+00 -3.34244481e-05 
 7.64000000e-05  2.50046181e+00  3.79164119e+00  2.46182796e+00 -3.34441871e-05 
 8.14000000e-05  2.50048944e+00  3.78894491e+00  2.45914144e+00 -3.34636503e-05 
 8.64000000e-05  2.50051659e+00  3.78629000e+00  2.45649663e+00 -3.34828183e-05 
 9.14000000e-05  2.50054323e+00  3.78367913e+00  2.45389617e+00 -3.35016719e-05 
 9.64000000e-05  2.50056934e+00  3.78111489e+00  2.45134265e+00 -3.35201922e-05 
 1.01400000e-04  2.50059488e+00  3.77859984e+00  2.44883862e+00 -3.35383607e-05 
 1.06400000e-04  2.50061983e+00  3.77613649e+00  2.44638658e+00 -3.35561593e-05 
 1.11400000e-04  2.50064418e+00  3.77372730e+00  2.44398898e+00 -3.35735700e-05 
 1.16400000e-04  2.50066788e+00  3.77137468e+00  2.44164821e+00 -3.35905755e-05 
 1.21400000e-04  2.50069093e+00  3.76908099e+00  2.43936662e+00 -3.36071586e-05 
 1.26400000e-04  2.50071330e+00  3.76684850e+00  2.43714648e+00 -3.36233028e-05 
 1.31400000e-04  2.50073496e+00  3.76467946e+00  2.43499001e+00 -3.36389919e-05 
 1.36400000e-04  2.50075590e+00  3.76257603e+00  2.43289937e+00 -3.36542100e-05 
 1.41400000e-04  2.50077609e+00  3.76054032e+00  2.43087665e+00 -3.36689420e-05 
 1.46400000e-04  2.50079552e+00  3.75857436e+00  2.42892387e+00 -3.36831730e-05 
 1.51400000e-04  2.50081416e+00  3.75668013e+00  2.42704300e+00 -3.36968886e-05 
 1.56400000e-04  2.50083199e+00  3.75485952e+00  2.42523591e+00 -3.37100752e-05 
 1.61400000e-04  2.50084901e+00  3.75311436e+00  2.42350441e+00 -3.37227195e-05 
 1.66400000e-04  2.50086519e+00  3.75144639e+00  2.42185025e+00 -3.37348086e-05 
 1.71400000e-04  2.50088051e+00  3.74985728e+00  2.42027507e+00 -3.37463306e-05 
 1.76400000e-04  2.50089497e+00  3.74834863e+00  2.41878045e+00 -3.37572737e-05 
 1.81400000e-04  2.50090854e+00  3.74692195e+00  2.41736789e+00 -3.37676269e-05 
 1.86400000e-04  2.50092121e+00  3.74557867e+00  2.41603882e+00 -3.37773799e-05 
 1.91400000e-04  2.50093298e+00  3.74432014e+00  2.41479455e+00 -3.37865228e-05 
 1.96400000e-04  2.50094382e+00  3.74314762e+00  2.41363635e+00 -3.37950464e-05 
 2.01400000e-04  2.50095374e+00  3.74206228e+00  2.41256537e+00 -3.38029420e-05 
 2.06400000e-04  2.50096271e+00  3.74106521e+00  2.41158268e+00 -3.38102019e-05 
 2.11400000e-04  2.50097073e+00  3.74015742e+00  2.41068927e+00 -3.38168185e-05 
 2.16400000e-04  2.50097780e+00  3.73933982e+00  2.40988604e+00 -3.38227853e-05 
 2.21400000e-04  2.50098390e+00  3.73861322e+00  2.40917379e+00 -3.38280963e-05 
 2.26400000e-04  2.50098903e+00  3.73797835e+00  2.40855324e+00 -3.38327461e-05 
 2.31400000e-04  2.50099318e+00  3.73743586e+00  2.40802500e+00 -3.38367300e-05 
 2.36400000e-04  2.50099635e+00  3.73698627e+00  2.40758962e+00 -3.38400440e-05 
 2.41400000e-04  2.50099854e+00  3.73663006e+00  2.40724752e+00 -3.38426847e-05 
 2.46400000e-04  2.50099974e+00  3.73636757e+00  2.40699906e+00 -3.38446496e-05 
 2.51400000e-04  2.50099996e+00  3.73619906e+00  2.40684446e+00 -3.38459366e-05 
 2.56400000e-04  2.50099919e+00  3.73612471e+00  2.40678390e+00 -3.38465444e-05 
 2.61400000e-04  2.50099744e+00  3.73614458e+00  2.40681744e+00 -3.38464725e-05 
 2.66400000e-04  2.50099470e+00  3.73625867e+00  2.40694503e+00 -3.38457209e-05 
 2.71400000e-04  2.50099097e+00  3.73646684e+00  2.40716655e+00 -3.38442903e-05 
 2.76400000e-04  2.50098627e+00  3.73676890e+00  2.40748177e+00 -3.38421824e-05 
 2.81400000e-04  2.50098060e+00  3.73716454e+00  2.40789038e+00 -3.38393990e-05 
 2.86400000e-04  2.50097396e+00  3.73765336e+00  2.40839197e+00 -3.38359432e-05 
 2.91400000e-04  2.50096636e+00  3.73823486e+00  2.40898603e+00 -3.38318184e-05 
 2.96400000e-04  2.50095780e+00  3.73890847e+00  2.40967197e+00 -3.38270287e-05 
 3.01400000e-04  2.50094830e+00  3.73967351e+00  2.41044909e+00 -3.38215790e-05 
 3.06400000e-04  2.50093786e+00  3.74052921e+00  2.41131661e+00 -3.38154748e-05 
 3.11400000e-04  2.50092650e+00  3.74147470e+00  2.41227367e+00 -3.38087223e-05 
 3.16400000e-04  2.50091423e+00  3.74250905e+00  2.41331930e+00 -3.38013283e-05 
 3.21400000e-04  2.50090105e+00  3.74363120e+00  2.41445245e+00 -3.37933003e-05 
 3.26400000e-04  2.50088698e+00  3.74484004e+00  2.41567199e+00 -3.37846463e-05 
 3.31400000e-04  2.50087204e+00  3.74613434e+00  2.41697668e+00 -3.37753751e-05 
 3.36400000e-04  2.50085623e+00  3.74751282e+00  2.41836522e+00 -3.37654960e-05 
 3.41400000e-04  2.50083958e+00  3.74897408e+00  2.41983622e+00 -3.37550191e-05 
 3.46400000e-04  2.50082210e+00  3.75051666e+00  2.42138819e+00 -3.37439548e-05 
 3.51400000e-04  2.50080382e+00  3.75213902e+00  2.42301959e+00 -3.37323144e-05 
 3.56400000e-04  2.50078473e+00  3.75383952e+00  2.42472878e+00 -3.37201095e-05 
 3.61400000e-04  2.50076488e+00  3.75561647e+00  2.42651403e+00 -3.37073524e-05 
 3.66400000e-04  2.50074426e+00  3.75746807e+00  2.42837357e+00 -3.36940560e-05 
 3.71400000e-04  2.50072292e+00  3.75939248e+00  2.43030553e+00 -3.36802337e-05 
 3.76400000e-04  2.50070086e+00  3.76138777e+00  2.43230798e+00 -3.36658994e-05 
 3.81400000e-04  2.50067811e+00  3.76345194e+00  2.43437890e+00 -3.36510674e-05 
 3.86400000e-04  2.50065469e+00  3.76558292e+00  2.43651623e+00 -3.36357527e-05 
 3.91400000e-04  2.50063062e+00  3.76777857e+00  2.43871782e+00 -3.36199708e-05 
 3.96400000e-04  2.50060593e+00  3.77003671e+00  2.44098148e+00 -3.36037373e-05 
 4.01400000e-04  2.50058065e+00  3.77235508e+00  2.44330494e+00 -3.35870687e-05 
 4.06400000e-04  2.50055479e+00  3.77473135e+00  2.44568587e+00 -3.35699817e-05 
 4.11400000e-04  2.50052838e+00  3.77716315e+00  2.44812190e+00 -3.35524933e-05 
 4.16400000e-04  2.50050145e+00  3.77964805e+00  2.45061059e+00 -3.35346212e-05 
 4.21400000e-04  2.50047403e+00  3.78218358e+00  2.45314945e+00 -3.35163832e-05 
 4.26400000e-04  2.50044614e+00  3.78476719e+00  2.45573596e+00 -3.34977975e-05 
 4.31400000e-04  2.50041780e+00  3.78739632e+00  2.45836753e+00 -3.34788829e-05 
 4.36400000e-04  2.50038906e+00  3.79006833e+00  2.46104154e+00 -3.34596582e-05 
 4.41400000e-04  2.50035993e+00  3.79278057e+00  2.46375532e+00 -3.34401426e-05 
 4.46400000e-04  2.50033045e+00  3.79553034e+00  2.46650617e+00 -3.34203556e-05 
 4.51400000e-04  2.50030064e+00  3.79831489e+00  2.46929134e+00 -3.34003170e-05 
 4.56400000e-04  2.50027053e+00  3.80113145e+00  2.47210807e+00 -3.33800467e-05 
 4.61400000e-04  2.50024016e+00  3.80397722e+00  2.47495355e+00 -3.33595650e-05 
 4.66400000e-04  2.50020955e+00  3.80684938e+00  2.47782496e+00 -3.33388923e-05 
 4.71400000e-04  2.50017873e+00  3.80974506e+00  2.48071943e+00 -3.33180491e-05 
 4.76400000e-04  2.50014774e+00  3.81266139e+00  2.48363410e+00 -3.32970562e-05 
 4.81400000e-04  2.50011660e+00  3.81559548e+00  2.48656607e+00 -3.32759344e-05 
 4.86400000e-04  2.50008535e+00  3.81854442e+00  2.48951243e+00 -3.32547048e-05 
 4.91400000e-04  2.50005401e+00  3.82150528e+00  2.49247027e+00 -3.32333883e-05 
 4.96400000e-04  2.50002262e+00  3.82447513e+00  2.49543664e+00 -3.32120063e-05 
 5.01400000e-04  2.49999120e+00  3.82745102e+00  2.49840862e+00 -3.31905797e-05 
 5.06400000e-04  2.49995980e+00  3.83043002e+00  2.50138326e+00 -3.31691299e-05 
 5.11400000e-04  2.49992843e+00  3.83340918e+00  2.50435762e+00 -3.31476780e-05 
 5.16400000e-04  2.49989714e+00  3.83638555e+00  2.50732876e+00 -3.31262453e-05 
 5.21400000e-04  2.49986594e+00  3.83935619e+00  2.51029375e+00 -3.31048529e-05 
 5.26400000e-04  2.49983488e+00  3.84231818e+00  2.51324965e+00 -3.30835220e-05 
 5.31400000e-04  2.49980399e+00  3.84526858e+00  2.51619357e+00 -3.30622735e-05 
 5.36400000e-04  2.49977328e+00  3.84820451e+00  2.51912259e+00 -3.30411284e-05 
 5.41400000e-04  2.49974280e+00  3.85112305e+00  2.52203383e+00 -3.30201075e-05 
 5.46400000e-04  2.49971257e+00  3.85402135e+00  2.52492442e+00 -3.29992314e-05 
 5.51400000e-04  2.49968263e+00  3.85689655e+00  2.52779153e+00 -3.29785207e-05 
 5.56400000e-04  2.49965300e+00  3.85974583e+00  2.53063233e+00 -3.29579957e-05 
 5.61400000e-04  2.49962371e+00  3.86256638e+00  2.53344404e+00 -3.29376764e-05 
 5.66400000e-04  2.49959479e+00  3.86535545e+00  2.53622389e+00 -3.29175829e-05 
 5.71400000e-04  2.49956628e+00  3.86811030e+00  2.53896917e+00 -3.28977347e-05 
 5.76400000e-04  2.49953819e+00  3.87082822e+00  2.54167719e+00 -3.28781513e-05 
 5.81400000e-04  2.49951056e+00  3.87350657e+00  2.54434529e+00 -3.28588517e-05 
 5.86400000e-04  2.49948341e+00  3.87614271e+00  2.54697086e+00 -3.28398548e-05 
 5.91400000e-04  2.49945677e+00  3.87873408e+00  2.54955134e+00 -3.28211792e-05 
 5.96400000e-04  2.49943066e+00  3.88127815e+00  2.55208420e+00 -3.28028429e-05 
 6.01400000e-04  2.49940512e+00  3.88377242e+00  2.55456698e+00 -3.27848639e-05 
 6.06400000e-04  2.49938017e+00  3.88621448e+00  2.55699726e+00 -3.27672596e-05 
 6.11400000e-04  2.49935582e+00  3.88860193e+00  2.55937266e+00 -3.27500471e-05 
 6.16400000e-04  2.49933212e+00  3.89093246e+00  2.56169088e+00 -3.27332431e-05 
 6.21400000e-04  2.49930907e+00  3.89320380e+00  2.56394966e+00 -3.27168639e-05 
 6.26400000e-04  2.49928670e+00  3.89541374e+00  2.56614680e+00 -3.27009253e-05 
 6.31400000e-04  2.49926504e+00  3.89756013e+00  2.56828017e+00 -3.26854427e-05 
 6.36400000e-04  2.49924410e+00  3.89964089e+00  2.57034770e+00 -3.26704312e-05 
 6.41400000e-04  2.49922391e+00  3.90165400e+00  2.57234738e+00 -3.26559051e-05 
 6.46400000e-04  2.49920448e+00  3.90359751e+00  2.57427727e+00 -3.26418786e-05 
 6.51400000e-04  2.49918584e+00  3.90546954e+00  2.57613551e+00 -3.26283652e-05 
 6.56400000e-04  2.49916801e+00  3.90726828e+00  2.57792029e+00 -3.26153778e-05 
 6.61400000e-04  2.49915099e+00  3.90899197e+00  2.57962989e+00 -3.26029290e-05 
 6.66400000e-04  2.49913481e+00  3.91063897e+00  2.58126265e+00 -3.25910307e-05 
 6.71400000e-04  2.49911949e+00  3.91220767e+00  2.58281700e+00 -3.25796944e-05 
 6.76400000e-04  2.49910503e+00  3.91369656e+00  2.58429144e+00 -3.25689309e-05 
 6.81400000e-04  2.49909146e+00  3.91510421e+00  2.58568454e+00 -3.25587507e-05 
 6.86400000e-04  2.49907879e+00  3.91642925e+00  2.58699495e+00 -3.25491634e-05 
 6.91400000e-04  2.49906702e+00  3.91767040e+00  2.58822142e+00 -3.25401783e-05 
 6.96400000e-04  2.49905618e+00  3.91882648e+00  2.58936276e+00 -3.25318039e-05 
 7.01400000e-04  2.49904626e+00  3.91989636e+00  2.59041787e+00 -3.25240483e-05 
 7.06400000e-04  2.49903729e+00  3.92087902e+00  2.59138574e+00 -3.25169189e-05 
 7.11400000e-04  2.49902927e+00  3.92177351e+00  2.59226543e+00 -3.25104226e-05 
 7.16400000e-04  2.49902220e+00  3.92257897e+00  2.59305610e+00 -3.25045655e-05 
 7.21400000e-04  2.49901610e+00  3.92329462e+00  2.59375698e+00 -3.24993532e-05 
 7.26400000e-04  2.49901097e+00  3.92391977e+00  2.59436741e+00 -3.24947908e-05 
 7.31400000e-04  2.49900682e+00  3.92445383e+00  2.59488678e+00 -3.24908826e-05 
 7.36400000e-04  2.49900365e+00  3.92489627e+00  2.59531461e+00 -3.24876323e-05 
 7.41400000e-04  2.49900146e+00  3.92524668e+00  2.59565049e+00 -3.24850431e-05 
 7.46400000e-04  2.49900026e+00  3.92550471e+00  2.59589408e+00 -3.24831174e-05 
 7.51400000e-04  2.49900004e+00  3.92567013e+00  2.59604515e+00 -3.24818571e-05 
 7.56400000e-04  2.49900081e+00  3.92574275e+00  2.59610357e+00 -3.24812633e-05 
 7.61400000e-04  2.49900256e+00  3.92572253e+00  2.59606926e+00 -3.24813368e-05 
 7.66400000e-04  2.49900530e+00  3.92560947e+00  2.59594227e+00 -3.24820773e-05 
 7.71400000e-04  2.49900903e+00  3.92540369e+00  2.59572272e+00 -3.24834842e-05 
 7.76400000e-04  2.49901373e+00  3.92510537e+00  2.59541081e+00 -3.24855562e-05 
 7.81400000e-04  2.49901940e+00  3.92471482e+00  2.59500685e+00 -3.24882912e-05 
 7.86400000e-04  2.49902604e+00  3.92423239e+00  2.59451121e+00 -3.24916868e-05 
 7.91400000e-04  2.49903364e+00  3.92365856e+00  2.59392439e+00 -3.24957397e-05 
 7.96400000e-04  2.49904220e+00  3.92299387e+00  2.59324693e+00 -3.25004459e-05 
 8.01400000e-04  2.49905170e+00  3.92223896e+00  2.59247950e+00 -3.25058011e-05 
 8.06400000e-04  2.49906214e+00  3.92139456e+00  2.59162282e+00 -3.25118002e-05 
 8.11400000e-04  2.49907350e+00  3.92046149e+00  2.59067773e+00 -3.25184373e-05 
 8.16400000e-04  2.49908577e+00  3.91944062e+00  2.58964513e+00 -3.25257062e-05 
 8.21400000e-04  2.49909895e+00  3.91833296e+00  2.58852601e+00 -3.25335999e-05 
 8.26400000e-04  2.49911302e+00  3.91713956e+00  2.58732145e+00 -3.25421109e-05 
 8.31400000e-04  2.49912796e+00  3.91586157e+00  2.58603261e+00 -3.25512310e-05 
 8.36400000e-04  2.49914377e+00  3.91450023e+00  2.58466074e+00 -3.25609516e-05 
 8.41400000e-04  2.49916042e+00  3.91305685e+00  2.58320715e+00 -3.25712632e-05 
 8.46400000e-04  2.49917790e+00  3.91153281e+00  2.58167324e+00 -3.25821561e-05 
 8.51400000e-04  2.49919618e+00  3.90992959e+00  2.58006050e+00 -3.25936198e-05 
 8.56400000e-04  2.49921527e+00  3.90824874e+00  2.57837049e+00 -3.26056432e-05 
 8.61400000e-04  2.49923512e+00  3.90649188e+00  2.57660483e+00 -3.26182149e-05 
 8.66400000e-04  2.49925574e+00  3.90466071e+00  2.57476523e+00 -3.26313228e-05 
 8.71400000e-04  2.49927708e+00  3.90275699e+00  2.57285347e+00 -3.26449541e-05 
 8.76400000e-04  2.49929914e+00  3.90078258e+00  2.57087141e+00 -3.26590959e-05 
 8.81400000e-04  2.49932189e+00  3.89873939e+00  2.56882096e+00 -3.26737345e-05 
 8.86400000e-04  2.49934531e+00  3.89662939e+00  2.56670411e+00 -3.26888557e-05 
 8.91400000e-04  2.49936938e+00  3.89445463e+00  2.56452291e+00 -3.27044450e-05 
 8.96400000e-04  2.49939407e+00  3.89221723e+00  2.56227948e+00 -3.27204873e-05 
 9.01400000e-04  2.49941935e+00  3.88991935e+00  2.55997600e+00 -3.27369671e-05 
 9.06400000e-04  2.49944521e+00  3.88756324e+00  2.55761472e+00 -3.27538684e-05 
 9.11400000e-04  2.49947162e+00  3.88515117e+00  2.55519791e+00 -3.27711748e-05 
 9.16400000e-04  2.49949855e+00  3.88268551e+00  2.55272795e+00 -3.27888697e-05 
 9.21400000e-04  2.49952597e+00  3.88016866e+00  2.55020723e+00 -3.28069356e-05 
 9.26400000e-04  2.49955386e+00  3.87760306e+00  2.54763821e+00 -3.28253553e-05 
 9.31400000e-04  2.49958220e+00  3.87499122e+00  2.54502341e+00 -3.28441106e-05 
 9.36400000e-04  2.49961094e+00  3.87233569e+00  2.54236537e+00 -3.28631833e-05 
 9.41400000e-04  2.49964007e+00  3.86963908e+00  2.53966669e+00 -3.28825549e-05 
 9.46400000e-04  2.49966955e+00  3.86690401e+00  2.53693001e+00 -3.29022065e-05 
 9.51400000e-04  2.49969936e+00  3.86413316e+00  2.53415801e+00 -3.29221187e-05 
 9.56400000e-04  2.49972947e+00  3.86132926e+00  2.53135341e+00 -3.29422723e-05 
 9.61400000e-04  2.49975984e+00  3.85849504e+00  2.52851896e+00 -3.29626474e-05 
 9.66400000e-04  2.49979045e+00  3.85563329e+00  2.52565743e+00 -3.29832241e-05 
 9.71400000e-04  2.49982127e+00  3.85274681e+00  2.52277165e+00 -3.30039822e-05 
 9.76400000e-04  2.49985226e+00  3.84983846e+00  2.51986443e+00 -3.30249013e-05 
 9.81400000e-04  2.49988340e+00  3.84691108e+00  2.51693865e+00 -3.30459610e-05 
 9.86400000e-04  2.49991465e+00  3.84396756e+00  2.51399717e+00 -3.30671403e-05 
 9.91400000e-04  2.49994599e+00  3.84101079e+00  2.51104291e+00 -3.30884187e-05 
 9.96400000e-04  2.49997738e+00  3.83804369e+00  2.50807877e+00 -3.31097749e-05 
 1.00140000e-03  2.50000880e+00  3.83506919e+00  2.50510767e+00 -3.31311881e-05 
 1.00640000e-03  2.50004020e+00  3.83209023e+00  2.50213254e+00 -3.31526371e-05 
 1.01140000e-03  2.50007157e+00  3.82910974e+00  2.49915634e+00 -3.31741006e-05 
 1.01640000e-03  2.50010286e+00  3.82613067e+00  2.49618198e+00 -3.31955575e-05 
 1.02140000e-03  2.50013406e+00  3.82315597e+00  2.49321243e+00 -3.32169864e-05 
 1.02640000e-03  2.50016512e+00  3.82018858e+00  2.49025061e+00 -3.32383663e-05 
 1.03140000e-03  2.50019601e+00  3.81723144e+00  2.48729947e+00 -3.32596759e-05 
 1.03640000e-03  2.50022672e+00  3.81428748e+00  2.48436191e+00 -3.32808941e-05 
 1.04140000e-03  2.50025720e+00  3.81135963e+00  2.48144087e+00 -3.33019997e-05 
 1.04640000e-03  2.50028743e+00  3.80845078e+00  2.47853923e+00 -3.33229719e-05 
 1.05140000e-03  2.50031737e+00  3.80556382e+00  2.47565987e+00 -3.33437897e-05 
 1.05640000e-03  2.50034700e+00  3.80270163e+00  2.47280566e+00 -3.33644325e-05 
 1.06140000e-03  2.50037629e+00  3.79986704e+00  2.46997944e+00 -3.33848797e-05 
 1.06640000e-03  2.50040521e+00  3.79706287e+00  2.46718400e+00 -3.34051110e-05 
 1.07140000e-03  2.50043372e+00  3.79429192e+00  2.46442214e+00 -3.34251061e-05 
 1.07640000e-03  2.50046181e+00  3.79155694e+00  2.46169661e+00 -3.34448451e-05 
 1.08140000e-03  2.50048944e+00  3.78886066e+00  2.45901010e+00 -3.34643082e-05 
 1.08640000e-03  2.50051659e+00  3.78620576e+00  2.45636532e+00 -3.34834762e-05 
 1.09140000e-03  2.50054323e+00  3.78359489e+00  2.45376488e+00 -3.35023297e-05 
 1.09640000e-03  2.50056934e+00  3.78103066e+00  2.45121139e+00 -3.35208500e-05 
 1.10140000e-03  2.50059488e+00  3.77851561e+00  2.44870739e+00 -3.35390185e-05 
 1.10640000e-03  2.50061983e+00  3.77605227e+00  2.44625537e+00 -3.35568170e-05 
 1.11140000e-03  2.50064418e+00  3.77364309e+00  2.44385780e+00 -3.35742277e-05 
 1.11640000e-03  2.50066788e+00  3.77129048e+00  2.44151706e+00 -3.35912331e-05 
 1.12140000e-03  2.50069093e+00  3.76899679e+00  2.43923549e+00 -3.36078162e-05 
 1.12640000e-03  2.50071330e+00  3.76676432e+00  2.43701538e+00 -3.36239604e-05 
 1.13140000e-03  2.50073496e+00  3.76459528e+00  2.43485894e+00 -3.36396494e-05 
 1.13640000e-03  2.50075590e+00  3.76249186e+00  2.43276833e+00 -3.36548674e-05 
 1.14140000e-03  2.50077609e+00  3.76045616e+00  2.43074564e+00 -3.36695993e-05 
 1.14640000e-03  2.50079552e+00  3.75849022e+00  2.42879289e+00 -3.36838302e-05 
 1.15140000e-03  2.50081416e+00  3.75659600e+00  2.42691205e+00 -3.36975458e-05 
 1.15640000e-03  2.50083199e+00  3.75477540e+00  2.42510499e+00 -3.37107323e-05 
 1.16140000e-03  2.50084901e+00  3.75303025e+00  2.42337353e+00 -3.37233765e-05 
 1.16640000e-03  2.50086519e+00  3.75136229e+00  2.42171939e+00 -3.37354656e-05 
 1.17140000e-03  2.50088051e+00  3.74977320e+00  2.42014424e+00 -3.37469874e-05 
 1.17640000e-03  2.50089497e+00  3.74826456e+00  2.41864966e+00 -3.37579304e-05 
 1.18140000e-03  2.50090854e+00  3.74683790e+00  2.41723714e+00 -3.37682836e-05 
 1.18640000e-03  2.50092121e+00  3.74549463e+00  2.41590810e+00 -3.37780364e-05 
