 time            v(vin)          v(vout_final)   i(vdd)         
 0.00000000e+00  2.50000000e+00  3.81513122e+00 -3.32851839e-05 
 5.00000000e-08  2.50000031e+00  3.81513122e+00 -3.32851840e-05 
 1.00000000e-07  2.50000063e+00  3.81513122e+00 -3.32851843e-05 
 2.00000000e-07  2.50000126e+00  3.81513121e+00 -3.32851852e-05 
 4.00000000e-07  2.50000251e+00  3.81513119e+00 -3.32851886e-05 
 8.00000000e-07  2.50000503e+00  3.81513088e+00 -3.32851996e-05 
 1.60000000e-06  2.50001005e+00  3.81512689e+00 -3.32852364e-05 
 3.20000000e-06  2.50002010e+00  3.81508266e+00 -3.32854664e-05 
 6.40000000e-06  2.50004020e+00  3.81470983e+00 -3.32875691e-05 
 1.14000000e-05  2.50007157e+00  3.81318851e+00 -3.32972844e-05 
 1.64000000e-05  2.50010286e+00  3.81071511e+00 -3.33141864e-05 
 2.14000000e-05  2.50013406e+00  3.80773641e+00 -3.33351711e-05 
 2.64000000e-05  2.50016512e+00  3.80457133e+00 -3.33577108e-05 
 3.14000000e-05  2.50019601e+00  3.80135352e+00 -3.33807062e-05 
 3.64000000e-05  2.50022672e+00  3.79812983e+00 -3.34037715e-05 
 4.14000000e-05  2.50025720e+00  3.79491736e+00 -3.34267680e-05 
 4.64000000e-05  2.50028743e+00  3.79172366e+00 -3.34496363e-05 
 5.14000000e-05  2.50031737e+00  3.78855329e+00 -3.34723422e-05 
 5.64000000e-05  2.50034700e+00  3.78540984e+00 -3.34948594e-05 
 6.14000000e-05  2.50037629e+00  3.78229657e+00 -3.35171645e-05 
 6.64000000e-05  2.50040521e+00  3.77921662e+00 -3.35392348e-05 
 7.14000000e-05  2.50043372e+00  3.77617306e+00 -3.35610482e-05 
 7.64000000e-05  2.50046181e+00  3.77316894e+00 -3.35825828e-05 
 8.14000000e-05  2.50048944e+00  3.77020724e+00 -3.36038171e-05 
 8.64000000e-05  2.50051659e+00  3.76729093e+00 -3.36247300e-05 
 9.14000000e-05  2.50054323e+00  3.76442290e+00 -3.36453004e-05 
 9.64000000e-05  2.50056934e+00  3.76160604e+00 -3.36655078e-05 
 1.01400000e-04  2.50059488e+00  3.75884313e+00 -3.36853320e-05 
 1.06400000e-04  2.50061983e+00  3.75613696e+00 -3.37047530e-05 
 1.11400000e-04  2.50064418e+00  3.75349021e+00 -3.37237515e-05 
 1.16400000e-04  2.50066788e+00  3.75090555e+00 -3.37423083e-05 
 1.21400000e-04  2.50069093e+00  3.74838554e+00 -3.37604048e-05 
 1.26400000e-04  2.50071330e+00  3.74593272e+00 -3.37780229e-05 
 1.31400000e-04  2.50073496e+00  3.74354953e+00 -3.37951448e-05 
 1.36400000e-04  2.50075590e+00  3.74123837e+00 -3.38117534e-05 
 1.41400000e-04  2.50077609e+00  3.73900155e+00 -3.38278319e-05 
 1.46400000e-04  2.50079552e+00  3.73684130e+00 -3.38433642e-05 
 1.51400000e-04  2.50081416e+00  3.73475980e+00 -3.38583347e-05 
 1.56400000e-04  2.50083199e+00  3.73275913e+00 -3.38727282e-05 
 1.61400000e-04  2.50084901e+00  3.73084130e+00 -3.38865303e-05 
 1.66400000e-04  2.50086519e+00  3.72900822e+00 -3.38997271e-05 
 1.71400000e-04  2.50088051e+00  3.72726175e+00 -3.39123053e-05 
 1.76400000e-04  2.50089497e+00  3.72560362e+00 -3.39242523e-05 
 1.81400000e-04  2.50090854e+00  3.72403551e+00 -3.39355559e-05 
 1.86400000e-04  2.50092121e+00  3.72255898e+00 -3.39462048e-05 
 1.91400000e-04  2.50093298e+00  3.72117553e+00 -3.39561882e-05 
 1.96400000e-04  2.50094382e+00  3.71988653e+00 -3.39654961e-05 
 2.01400000e-04  2.50095374e+00  3.71869328e+00 -3.39741191e-05 
 2.06400000e-04  2.50096271e+00  3.71759699e+00 -3.39820485e-05 
 2.11400000e-04  2.50097073e+00  3.71659875e+00 -3.39892763e-05 
 2.16400000e-04  2.50097780e+00  3.71569956e+00 -3.39957952e-05 
 2.21400000e-04  2.50098390e+00  3.71490033e+00 -3.40015986e-05 
 2.26400000e-04  2.50098903e+00  3.71420186e+00 -3.40066807e-05 
 2.31400000e-04  2.50099318e+00  3.71360485e+00 -3.40110364e-05 
 2.36400000e-04  2.50099635e+00  3.71310989e+00 -3.40146611e-05 
 2.41400000e-04  2.50099854e+00  3.71271750e+00 -3.40175514e-05 
 2.46400000e-04  2.50099974e+00  3.71242806e+00 -3.40197043e-05 
 2.51400000e-04  2.50099996e+00  3.71224186e+00 -3.40211176e-05 
 2.56400000e-04  2.50099919e+00  3.71215908e+00 -3.40217899e-05 
 2.61400000e-04  2.50099744e+00  3.71217982e+00 -3.40217206e-05 
 2.66400000e-04  2.50099470e+00  3.71230404e+00 -3.40209096e-05 
 2.71400000e-04  2.50099097e+00  3.71253163e+00 -3.40193579e-05 
 2.76400000e-04  2.50098627e+00  3.71286235e+00 -3.40170671e-05 
 2.81400000e-04  2.50098060e+00  3.71329587e+00 -3.40140393e-05 
 2.86400000e-04  2.50097396e+00  3.71383175e+00 -3.40102778e-05 
 2.91400000e-04  2.50096636e+00  3.71446945e+00 -3.40057863e-05 
 2.96400000e-04  2.50095780e+00  3.71520834e+00 -3.40005694e-05 
 3.01400000e-04  2.50094830e+00  3.71604766e+00 -3.39946323e-05 
 3.06400000e-04  2.50093786e+00  3.71698658e+00 -3.39879811e-05 
 3.11400000e-04  2.50092650e+00  3.71802415e+00 -3.39806225e-05 
 3.16400000e-04  2.50091423e+00  3.71915932e+00 -3.39725639e-05 
 3.21400000e-04  2.50090105e+00  3.72039096e+00 -3.39638134e-05 
 3.26400000e-04  2.50088698e+00  3.72171782e+00 -3.39543800e-05 
 3.31400000e-04  2.50087204e+00  3.72313858e+00 -3.39442731e-05 
 3.36400000e-04  2.50085623e+00  3.72465180e+00 -3.39335030e-05 
 3.41400000e-04  2.50083958e+00  3.72625597e+00 -3.39220805e-05 
 3.46400000e-04  2.50082210e+00  3.72794947e+00 -3.39100172e-05 
 3.51400000e-04  2.50080382e+00  3.72973060e+00 -3.38973251e-05 
 3.56400000e-04  2.50078473e+00  3.73159758e+00 -3.38840173e-05 
 3.61400000e-04  2.50076488e+00  3.73354854e+00 -3.38701069e-05 
 3.66400000e-04  2.50074426e+00  3.73558150e+00 -3.38556081e-05 
 3.71400000e-04  2.50072292e+00  3.73769445e+00 -3.38405355e-05 
 3.76400000e-04  2.50070086e+00  3.73988524e+00 -3.38249043e-05 
 3.81400000e-04  2.50067811e+00  3.74215170e+00 -3.38087301e-05 
 3.86400000e-04  2.50065469e+00  3.74449155e+00 -3.37920293e-05 
 3.91400000e-04  2.50063062e+00  3.74690244e+00 -3.37748186e-05 
 3.96400000e-04  2.50060593e+00  3.74938197e+00 -3.37571155e-05 
 4.01400000e-04  2.50058065e+00  3.75192764e+00 -3.37389375e-05 
 4.06400000e-04  2.50055479e+00  3.75453691e+00 -3.37203031e-05 
 4.11400000e-04  2.50052838e+00  3.75720718e+00 -3.37012309e-05 
 4.16400000e-04  2.50050145e+00  3.75993577e+00 -3.36817401e-05 
 4.21400000e-04  2.50047403e+00  3.76271995e+00 -3.36618502e-05 
 4.26400000e-04  2.50044614e+00  3.76555694e+00 -3.36415810e-05 
 4.31400000e-04  2.50041780e+00  3.76844392e+00 -3.36209531e-05 
 4.36400000e-04  2.50038906e+00  3.77137799e+00 -3.35999869e-05 
 4.41400000e-04  2.50035993e+00  3.77435623e+00 -3.35787034e-05 
 4.46400000e-04  2.50033045e+00  3.77737568e+00 -3.35571240e-05 
 4.51400000e-04  2.50030064e+00  3.78043332e+00 -3.35352702e-05 
 4.56400000e-04  2.50027053e+00  3.78352611e+00 -3.35131637e-05 
 4.61400000e-04  2.50024016e+00  3.78665097e+00 -3.34908268e-05 
 4.66400000e-04  2.50020955e+00  3.78980478e+00 -3.34682815e-05 
 4.71400000e-04  2.50017873e+00  3.79298442e+00 -3.34455504e-05 
 4.76400000e-04  2.50014774e+00  3.79618673e+00 -3.34226562e-05 
 4.81400000e-04  2.50011660e+00  3.79940852e+00 -3.33996215e-05 
 4.86400000e-04  2.50008535e+00  3.80264660e+00 -3.33764693e-05 
 4.91400000e-04  2.50005401e+00  3.80589775e+00 -3.33532225e-05 
 4.96400000e-04  2.50002262e+00  3.80915876e+00 -3.33299043e-05 
 5.01400000e-04  2.49999120e+00  3.81242639e+00 -3.33065376e-05 
 5.06400000e-04  2.49995980e+00  3.81569740e+00 -3.32831458e-05 
 5.11400000e-04  2.49992843e+00  3.81896857e+00 -3.32597519e-05 
 5.16400000e-04  2.49989714e+00  3.82223666e+00 -3.32363790e-05 
 5.21400000e-04  2.49986594e+00  3.82549845e+00 -3.32130502e-05 
 5.26400000e-04  2.49983488e+00  3.82875070e+00 -3.31897886e-05 
 5.31400000e-04  2.49980399e+00  3.83199023e+00 -3.31666171e-05 
 5.36400000e-04  2.49977328e+00  3.83521382e+00 -3.31435585e-05 
 5.41400000e-04  2.49974280e+00  3.83841832e+00 -3.31206355e-05 
 5.46400000e-04  2.49971257e+00  3.84160056e+00 -3.30978705e-05 
 5.51400000e-04  2.49968263e+00  3.84475743e+00 -3.30752861e-05 
 5.56400000e-04  2.49965300e+00  3.84788581e+00 -3.30529042e-05 
 5.61400000e-04  2.49962371e+00  3.85098263e+00 -3.30307470e-05 
 5.66400000e-04  2.49959479e+00  3.85404487e+00 -3.30088359e-05 
 5.71400000e-04  2.49956628e+00  3.85706952e+00 -3.29871925e-05 
 5.76400000e-04  2.49953819e+00  3.86005361e+00 -3.29658380e-05 
 5.81400000e-04  2.49951056e+00  3.86299424e+00 -3.29447931e-05 
 5.86400000e-04  2.49948341e+00  3.86588852e+00 -3.29240783e-05 
 5.91400000e-04  2.49945677e+00  3.86873363e+00 -3.29037139e-05 
 5.96400000e-04  2.49943066e+00  3.87152679e+00 -3.28837196e-05 
 6.01400000e-04  2.49940512e+00  3.87426529e+00 -3.28641149e-05 
 6.06400000e-04  2.49938017e+00  3.87694644e+00 -3.28449189e-05 
 6.11400000e-04  2.49935582e+00  3.87956764e+00 -3.28261500e-05 
 6.16400000e-04  2.49933212e+00  3.88212635e+00 -3.28078266e-05 
 6.21400000e-04  2.49930907e+00  3.88462008e+00 -3.27899663e-05 
 6.26400000e-04  2.49928670e+00  3.88704639e+00 -3.27725864e-05 
 6.31400000e-04  2.49926504e+00  3.88940295e+00 -3.27557037e-05 
 6.36400000e-04  2.49924410e+00  3.89168747e+00 -3.27393345e-05 
 6.41400000e-04  2.49922391e+00  3.89389772e+00 -3.27234946e-05 
 6.46400000e-04  2.49920448e+00  3.89603158e+00 -3.27081993e-05 
 6.51400000e-04  2.49918584e+00  3.89808698e+00 -3.26934632e-05 
 6.56400000e-04  2.49916801e+00  3.90006193e+00 -3.26793005e-05 
 6.61400000e-04  2.49915099e+00  3.90195453e+00 -3.26657248e-05 
 6.66400000e-04  2.49913481e+00  3.90376294e+00 -3.26527492e-05 
 6.71400000e-04  2.49911949e+00  3.90548542e+00 -3.26403862e-05 
 6.76400000e-04  2.49910503e+00  3.90712031e+00 -3.26286475e-05 
 6.81400000e-04  2.49909146e+00  3.90866604e+00 -3.26175444e-05 
 6.86400000e-04  2.49907879e+00  3.91012112e+00 -3.26070876e-05 
 6.91400000e-04  2.49906702e+00  3.91148415e+00 -3.25972869e-05 
 6.96400000e-04  2.49905618e+00  3.91275381e+00 -3.25881520e-05 
 7.01400000e-04  2.49904626e+00  3.91392888e+00 -3.25796913e-05 
 7.06400000e-04  2.49903729e+00  3.91500824e+00 -3.25719131e-05 
 7.11400000e-04  2.49902927e+00  3.91599084e+00 -3.25648247e-05 
 7.16400000e-04  2.49902220e+00  3.91687575e+00 -3.25584330e-05 
 7.21400000e-04  2.49901610e+00  3.91766211e+00 -3.25527440e-05 
 7.26400000e-04  2.49901097e+00  3.91834917e+00 -3.25477631e-05 
 7.31400000e-04  2.49900682e+00  3.91893626e+00 -3.25434951e-05 
 7.36400000e-04  2.49900365e+00  3.91942284e+00 -3.25399441e-05 
 7.41400000e-04  2.49900146e+00  3.91980842e+00 -3.25371134e-05 
 7.46400000e-04  2.49900026e+00  3.92009263e+00 -3.25350058e-05 
 7.51400000e-04  2.49900004e+00  3.92027521e+00 -3.25336233e-05 
 7.56400000e-04  2.49900081e+00  3.92035598e+00 -3.25329672e-05 
 7.61400000e-04  2.49900256e+00  3.92033486e+00 -3.25330382e-05 
 7.66400000e-04  2.49900530e+00  3.92021187e+00 -3.25338361e-05 
 7.71400000e-04  2.49900903e+00  3.91998712e+00 -3.25353602e-05 
 7.76400000e-04  2.49901373e+00  3.91966083e+00 -3.25376092e-05 
 7.81400000e-04  2.49901940e+00  3.91923332e+00 -3.25405808e-05 
 7.86400000e-04  2.49902604e+00  3.91870499e+00 -3.25442722e-05 
 7.91400000e-04  2.49903364e+00  3.91807634e+00 -3.25486800e-05 
 7.96400000e-04  2.49904220e+00  3.91734799e+00 -3.25538000e-05 
 8.01400000e-04  2.49905170e+00  3.91652062e+00 -3.25596273e-05 
 8.06400000e-04  2.49906214e+00  3.91559503e+00 -3.25661563e-05 
 8.11400000e-04  2.49907350e+00  3.91457211e+00 -3.25733809e-05 
 8.16400000e-04  2.49908577e+00  3.91345284e+00 -3.25812941e-05 
 8.21400000e-04  2.49909895e+00  3.91223829e+00 -3.25898885e-05 
 8.26400000e-04  2.49911302e+00  3.91092963e+00 -3.25991558e-05 
 8.31400000e-04  2.49912796e+00  3.90952811e+00 -3.26090872e-05 
 8.36400000e-04  2.49914377e+00  3.90803509e+00 -3.26196732e-05 
 8.41400000e-04  2.49916042e+00  3.90645200e+00 -3.26309037e-05 
 8.46400000e-04  2.49917790e+00  3.90478037e+00 -3.26427680e-05 
 8.51400000e-04  2.49919618e+00  3.90302180e+00 -3.26552547e-05 
 8.56400000e-04  2.49921527e+00  3.90117799e+00 -3.26683518e-05 
 8.61400000e-04  2.49923512e+00  3.89925071e+00 -3.26820469e-05 
 8.66400000e-04  2.49925574e+00  3.89724183e+00 -3.26963266e-05 
 8.71400000e-04  2.49927708e+00  3.89515329e+00 -3.27111775e-05 
 8.76400000e-04  2.49929914e+00  3.89298710e+00 -3.27265851e-05 
 8.81400000e-04  2.49932189e+00  3.89074537e+00 -3.27425346e-05 
 8.86400000e-04  2.49934531e+00  3.88843025e+00 -3.27590107e-05 
 8.91400000e-04  2.49936938e+00  3.88604400e+00 -3.27759976e-05 
 8.96400000e-04  2.49939407e+00  3.88358892e+00 -3.27934787e-05 
 9.01400000e-04  2.49941935e+00  3.88106741e+00 -3.28114373e-05 
 9.06400000e-04  2.49944521e+00  3.87848190e+00 -3.28298560e-05 
 9.11400000e-04  2.49947162e+00  3.87583490e+00 -3.28487168e-05 
 9.16400000e-04  2.49949855e+00  3.87312901e+00 -3.28680017e-05 
 9.21400000e-04  2.49952597e+00  3.87036684e+00 -3.28876918e-05 
 9.26400000e-04  2.49955386e+00  3.86755109e+00 -3.29077680e-05 
 9.31400000e-04  2.49958220e+00  3.86468451e+00 -3.29282108e-05 
 9.36400000e-04  2.49961094e+00  3.86176988e+00 -3.29490004e-05 
 9.41400000e-04  2.49964007e+00  3.85881007e+00 -3.29701165e-05 
 9.46400000e-04  2.49966955e+00  3.85580796e+00 -3.29915384e-05 
 9.51400000e-04  2.49969936e+00  3.85276650e+00 -3.30132453e-05 
 9.56400000e-04  2.49972947e+00  3.84968865e+00 -3.30352160e-05 
 9.61400000e-04  2.49975984e+00  3.84657744e+00 -3.30574290e-05 
 9.66400000e-04  2.49979045e+00  3.84343591e+00 -3.30798624e-05 
 9.71400000e-04  2.49982127e+00  3.84026715e+00 -3.31024944e-05 
 9.76400000e-04  2.49985226e+00  3.83707428e+00 -3.31253028e-05 
 9.81400000e-04  2.49988340e+00  3.83386044e+00 -3.31482650e-05 
 9.86400000e-04  2.49991465e+00  3.83062878e+00 -3.31713585e-05 
 9.91400000e-04  2.49994599e+00  3.82738249e+00 -3.31945607e-05 
 9.96400000e-04  2.49997738e+00  3.82412477e+00 -3.32178486e-05 
 1.00140000e-03  2.50000880e+00  3.82085884e+00 -3.32411993e-05 
 1.00640000e-03  2.50004020e+00  3.81758791e+00 -3.32645897e-05 
 1.01140000e-03  2.50007157e+00  3.81431521e+00 -3.32879967e-05 
 1.01640000e-03  2.50010286e+00  3.81104399e+00 -3.33113972e-05 
 1.02140000e-03  2.50013406e+00  3.80777749e+00 -3.33347680e-05 
 1.02640000e-03  2.50016512e+00  3.80451892e+00 -3.33580859e-05 
 1.03140000e-03  2.50019601e+00  3.80127153e+00 -3.33813279e-05 
 1.03640000e-03  2.50022672e+00  3.79803853e+00 -3.34044708e-05 
 1.04140000e-03  2.50025720e+00  3.79482312e+00 -3.34274917e-05 
 1.04640000e-03  2.50028743e+00  3.79162851e+00 -3.34503677e-05 
 1.05140000e-03  2.50031737e+00  3.78845786e+00 -3.34730760e-05 
 1.05640000e-03  2.50034700e+00  3.78531432e+00 -3.34955940e-05 
 1.06140000e-03  2.50037629e+00  3.78220102e+00 -3.35178993e-05 
 1.06640000e-03  2.50040521e+00  3.77912106e+00 -3.35399697e-05 
 1.07140000e-03  2.50043372e+00  3.77607751e+00 -3.35617831e-05 
 1.07640000e-03  2.50046181e+00  3.77307339e+00 -3.35833177e-05 
 1.08140000e-03  2.50048944e+00  3.77011170e+00 -3.36045520e-05 
 1.08640000e-03  2.50051659e+00  3.76719539e+00 -3.36254648e-05 
 1.09140000e-03  2.50054323e+00  3.76432737e+00 -3.36460352e-05 
 1.09640000e-03  2.50056934e+00  3.76151051e+00 -3.36662426e-05 
 1.10140000e-03  2.50059488e+00  3.75874762e+00 -3.36860667e-05 
 1.10640000e-03  2.50061983e+00  3.75604145e+00 -3.37054877e-05 
 1.11140000e-03  2.50064418e+00  3.75339471e+00 -3.37244861e-05 
 1.11640000e-03  2.50066788e+00  3.75081005e+00 -3.37430429e-05 
 1.12140000e-03  2.50069093e+00  3.74829005e+00 -3.37611393e-05 
 1.12640000e-03  2.50071330e+00  3.74583724e+00 -3.37787574e-05 
 1.13140000e-03  2.50073496e+00  3.74345407e+00 -3.37958792e-05 
 1.13640000e-03  2.50075590e+00  3.74114291e+00 -3.38124877e-05 
 1.14140000e-03  2.50077609e+00  3.73890610e+00 -3.38285662e-05 
 1.14640000e-03  2.50079552e+00  3.73674587e+00 -3.38440984e-05 
 1.15140000e-03  2.50081416e+00  3.73466438e+00 -3.38590688e-05 
 1.15640000e-03  2.50083199e+00  3.73266373e+00 -3.38734622e-05 
 1.16140000e-03  2.50084901e+00  3.73074591e+00 -3.38872643e-05 
 1.16640000e-03  2.50086519e+00  3.72891285e+00 -3.39004610e-05 
 1.17140000e-03  2.50088051e+00  3.72716638e+00 -3.39130391e-05 
 1.17640000e-03  2.50089497e+00  3.72550827e+00 -3.39249859e-05 
 1.18140000e-03  2.50090854e+00  3.72394018e+00 -3.39362894e-05 
 1.18640000e-03  2.50092121e+00  3.72246367e+00 -3.39469382e-05 
 1.19140000e-03  2.50093298e+00  3.72108023e+00 -3.39569215e-05 
 1.19640000e-03  2.50094382e+00  3.71979125e+00 -3.39662292e-05 
 1.20140000e-03  2.50095374e+00  3.71859802e+00 -3.39748521e-05 
 1.20640000e-03  2.50096271e+00  3.71750175e+00 -3.39827814e-05 
 1.21140000e-03  2.50097073e+00  3.71650353e+00 -3.39900090e-05 
 1.21640000e-03  2.50097780e+00  3.71560436e+00 -3.39965278e-05 
 1.22140000e-03  2.50098390e+00  3.71480515e+00 -3.40023310e-05 
 1.22640000e-03  2.50098903e+00  3.71410670e+00 -3.40074129e-05 
 1.23140000e-03  2.50099318e+00  3.71350971e+00 -3.40117684e-05 
 1.23640000e-03  2.50099635e+00  3.71301478e+00 -3.40153930e-05 
 1.24140000e-03  2.50099854e+00  3.71262241e+00 -3.40182831e-05 
 1.24640000e-03  2.50099974e+00  3.71233299e+00 -3.40204358e-05 
 1.25140000e-03  2.50099996e+00  3.71214682e+00 -3.40218490e-05 
 1.25640000e-03  2.50099919e+00  3.71206407e+00 -3.40225211e-05 
 1.26140000e-03  2.50099744e+00  3.71208483e+00 -3.40224515e-05 
 1.26640000e-03  2.50099470e+00  3.71220908e+00 -3.40216403e-05 
 1.27140000e-03  2.50099097e+00  3.71243669e+00 -3.40200884e-05 
 1.27640000e-03  2.50098627e+00  3.71276744e+00 -3.40177973e-05 
 1.28140000e-03  2.50098060e+00  3.71320099e+00 -3.40147694e-05 
 1.28640000e-03  2.50097396e+00  3.71373690e+00 -3.40110076e-05 
 1.29140000e-03  2.50096636e+00  3.71437463e+00 -3.40065159e-05 
 1.29640000e-03  2.50095780e+00  3.71511355e+00 -3.40012987e-05 
 1.30140000e-03  2.50094830e+00  3.71595291e+00 -3.39953614e-05 
 1.30640000e-03  2.50093786e+00  3.71689186e+00 -3.39887099e-05 
 1.31140000e-03  2.50092650e+00  3.71792945e+00 -3.39813510e-05 
 1.31640000e-03  2.50091423e+00  3.71906466e+00 -3.39732921e-05 
 1.32140000e-03  2.50090105e+00  3.72029633e+00 -3.39645414e-05 
 1.32640000e-03  2.50088698e+00  3.72162323e+00 -3.39551077e-05 
 1.33140000e-03  2.50087204e+00  3.72304402e+00 -3.39450006e-05 
 1.33640000e-03  2.50085623e+00  3.72455728e+00 -3.39342302e-05 
 1.34140000e-03  2.50083958e+00  3.72616148e+00 -3.39228074e-05 
 1.34640000e-03  2.50082210e+00  3.72785502e+00 -3.39107437e-05 
 1.35140000e-03  2.50080382e+00  3.72963619e+00 -3.38980514e-05 
 1.35640000e-03  2.50078473e+00  3.73150321e+00 -3.38847432e-05 
 1.36140000e-03  2.50076488e+00  3.73345420e+00 -3.38708325e-05 
 1.36640000e-03  2.50074426e+00  3.73548720e+00 -3.38563334e-05 
 1.37140000e-03  2.50072292e+00  3.73760019e+00 -3.38412605e-05 
 1.37640000e-03  2.50070086e+00  3.73979102e+00 -3.38256289e-05 
 1.38140000e-03  2.50067811e+00  3.74205752e+00 -3.38094544e-05 
 1.38640000e-03  2.50065469e+00  3.74439741e+00 -3.37927533e-05 
 1.39140000e-03  2.50063062e+00  3.74680835e+00 -3.37755423e-05 
 1.39640000e-03  2.50060593e+00  3.74928791e+00 -3.37578388e-05 
 1.40140000e-03  2.50058065e+00  3.75183363e+00 -3.37396605e-05 
 1.40640000e-03  2.50055479e+00  3.75444294e+00 -3.37210257e-05 
 1.41140000e-03  2.50052838e+00  3.75711325e+00 -3.37019532e-05 
 1.41640000e-03  2.50050145e+00  3.75984188e+00 -3.36824620e-05 
 1.42140000e-03  2.50047403e+00  3.76262611e+00 -3.36625717e-05 
 1.42640000e-03  2.50044614e+00  3.76546315e+00 -3.36423022e-05 
 1.43140000e-03  2.50041780e+00  3.76835017e+00 -3.36216738e-05 
 1.43640000e-03  2.50038906e+00  3.77128429e+00 -3.36007072e-05 
 1.44140000e-03  2.50035993e+00  3.77426258e+00 -3.35794234e-05 
 1.44640000e-03  2.50033045e+00  3.77728207e+00 -3.35578436e-05 
 1.45140000e-03  2.50030064e+00  3.78033976e+00 -3.35359894e-05 
 1.45640000e-03  2.50027053e+00  3.78343259e+00 -3.35138826e-05 
 1.46140000e-03  2.50024016e+00  3.78655750e+00 -3.34915452e-05 
 1.46640000e-03  2.50020955e+00  3.78971136e+00 -3.34689995e-05 
 1.47140000e-03  2.50017873e+00  3.79289105e+00 -3.34462681e-05 
 1.47640000e-03  2.50014774e+00  3.79609340e+00 -3.34233734e-05 
 1.48140000e-03  2.50011660e+00  3.79931524e+00 -3.34003383e-05 
 1.48640000e-03  2.50008535e+00  3.80255337e+00 -3.33771857e-05 
 1.49140000e-03  2.50005401e+00  3.80580457e+00 -3.33539385e-05 
