 time            v(vin)          v(vout_final)   i(vdd)         
 0.00000000e+00  2.50000000e+00  3.87035911e+00 -3.18957546e-05 
 1.00000000e-08  2.50000006e+00  3.87035911e+00 -3.18957546e-05 
 2.00000000e-08  2.50000013e+00  3.87035911e+00 -3.18957546e-05 
 4.00000000e-08  2.50000025e+00  3.87035911e+00 -3.18957546e-05 
 8.00000000e-08  2.50000050e+00  3.87035911e+00 -3.18957548e-05 
 1.60000000e-07  2.50000101e+00  3.87035911e+00 -3.18957555e-05 
 3.20000000e-07  2.50000201e+00  3.87035909e+00 -3.18957582e-05 
 6.40000000e-07  2.50000402e+00  3.87035888e+00 -3.18957667e-05 
 1.28000000e-06  2.50000804e+00  3.87035613e+00 -3.18957935e-05 
 2.28000000e-06  2.50001433e+00  3.87033712e+00 -3.18958901e-05 
 3.28000000e-06  2.50002061e+00  3.87028765e+00 -3.18961301e-05 
 4.28000000e-06  2.50002689e+00  3.87019566e+00 -3.18966125e-05 
 5.28000000e-06  2.50003317e+00  3.87005445e+00 -3.18974100e-05 
 6.28000000e-06  2.50003945e+00  3.86986237e+00 -3.18985572e-05 
 7.28000000e-06  2.50004573e+00  3.86962147e+00 -3.19000562e-05 
 8.28000000e-06  2.50005200e+00  3.86933604e+00 -3.19018869e-05 
 9.28000000e-06  2.50005827e+00  3.86901145e+00 -3.19040163e-05 
 1.02800000e-05  2.50006455e+00  3.86865338e+00 -3.19064059e-05 
 1.12800000e-05  2.50007082e+00  3.86826727e+00 -3.19090163e-05 
 1.22800000e-05  2.50007708e+00  3.86785808e+00 -3.19118107e-05 
 1.32800000e-05  2.50008334e+00  3.86743012e+00 -3.19147558e-05 
 1.42800000e-05  2.50008960e+00  3.86698710e+00 -3.19178229e-05 
 1.52800000e-05  2.50009586e+00  3.86653207e+00 -3.19209878e-05 
 1.62800000e-05  2.50010211e+00  3.86606757e+00 -3.19242304e-05 
 1.72800000e-05  2.50010836e+00  3.86559563e+00 -3.19275342e-05 
 1.82800000e-05  2.50011460e+00  3.86511790e+00 -3.19308858e-05 
 1.92800000e-05  2.50012084e+00  3.86463570e+00 -3.19342746e-05 
 2.02800000e-05  2.50012708e+00  3.86415007e+00 -3.19376921e-05 
 2.12800000e-05  2.50013331e+00  3.86366185e+00 -3.19411315e-05 
 2.22800000e-05  2.50013953e+00  3.86317167e+00 -3.19445874e-05 
 2.32800000e-05  2.50014575e+00  3.86268005e+00 -3.19480557e-05 
 2.42800000e-05  2.50015196e+00  3.86218740e+00 -3.19515331e-05 
 2.52800000e-05  2.50015817e+00  3.86169404e+00 -3.19550169e-05 
 2.62800000e-05  2.50016437e+00  3.86120021e+00 -3.19585050e-05 
 2.72800000e-05  2.50017057e+00  3.86070613e+00 -3.19619958e-05 
 2.82800000e-05  2.50017675e+00  3.86021193e+00 -3.19654881e-05 
 2.92800000e-05  2.50018294e+00  3.85971777e+00 -3.19689808e-05 
 3.02800000e-05  2.50018911e+00  3.85922372e+00 -3.19724731e-05 
 3.12800000e-05  2.50019528e+00  3.85872989e+00 -3.19759643e-05 
 3.22800000e-05  2.50020143e+00  3.85823634e+00 -3.19794538e-05 
 3.32800000e-05  2.50020758e+00  3.85774312e+00 -3.19829412e-05 
 3.42800000e-05  2.50021373e+00  3.85725029e+00 -3.19864262e-05 
 3.52800000e-05  2.50021986e+00  3.85675788e+00 -3.19899083e-05 
 3.62800000e-05  2.50022598e+00  3.85626594e+00 -3.19933873e-05 
 3.72800000e-05  2.50023210e+00  3.85577450e+00 -3.19968630e-05 
 3.82800000e-05  2.50023821e+00  3.85528358e+00 -3.20003351e-05 
 3.92800000e-05  2.50024431e+00  3.85479322e+00 -3.20038035e-05 
 4.02800000e-05  2.50025039e+00  3.85430343e+00 -3.20072678e-05 
 4.12800000e-05  2.50025647e+00  3.85381426e+00 -3.20107281e-05 
 4.22800000e-05  2.50026254e+00  3.85332571e+00 -3.20141840e-05 
 4.32800000e-05  2.50026860e+00  3.85283781e+00 -3.20176355e-05 
 4.42800000e-05  2.50027464e+00  3.85235058e+00 -3.20210823e-05 
 4.52800000e-05  2.50028068e+00  3.85186404e+00 -3.20245244e-05 
 4.62800000e-05  2.50028671e+00  3.85137821e+00 -3.20279615e-05 
 4.72800000e-05  2.50029272e+00  3.85089312e+00 -3.20313936e-05 
 4.82800000e-05  2.50029872e+00  3.85040878e+00 -3.20348205e-05 
 4.92800000e-05  2.50030471e+00  3.84992521e+00 -3.20382420e-05 
 5.02800000e-05  2.50031069e+00  3.84944244e+00 -3.20416580e-05 
 5.12800000e-05  2.50031666e+00  3.84896048e+00 -3.20450684e-05 
 5.22800000e-05  2.50032261e+00  3.84847934e+00 -3.20484731e-05 
 5.32800000e-05  2.50032855e+00  3.84799906e+00 -3.20518718e-05 
 5.42800000e-05  2.50033448e+00  3.84751965e+00 -3.20552645e-05 
 5.52800000e-05  2.50034039e+00  3.84704113e+00 -3.20586510e-05 
 5.62800000e-05  2.50034629e+00  3.84656351e+00 -3.20620313e-05 
 5.72800000e-05  2.50035218e+00  3.84608683e+00 -3.20654050e-05 
 5.82800000e-05  2.50035806e+00  3.84561108e+00 -3.20687722e-05 
 5.92800000e-05  2.50036391e+00  3.84513631e+00 -3.20721327e-05 
 6.02800000e-05  2.50036976e+00  3.84466251e+00 -3.20754863e-05 
 6.12800000e-05  2.50037559e+00  3.84418972e+00 -3.20788330e-05 
 6.22800000e-05  2.50038141e+00  3.84371795e+00 -3.20821725e-05 
 6.32800000e-05  2.50038721e+00  3.84324722e+00 -3.20855048e-05 
 6.42800000e-05  2.50039299e+00  3.84277755e+00 -3.20888297e-05 
 6.52800000e-05  2.50039876e+00  3.84230896e+00 -3.20921470e-05 
 6.62800000e-05  2.50040452e+00  3.84184146e+00 -3.20954568e-05 
 6.72800000e-05  2.50041025e+00  3.84137508e+00 -3.20987587e-05 
 6.82800000e-05  2.50041598e+00  3.84090983e+00 -3.21020528e-05 
 6.92800000e-05  2.50042168e+00  3.84044574e+00 -3.21053388e-05 
 7.02800000e-05  2.50042737e+00  3.83998281e+00 -3.21086166e-05 
 7.12800000e-05  2.50043304e+00  3.83952107e+00 -3.21118862e-05 
 7.22800000e-05  2.50043870e+00  3.83906054e+00 -3.21151473e-05 
 7.32800000e-05  2.50044433e+00  3.83860124e+00 -3.21183998e-05 
 7.42800000e-05  2.50044996e+00  3.83814318e+00 -3.21216437e-05 
 7.52800000e-05  2.50045556e+00  3.83768638e+00 -3.21248787e-05 
 7.62800000e-05  2.50046114e+00  3.83723086e+00 -3.21281048e-05 
 7.72800000e-05  2.50046671e+00  3.83677664e+00 -3.21313218e-05 
 7.82800000e-05  2.50047226e+00  3.83632373e+00 -3.21345296e-05 
 7.92800000e-05  2.50047778e+00  3.83587216e+00 -3.21377280e-05 
 8.02800000e-05  2.50048329e+00  3.83542194e+00 -3.21409170e-05 
 8.12800000e-05  2.50048879e+00  3.83497310e+00 -3.21440964e-05 
 8.22800000e-05  2.50049426e+00  3.83452564e+00 -3.21472661e-05 
 8.32800000e-05  2.50049971e+00  3.83407958e+00 -3.21504259e-05 
 8.42800000e-05  2.50050514e+00  3.83363495e+00 -3.21535758e-05 
 8.52800000e-05  2.50051055e+00  3.83319176e+00 -3.21567156e-05 
 8.62800000e-05  2.50051595e+00  3.83275003e+00 -3.21598451e-05 
 8.72800000e-05  2.50052132e+00  3.83230978e+00 -3.21629643e-05 
 8.82800000e-05  2.50052667e+00  3.83187102e+00 -3.21660731e-05 
 8.92800000e-05  2.50053200e+00  3.83143377e+00 -3.21691712e-05 
 9.02800000e-05  2.50053731e+00  3.83099805e+00 -3.21722587e-05 
 9.12800000e-05  2.50054260e+00  3.83056388e+00 -3.21753353e-05 
 9.22800000e-05  2.50054787e+00  3.83013127e+00 -3.21784009e-05 
 9.32800000e-05  2.50055311e+00  3.82970024e+00 -3.21814554e-05 
 9.42800000e-05  2.50055834e+00  3.82927081e+00 -3.21844988e-05 
 9.52800000e-05  2.50056354e+00  3.82884299e+00 -3.21875308e-05 
 9.62800000e-05  2.50056872e+00  3.82841681e+00 -3.21905513e-05 
 9.72800000e-05  2.50057387e+00  3.82799227e+00 -3.21935603e-05 
 9.82800000e-05  2.50057901e+00  3.82756940e+00 -3.21965576e-05 
 9.92800000e-05  2.50058412e+00  3.82714822e+00 -3.21995431e-05 
 1.00280000e-04  2.50058921e+00  3.82672873e+00 -3.22025166e-05 
 1.01280000e-04  2.50059427e+00  3.82631096e+00 -3.22054781e-05 
 1.02280000e-04  2.50059931e+00  3.82589493e+00 -3.22084274e-05 
 1.03280000e-04  2.50060433e+00  3.82548064e+00 -3.22113645e-05 
 1.04280000e-04  2.50060933e+00  3.82506812e+00 -3.22142891e-05 
 1.05280000e-04  2.50061430e+00  3.82465738e+00 -3.22172012e-05 
 1.06280000e-04  2.50061924e+00  3.82424844e+00 -3.22201007e-05 
 1.07280000e-04  2.50062416e+00  3.82384132e+00 -3.22229875e-05 
 1.08280000e-04  2.50062906e+00  3.82343602e+00 -3.22258613e-05 
 1.09280000e-04  2.50063393e+00  3.82303258e+00 -3.22287222e-05 
 1.10280000e-04  2.50063878e+00  3.82263100e+00 -3.22315700e-05 
 1.11280000e-04  2.50064360e+00  3.82223130e+00 -3.22344045e-05 
 1.12280000e-04  2.50064840e+00  3.82183349e+00 -3.22372258e-05 
 1.13280000e-04  2.50065317e+00  3.82143760e+00 -3.22400336e-05 
 1.14280000e-04  2.50065791e+00  3.82104363e+00 -3.22428279e-05 
 1.15280000e-04  2.50066263e+00  3.82065161e+00 -3.22456085e-05 
 1.16280000e-04  2.50066732e+00  3.82026154e+00 -3.22483753e-05 
 1.17280000e-04  2.50067199e+00  3.81987345e+00 -3.22511282e-05 
 1.18280000e-04  2.50067663e+00  3.81948735e+00 -3.22538672e-05 
 1.19280000e-04  2.50068124e+00  3.81910326e+00 -3.22565920e-05 
 1.20280000e-04  2.50068583e+00  3.81872118e+00 -3.22593027e-05 
 1.21280000e-04  2.50069039e+00  3.81834114e+00 -3.22619990e-05 
 1.22280000e-04  2.50069492e+00  3.81796315e+00 -3.22646809e-05 
 1.23280000e-04  2.50069942e+00  3.81758723e+00 -3.22673482e-05 
 1.24280000e-04  2.50070390e+00  3.81721339e+00 -3.22700009e-05 
 1.25280000e-04  2.50070835e+00  3.81684164e+00 -3.22726389e-05 
 1.26280000e-04  2.50071277e+00  3.81647201e+00 -3.22752620e-05 
 1.27280000e-04  2.50071716e+00  3.81610450e+00 -3.22778701e-05 
 1.28280000e-04  2.50072153e+00  3.81573913e+00 -3.22804632e-05 
 1.29280000e-04  2.50072586e+00  3.81537591e+00 -3.22830411e-05 
 1.30280000e-04  2.50073017e+00  3.81501487e+00 -3.22856037e-05 
 1.31280000e-04  2.50073445e+00  3.81465601e+00 -3.22881510e-05 
 1.32280000e-04  2.50073870e+00  3.81429934e+00 -3.22906828e-05 
 1.33280000e-04  2.50074292e+00  3.81394489e+00 -3.22931990e-05 
 1.34280000e-04  2.50074711e+00  3.81359267e+00 -3.22956995e-05 
 1.35280000e-04  2.50075127e+00  3.81324268e+00 -3.22981843e-05 
 1.36280000e-04  2.50075541e+00  3.81289495e+00 -3.23006531e-05 
 1.37280000e-04  2.50075951e+00  3.81254949e+00 -3.23031060e-05 
 1.38280000e-04  2.50076358e+00  3.81220631e+00 -3.23055429e-05 
 1.39280000e-04  2.50076762e+00  3.81186543e+00 -3.23079635e-05 
 1.40280000e-04  2.50077163e+00  3.81152685e+00 -3.23103679e-05 
 1.41280000e-04  2.50077561e+00  3.81119060e+00 -3.23127559e-05 
 1.42280000e-04  2.50077957e+00  3.81085669e+00 -3.23151274e-05 
 1.43280000e-04  2.50078349e+00  3.81052512e+00 -3.23174824e-05 
 1.44280000e-04  2.50078737e+00  3.81019592e+00 -3.23198208e-05 
 1.45280000e-04  2.50079123e+00  3.80986910e+00 -3.23221424e-05 
 1.46280000e-04  2.50079506e+00  3.80954466e+00 -3.23244471e-05 
 1.47280000e-04  2.50079885e+00  3.80922263e+00 -3.23267350e-05 
 1.48280000e-04  2.50080262e+00  3.80890301e+00 -3.23290058e-05 
 1.49280000e-04  2.50080635e+00  3.80858582e+00 -3.23312594e-05 
 1.50280000e-04  2.50081005e+00  3.80827106e+00 -3.23334959e-05 
 1.51280000e-04  2.50081372e+00  3.80795877e+00 -3.23357151e-05 
 1.52280000e-04  2.50081735e+00  3.80764894e+00 -3.23379169e-05 
 1.53280000e-04  2.50082096e+00  3.80734158e+00 -3.23401012e-05 
 1.54280000e-04  2.50082453e+00  3.80703672e+00 -3.23422680e-05 
 1.55280000e-04  2.50082807e+00  3.80673436e+00 -3.23444171e-05 
 1.56280000e-04  2.50083157e+00  3.80643451e+00 -3.23465485e-05 
 1.57280000e-04  2.50083505e+00  3.80613719e+00 -3.23486621e-05 
 1.58280000e-04  2.50083849e+00  3.80584241e+00 -3.23507578e-05 
 1.59280000e-04  2.50084190e+00  3.80555018e+00 -3.23528355e-05 
 1.60280000e-04  2.50084527e+00  3.80526051e+00 -3.23548951e-05 
 1.61280000e-04  2.50084861e+00  3.80497341e+00 -3.23569366e-05 
 1.62280000e-04  2.50085192e+00  3.80468890e+00 -3.23589598e-05 
 1.63280000e-04  2.50085519e+00  3.80440698e+00 -3.23609647e-05 
 1.64280000e-04  2.50085843e+00  3.80412768e+00 -3.23629512e-05 
 1.65280000e-04  2.50086164e+00  3.80385099e+00 -3.23649193e-05 
 1.66280000e-04  2.50086481e+00  3.80357693e+00 -3.23668687e-05 
 1.67280000e-04  2.50086795e+00  3.80330551e+00 -3.23687996e-05 
 1.68280000e-04  2.50087105e+00  3.80303675e+00 -3.23707117e-05 
 1.69280000e-04  2.50087412e+00  3.80277064e+00 -3.23726051e-05 
 1.70280000e-04  2.50087715e+00  3.80250721e+00 -3.23744796e-05 
 1.71280000e-04  2.50088015e+00  3.80224646e+00 -3.23763351e-05 
 1.72280000e-04  2.50088312e+00  3.80198841e+00 -3.23781717e-05 
 1.73280000e-04  2.50088605e+00  3.80173306e+00 -3.23799891e-05 
 1.74280000e-04  2.50088894e+00  3.80148043e+00 -3.23817874e-05 
 1.75280000e-04  2.50089180e+00  3.80123052e+00 -3.23835665e-05 
 1.76280000e-04  2.50089463e+00  3.80098334e+00 -3.23853262e-05 
 1.77280000e-04  2.50089742e+00  3.80073891e+00 -3.23870666e-05 
 1.78280000e-04  2.50090017e+00  3.80049724e+00 -3.23887875e-05 
 1.79280000e-04  2.50090289e+00  3.80025833e+00 -3.23904890e-05 
 1.80280000e-04  2.50090557e+00  3.80002219e+00 -3.23921708e-05 
 1.81280000e-04  2.50090822e+00  3.79978883e+00 -3.23938330e-05 
 1.82280000e-04  2.50091083e+00  3.79955827e+00 -3.23954755e-05 
 1.83280000e-04  2.50091341e+00  3.79933051e+00 -3.23970981e-05 
 1.84280000e-04  2.50091595e+00  3.79910556e+00 -3.23987010e-05 
 1.85280000e-04  2.50091845e+00  3.79888343e+00 -3.24002839e-05 
 1.86280000e-04  2.50092092e+00  3.79866412e+00 -3.24018469e-05 
 1.87280000e-04  2.50092335e+00  3.79844766e+00 -3.24033898e-05 
 1.88280000e-04  2.50092574e+00  3.79823404e+00 -3.24049126e-05 
 1.89280000e-04  2.50092810e+00  3.79802327e+00 -3.24064153e-05 
 1.90280000e-04  2.50093042e+00  3.79781537e+00 -3.24078977e-05 
 1.91280000e-04  2.50093271e+00  3.79761034e+00 -3.24093598e-05 
 1.92280000e-04  2.50093495e+00  3.79740819e+00 -3.24108017e-05 
 1.93280000e-04  2.50093717e+00  3.79720893e+00 -3.24122231e-05 
 1.94280000e-04  2.50093934e+00  3.79701256e+00 -3.24136240e-05 
 1.95280000e-04  2.50094148e+00  3.79681910e+00 -3.24150045e-05 
 1.96280000e-04  2.50094357e+00  3.79662855e+00 -3.24163643e-05 
 1.97280000e-04  2.50094564e+00  3.79644091e+00 -3.24177036e-05 
 1.98280000e-04  2.50094766e+00  3.79625620e+00 -3.24190222e-05 
 1.99280000e-04  2.50094965e+00  3.79607443e+00 -3.24203200e-05 
 2.00280000e-04  2.50095160e+00  3.79589560e+00 -3.24215971e-05 
 2.01280000e-04  2.50095351e+00  3.79571971e+00 -3.24228533e-05 
 2.02280000e-04  2.50095539e+00  3.79554678e+00 -3.24240887e-05 
 2.03280000e-04  2.50095722e+00  3.79537682e+00 -3.24253031e-05 
 2.04280000e-04  2.50095902e+00  3.79520982e+00 -3.24264966e-05 
 2.05280000e-04  2.50096078e+00  3.79504580e+00 -3.24276690e-05 
 2.06280000e-04  2.50096251e+00  3.79488476e+00 -3.24288203e-05 
 2.07280000e-04  2.50096419e+00  3.79472671e+00 -3.24299505e-05 
 2.08280000e-04  2.50096584e+00  3.79457165e+00 -3.24310596e-05 
 2.09280000e-04  2.50096745e+00  3.79441959e+00 -3.24321474e-05 
 2.10280000e-04  2.50096902e+00  3.79427055e+00 -3.24332140e-05 
 2.11280000e-04  2.50097055e+00  3.79412451e+00 -3.24342593e-05 
 2.12280000e-04  2.50097205e+00  3.79398150e+00 -3.24352832e-05 
 2.13280000e-04  2.50097350e+00  3.79384150e+00 -3.24362857e-05 
 2.14280000e-04  2.50097492e+00  3.79370454e+00 -3.24372669e-05 
 2.15280000e-04  2.50097630e+00  3.79357062e+00 -3.24382266e-05 
 2.16280000e-04  2.50097764e+00  3.79343974e+00 -3.24391647e-05 
 2.17280000e-04  2.50097894e+00  3.79331190e+00 -3.24400813e-05 
 2.18280000e-04  2.50098020e+00  3.79318712e+00 -3.24409764e-05 
 2.19280000e-04  2.50098143e+00  3.79306539e+00 -3.24418498e-05 
 2.20280000e-04  2.50098262e+00  3.79294672e+00 -3.24427016e-05 
 2.21280000e-04  2.50098376e+00  3.79283112e+00 -3.24435318e-05 
 2.22280000e-04  2.50098487e+00  3.79271859e+00 -3.24443402e-05 
 2.23280000e-04  2.50098594e+00  3.79260914e+00 -3.24451268e-05 
 2.24280000e-04  2.50098697e+00  3.79250276e+00 -3.24458917e-05 
 2.25280000e-04  2.50098796e+00  3.79239947e+00 -3.24466348e-05 
 2.26280000e-04  2.50098891e+00  3.79229927e+00 -3.24473560e-05 
 2.27280000e-04  2.50098983e+00  3.79220216e+00 -3.24480553e-05 
 2.28280000e-04  2.50099070e+00  3.79210815e+00 -3.24487328e-05 
 2.29280000e-04  2.50099154e+00  3.79201723e+00 -3.24493884e-05 
 2.30280000e-04  2.50099233e+00  3.79192942e+00 -3.24500219e-05 
 2.31280000e-04  2.50099309e+00  3.79184472e+00 -3.24506336e-05 
 2.32280000e-04  2.50099381e+00  3.79176313e+00 -3.24512232e-05 
 2.33280000e-04  2.50099449e+00  3.79168465e+00 -3.24517908e-05 
 2.34280000e-04  2.50099513e+00  3.79160929e+00 -3.24523363e-05 
 2.35280000e-04  2.50099573e+00  3.79153704e+00 -3.24528598e-05 
 2.36280000e-04  2.50099629e+00  3.79146792e+00 -3.24533612e-05 
 2.37280000e-04  2.50099681e+00  3.79140193e+00 -3.24538405e-05 
 2.38280000e-04  2.50099729e+00  3.79133906e+00 -3.24542976e-05 
 2.39280000e-04  2.50099773e+00  3.79127933e+00 -3.24547326e-05 
 2.40280000e-04  2.50099814e+00  3.79122273e+00 -3.24551455e-05 
 2.41280000e-04  2.50099850e+00  3.79116926e+00 -3.24555361e-05 
 2.42280000e-04  2.50099882e+00  3.79111893e+00 -3.24559046e-05 
 2.43280000e-04  2.50099911e+00  3.79107174e+00 -3.24562509e-05 
 2.44280000e-04  2.50099935e+00  3.79102769e+00 -3.24565749e-05 
 2.45280000e-04  2.50099956e+00  3.79098679e+00 -3.24568767e-05 
 2.46280000e-04  2.50099973e+00  3.79094902e+00 -3.24571562e-05 
 2.47280000e-04  2.50099985e+00  3.79091441e+00 -3.24574135e-05 
 2.48280000e-04  2.50099994e+00  3.79088294e+00 -3.24576485e-05 
 2.49280000e-04  2.50099999e+00  3.79085463e+00 -3.24578612e-05 
 2.50280000e-04  2.50100000e+00  3.79082946e+00 -3.24580516e-05 
 2.51280000e-04  2.50099997e+00  3.79080744e+00 -3.24582198e-05 
 2.52280000e-04  2.50099990e+00  3.79078858e+00 -3.24583656e-05 
 2.53280000e-04  2.50099979e+00  3.79077286e+00 -3.24584891e-05 
 2.54280000e-04  2.50099964e+00  3.79076031e+00 -3.24585903e-05 
 2.55280000e-04  2.50099945e+00  3.79075090e+00 -3.24586692e-05 
 2.56280000e-04  2.50099922e+00  3.79074465e+00 -3.24587258e-05 
 2.57280000e-04  2.50099895e+00  3.79074156e+00 -3.24587600e-05 
 2.58280000e-04  2.50099865e+00  3.79074161e+00 -3.24587719e-05 
 2.59280000e-04  2.50099830e+00  3.79074483e+00 -3.24587615e-05 
 2.60280000e-04  2.50099791e+00  3.79075119e+00 -3.24587288e-05 
 2.61280000e-04  2.50099749e+00  3.79076072e+00 -3.24586737e-05 
 2.62280000e-04  2.50099702e+00  3.79077339e+00 -3.24585963e-05 
 2.63280000e-04  2.50099652e+00  3.79078922e+00 -3.24584966e-05 
 2.64280000e-04  2.50099598e+00  3.79080820e+00 -3.24583746e-05 
 2.65280000e-04  2.50099539e+00  3.79083034e+00 -3.24582302e-05 
 2.66280000e-04  2.50099477e+00  3.79085562e+00 -3.24580636e-05 
 2.67280000e-04  2.50099411e+00  3.79088405e+00 -3.24578747e-05 
 2.68280000e-04  2.50099341e+00  3.79091564e+00 -3.24576634e-05 
 2.69280000e-04  2.50099267e+00  3.79095037e+00 -3.24574299e-05 
 2.70280000e-04  2.50099189e+00  3.79098825e+00 -3.24571741e-05 
 2.71280000e-04  2.50099107e+00  3.79102927e+00 -3.24568961e-05 
 2.72280000e-04  2.50099022e+00  3.79107343e+00 -3.24565958e-05 
 2.73280000e-04  2.50098932e+00  3.79112074e+00 -3.24562733e-05 
 2.74280000e-04  2.50098839e+00  3.79117119e+00 -3.24559285e-05 
 2.75280000e-04  2.50098741e+00  3.79122477e+00 -3.24555615e-05 
 2.76280000e-04  2.50098640e+00  3.79128149e+00 -3.24551724e-05 
 2.77280000e-04  2.50098535e+00  3.79134134e+00 -3.24547610e-05 
 2.78280000e-04  2.50098425e+00  3.79140432e+00 -3.24543275e-05 
 2.79280000e-04  2.50098312e+00  3.79147043e+00 -3.24538718e-05 
 2.80280000e-04  2.50098196e+00  3.79153967e+00 -3.24533941e-05 
 2.81280000e-04  2.50098075e+00  3.79161203e+00 -3.24528942e-05 
 2.82280000e-04  2.50097950e+00  3.79168750e+00 -3.24523722e-05 
 2.83280000e-04  2.50097822e+00  3.79176610e+00 -3.24518281e-05 
 2.84280000e-04  2.50097689e+00  3.79184781e+00 -3.24512620e-05 
 2.85280000e-04  2.50097553e+00  3.79193262e+00 -3.24506739e-05 
 2.86280000e-04  2.50097413e+00  3.79202055e+00 -3.24500637e-05 
 2.87280000e-04  2.50097269e+00  3.79211158e+00 -3.24494316e-05 
 2.88280000e-04  2.50097121e+00  3.79220570e+00 -3.24487776e-05 
 2.89280000e-04  2.50096970e+00  3.79230293e+00 -3.24481016e-05 
 2.90280000e-04  2.50096814e+00  3.79240324e+00 -3.24474037e-05 
 2.91280000e-04  2.50096655e+00  3.79250665e+00 -3.24466840e-05 
 2.92280000e-04  2.50096492e+00  3.79261314e+00 -3.24459424e-05 
 2.93280000e-04  2.50096325e+00  3.79272270e+00 -3.24451790e-05 
 2.94280000e-04  2.50096155e+00  3.79283535e+00 -3.24443938e-05 
 2.95280000e-04  2.50095980e+00  3.79295106e+00 -3.24435869e-05 
 2.96280000e-04  2.50095802e+00  3.79306984e+00 -3.24427583e-05 
 2.97280000e-04  2.50095620e+00  3.79319168e+00 -3.24419080e-05 
 2.98280000e-04  2.50095434e+00  3.79331658e+00 -3.24410360e-05 
