Title: * sky130 bjt 2-stage ppa sweep ac: ce1 -> ce2 -> output rebias -> ideal opamp follower -> two rc poles
Date: Sat May 23 05:49:00  2026
Command: ngspice-46, Build Mar 29 2026   15:02:07
Plotname: AC Analysis
Flags: complex
No. Variables: 11
No. Points: 721
Variables:
	0	frequency	frequency grid=3
	1	v(vin)	voltage
	2	v(b1_collector)	voltage
	3	v(b2_collector)	voltage
	4	v(vout_drv)	voltage
	5	v(vfilt1)	voltage
	6	v(vout_final)	voltage
	7	gain	notype
	8	gain_vv	notype
	9	gain_db	decibel
	10	phase_deg	phase
Values:
 0	1.000000000000000e-03,0.000000000000000e+00
	1.000000000000000e+00,0.000000000000000e+00
	-1.734794914810778e-07,-1.081244141190909e-03
	-1.169088876262338e-06,3.363595049437540e-10
	-4.181205957685761e-13,-5.509199567242074e-10
	-4.181464745406945e-13,-5.509199567045652e-10
	-4.181582437500974e-13,-5.509199566956323e-10
	-4.181582437500974e-13,-5.509199566956323e-10
	5.509201153904567e-10,0.0
	-1.851782274044635e+02,0.0
	-1.571555344794456e+00,0.0

 1	1.029200527194428e-03,0.000000000000000e+00
	1.000000000000000e+00,0.000000000000000e+00
	-1.837587973131119e-07,-1.112817038442620e-03
	-1.238361742425780e-06,3.666939150231363e-10
	-4.691390167201699e-13,-6.006043783013370e-10
	-4.691680531793329e-13,-6.006043782786545e-10
	-4.691812584491443e-13,-6.006043782683388e-10
	-4.691812584491443e-13,-6.006043782683388e-10
	6.006045615262600e-10,0.0
	-1.844282274741040e+02,0.0
	-1.571577508517819e+00,0.0

 2	1.059253725177289e-03,0.000000000000000e+00
	1.000000000000000e+00,0.000000000000000e+00
	-1.946471902738213e-07,-1.145311880786313e-03
	-1.311739283375470e-06,3.997640183021134e-10
	-5.263826250564893e-13,-6.547695618862247e-10
	-5.264152044986522e-13,-6.547695618600314e-10
	-5.264300210546809e-13,-6.547695618481190e-10
	-5.264300210546809e-13,-6.547695618481190e-10
	6.547697734710612e-10,0.0
	-1.836782275478690e+02,0.0
	-1.571600319433375e+00,0.0

 3	1.090184492385128e-03,0.000000000000000e+00
	1.000000000000000e+00,0.000000000000000e+00
	-2.061807610402668e-07,-1.178755589490591e-03
	-1.389464716310928e-06,4.358165318558586e-10
	-5.906110082405931e-13,-7.138196023648898e-10
	-5.906475629749017e-13,-7.138196023346423e-10
	-5.906641874237271e-13,-7.138196023208860e-10
	-5.906641874237271e-13,-7.138196023208860e-10
	7.138198466992426e-10,0.0
	-1.829282276260062e+02,0.0
	-1.571623796439458e+00,0.0

 4	1.122018454301964e-03,0.000000000000000e+00
	1.000000000000000e+00,0.000000000000000e+00
	-2.183977387961976e-07,-1.213175871938475e-03
	-1.471795669948633e-06,4.751204228098266e-10
	-6.626764373713697e-13,-7.781950376599661e-10
	-6.627174524566335e-13,-7.781950376250369e-10
	-6.627361053944521e-13,-7.781950376091515e-10
	-6.627361053944521e-13,-7.781950376091515e-10
	7.781953198128694e-10,0.0
	-1.821782277087734e+02,0.0
	-1.571647958986240e+00,0.0

 5	1.154781984689459e-03,0.000000000000000e+00
	1.000000000000000e+00,0.000000000000000e+00
	-2.313386179463044e-07,-1.248601244581744e-03
	-1.559005038456505e-06,5.179689149482935e-10
	-7.435351762873369e-13,-8.483761353185638e-10
	-7.435811959684542e-13,-8.483761352782281e-10
	-7.436021249082527e-13,-8.483761352598837e-10
	-7.436021249082527e-13,-8.483761352598837e-10
	8.483764611436462e-10,0.0
	-1.814282277964439e+02,0.0
	-1.571672827091850e+00,0.0

 6	1.188502227437019e-03,0.000000000000000e+00
	1.000000000000000e+00,0.000000000000000e+00
	-2.450462923389763e-07,-1.285061056566125e-03
	-1.651381885986942e-06,5.646816762879195e-10
	-8.342601705879319e-13,-9.248864754979609e-10
	-8.343118055176794e-13,-9.248864754513820e-10
	-8.343352881735768e-13,-9.248864754301985e-10
	-8.343352881735768e-13,-9.248864754301985e-10
	9.248868517548880e-10,0.0
	-1.806782278893096e+02,0.0
	-1.571698421358951e+00,0.0

 7	1.223207119049932e-03,0.000000000000000e+00
	1.000000000000000e+00,0.000000000000000e+00
	-2.595661974421556e-07,-1.322585514046175e-03
	-1.749232404808127e-06,6.156072039367488e-10
	-9.360552849479514e-13,-1.008296857080277e-09
	-9.361132202899613e-13,-1.008296857026488e-09
	-9.361395682623005e-13,-1.008296857002025e-09
	-9.361395682623005e-13,-1.008296857002025e-09
	1.008297291574987e-09,0.0
	-1.799282279876784e+02,0.0
	-1.571724762991815e+00,0.0

 8	1.258925411794168e-03,0.000000000000000e+00
	1.000000000000000e+00,0.000000000000000e+00
	-2.749464609437659e-07,-1.361205705210508e-03
	-1.852880930207179e-06,6.711254240303288e-10
	-1.050271277644227e-12,-1.099229556055909e-09
	-1.050336282164679e-12,-1.099229555993794e-09
	-1.050365845074767e-12,-1.099229555965545e-09
	-1.050365845074767e-12,-1.099229555965545e-09
	1.099230057802560e-09,0.0
	-1.791782280918748e+02,0.0
	-1.571751873813887e+00,0.0

 9	1.295686697517020e-03,0.000000000000000e+00
	1.000000000000000e+00,0.000000000000000e+00
	-2.912380622755244e-07,-1.400953626037021e-03
	-1.962671015528694e-06,7.316505261408834e-10
	-1.178423724265337e-12,-1.198362967944304e-09
	-1.178496660533997e-12,-1.198362967872575e-09
	-1.178529830663360e-12,-1.198362967839954e-09
	-1.178529830663360e-12,-1.198362967839954e-09
	1.198363547352282e-09,0.0
	-1.784282282022469e+02,0.0
	-1.571779776285864e+00,0.0

 10	1.333521432163325e-03,0.000000000000000e+00
	1.000000000000000e+00,0.000000000000000e+00
	-3.084950015894546e-07,-1.441862206801196e-03
	-2.078966570916377e-06,7.976340533073865e-10
	-1.322213128442888e-12,-1.306436668888663e-09
	-1.322294964278866e-12,-1.306436668805832e-09
	-1.322332181774576e-12,-1.306436668768162e-09
	-1.322332181774576e-12,-1.306436668768162e-09
	1.306437337978539e-09,0.0
	-1.776782283191583e+02,0.0
	-1.571808493524305e+00,0.0

 11	1.372460961007563e-03,0.000000000000000e+00
	1.000000000000000e+00,0.000000000000000e+00
	-3.267744787466131e-07,-1.483965339357680e-03
	-2.202153069525563e-06,8.695682707370254e-10
	-1.483547486456734e-12,-1.424256933178019e-09
	-1.483639307770829e-12,-1.424256933082368e-09
	-1.483681066485975e-12,-1.424256933038867e-09
	-1.483681066485975e-12,-1.424256933038867e-09
	1.424257705830931e-09,0.0
	-1.769282284429963e+02,0.0
	-1.571838049320783e+00,0.0

 12	1.412537544622755e-03,0.000000000000000e+00
	1.000000000000000e+00,0.000000000000000e+00
	-3.461370829115403e-07,-1.527297905218405e-03
	-2.332638825209440e-06,9.479898383110590e-10
	-1.664567605133575e-12,-1.552702748361858e-09
	-1.664670630337620e-12,-1.552702748251402e-09
	-1.664717484384428e-12,-1.552702748201168e-09
	-1.664717484384428e-12,-1.552702748201168e-09
	1.552703640607493e-09,0.0
	-1.761782285741733e+02,0.0
	-1.571868468161592e+00,0.0

 13	1.453784385607663e-03,0.000000000000000e+00
	1.000000000000000e+00,0.000000000000000e+00
	-3.666469933811353e-07,-1.571895804451333e-03
	-2.470856345914548e-06,1.033483814295233e-09
	-1.867675508992180e-12,-1.692732372832411e-09
	-1.867791105166591e-12,-1.692732372704858e-09
	-1.867843676269137e-12,-1.692732372646848e-09
	-1.867843676269137e-12,-1.692732372646848e-09
	1.692733403181560e-09,0.0
	-1.754282287131215e+02,0.0
	-1.571899775248035e+00,0.0

 14	1.496235656094435e-03,0.000000000000000e+00
	1.000000000000000e+00,0.000000000000000e+00
	-3.883721923130972e-07,-1.617795985422427e-03
	-2.617263767265633e-06,1.126688020119479e-09
	-2.095566313573350e-12,-1.845390484792268e-09
	-2.095696014607410e-12,-1.845390484644972e-09
	-2.095755000351502e-12,-1.845390484577984e-09
	-2.095755000351502e-12,-1.845390484577984e-09
	1.845391674620861e-09,0.0
	-1.746782288603030e+02,0.0
	-1.571931996517304e+00,0.0

 15	1.539926526059493e-03,0.000000000000000e+00
	1.000000000000000e+00,0.000000000000000e+00
	-4.113846900592687e-07,-1.665036475405770e-03
	-2.772346371098215e-06,1.228297798794941e-09
	-2.351263987898155e-12,-2.011815975944954e-09
	-2.351409514843738e-12,-2.011815975774860e-09
	-2.351475697933434e-12,-2.011815975697502e-09
	-2.351475697933434e-12,-2.011815975697502e-09
	2.011817349937527e-09,0.0
	-1.739282290162089e+02,0.0
	-1.571965158663965e+00,0.0

 16	1.584893192461115e-03,0.000000000000000e+00
	1.000000000000000e+00,0.000000000000000e+00
	-4.357607638513321e-07,-1.713656412089127e-03
	-2.936618193972722e-06,1.339071202467446e-09
	-2.638161480598532e-12,-2.193250448052369e-09
	-2.638324764507362e-12,-2.193250447855946e-09
	-2.638399023150946e-12,-2.193250447766616e-09
	-2.638399023150946e-12,-2.193250447766616e-09
	2.193252034714175e-09,0.0
	-1.731782291813488e+02,0.0
	-1.571999289162074e+00,0.0

 17	1.631172909227840e-03,0.000000000000000e+00
	1.000000000000000e+00,0.000000000000000e+00
	-4.615812106285636e-07,-1.763696075996835e-03
	-3.110623730987605e-06,1.459834647801288e-09
	-2.960065742153512e-12,-2.391047475735397e-09
	-2.960248949700966e-12,-2.391047475508572e-09
	-2.960332269264208e-12,-2.391047475405415e-09
	-2.960332269264208e-12,-2.391047475405415e-09
	2.391049307983788e-09,0.0
	-1.724282293562753e+02,0.0
	-1.572034416287940e+00,0.0

 18	1.678804018122562e-03,0.000000000000000e+00
	1.000000000000000e+00,0.000000000000000e+00
	-4.889316148475861e-07,-1.815196923862297e-03
	-3.294939740562494e-06,1.591489081397824e-09
	-3.321248240666826e-12,-2.606682704637664e-09
	-3.321453802902316e-12,-2.606682704375731e-09
	-3.321547288983639e-12,-2.606682704256607e-09
	-3.321547288983639e-12,-2.606682704256607e-09
	2.606684820485002e-09,0.0
	-1.716782295415671e+02,0.0
	-1.572070569143547e+00,0.0

 19	1.727825980507865e-03,0.000000000000000e+00
	1.000000000000000e+00,0.000000000000000e+00
	-5.179026321596939e-07,-1.868201622972079e-03
	-3.490177156152148e-06,1.735016701233533e-09
	-3.726501641475508e-12,-2.841764860271943e-09
	-3.726732286080929e-12,-2.841764859969468e-09
	-3.726837179181977e-12,-2.841764859831906e-09
	-3.726837179181977e-12,-2.841764859831906e-09
	2.841767303614216e-09,0.0
	-1.709282297378385e+02,0.0
	-1.572107777680668e+00,0.0

 20	1.778279410038925e-03,0.000000000000000e+00
	1.000000000000000e+00,0.000000000000000e+00
	-5.485902898983270e-07,-1.922754086515637e-03
	-3.696983111240185e-06,1.891488284269701e-09
	-4.181203402700502e-12,-3.098047749687012e-09
	-4.181462190184789e-12,-3.098047749337720e-09
	-4.181579882171080e-12,-3.098047749178865e-09
	-4.181579882171080e-12,-3.098047749178865e-09
	3.098050571214509e-09,0.0
	-1.701782299457380e+02,0.0
	-1.572146072725677e+00,0.0

 21	1.830206106311058e-03,0.000000000000000e+00
	1.000000000000000e+00,0.000000000000000e+00
	-5.810963053703901e-07,-1.978899509965101e-03
	-3.916043084315817e-06,2.062071174894269e-09
	-4.691387130596924e-12,-3.377443345483310e-09
	-4.691677494907002e-12,-3.377443345079953e-09
	-4.691809547477069e-12,-3.377443344896512e-09
	-4.691809547477069e-12,-3.377443344896512e-09
	3.377446603732258e-09,0.0
	-1.694282301659572e+02,0.0
	-1.572185486005084e+00,0.0

 22	1.883649089489803e-03,0.000000000000000e+00
	1.000000000000000e+00,0.000000000000000e+00
	-6.155284230080907e-07,-2.036684408518211e-03
	-4.148083170954345e-06,2.248037993801503e-09
	-5.263822641553202e-12,-3.682036049796097e-09
	-5.264148435640205e-12,-3.682036049330307e-09
	-5.264296601048307e-12,-3.682036049118471e-09
	-5.264296601048307e-12,-3.682036049118471e-09
	3.682039812363068e-09,0.0
	-1.686782303992250e+02,0.0
	-1.572226050171825e+00,0.0

 23	1.938652635952210e-03,0.000000000000000e+00
	1.000000000000000e+00,0.000000000000000e+00
	-6.520007714981853e-07,-2.096156655634829e-03
	-4.393872490520188e-06,2.450776132271717e-09
	-5.906105793088478e-12,-4.014098244648426e-09
	-5.906471340033862e-12,-4.014098244110542e-09
	-5.906637584341245e-12,-4.014098243865918e-09
	-5.906637584341245e-12,-4.014098243865918e-09
	4.014102589592723e-09,0.0
	-1.679282306463146e+02,0.0
	-1.572267798832306e+00,0.0

 24	1.995262314968882e-03,0.000000000000000e+00
	1.000000000000000e+00,0.000000000000000e+00
	-6.906342420720119e-07,-2.157365522697803e-03
	-4.654225735476510e-06,2.671798102688276e-09
	-6.626759275849913e-12,-4.376107244688108e-09
	-6.627169426229878e-12,-4.376107244066969e-09
	-6.627355955393098e-12,-4.376107243784481e-09
	-6.627355955393098e-12,-4.376107243784481e-09
	4.376112262151185e-09,0.0
	-1.671782309080473e+02,0.0
	-1.572310766574253e+00,0.0

 25	2.053525026457149e-03,0.000000000000000e+00
	1.000000000000000e+00,0.000000000000000e+00
	-7.315568892110792e-07,-2.220361719832802e-03
	-4.930005871754058e-06,2.912752822511274e-09
	-7.435345704049809e-12,-4.770763778782080e-09
	-7.435805900299211e-12,-4.770763778064801e-09
	-7.436015189441709e-12,-4.770763777738590e-09
	-7.436015189441709e-12,-4.770763777738590e-09
	4.770769572857662e-09,0.0
	-1.664282311852881e+02,0.0
	-1.572354988995357e+00,0.0

 26	2.113489039836650e-03,0.000000000000000e+00
	1.000000000000000e+00,0.000000000000000e+00
	-7.749043550958830e-07,-2.285197437920245e-03
	-5.222126999119010e-06,3.175437915885395e-09
	-8.342594504955228e-12,-5.201012138334144e-09
	-8.343110853585036e-12,-5.201012137505840e-09
	-8.343345679840361e-12,-5.201012137129137e-09
	-8.343345679840361e-12,-5.201012137129137e-09
	5.201018829227763e-09,0.0
	-1.656782314789547e+02,0.0
	-1.572400502732770e+00,0.0

 27	2.175204034019526e-03,0.000000000000000e+00
	1.000000000000000e+00,0.000000000000000e+00
	-8.208203192037709e-07,-2.351926391831787e-03
	-5.531557381029301e-06,3.461813124660299e-09
	-9.360544291168688e-12,-5.670062142643139e-09
	-9.361123643795269e-12,-5.670062141686630e-09
	-9.361387123157777e-12,-5.670062141251621e-09
	-9.361387123157777e-12,-5.670062141251621e-09
	5.670069869165969e-09,0.0
	-1.649282317900210e+02,0.0
	-1.572447345493457e+00,0.0

 28	2.238721138568343e-03,0.000000000000000e+00
	1.000000000000000e+00,0.000000000000000e+00
	-8.694569745480728e-07,-2.420603864931543e-03
	-5.859322654017811e-06,3.774014928874158e-09
	-1.050270260486814e-11,-6.181413085162141e-09
	-1.050335264912955e-11,-6.181413084057582e-09
	-1.050364827780153e-11,-6.181413083555241e-09
	-1.050364827780153e-11,-6.181413083555241e-09
	6.181422007610794e-09,0.0
	-1.641782321195228e+02,0.0
	-1.572495556085429e+00,0.0

 29	2.304092976055850e-03,0.000000000000000e+00
	1.000000000000000e+00,0.000000000000000e+00
	-9.209755321368913e-07,-2.491286754877585e-03
	-6.206509227254812e-06,4.114372485786120e-09
	-1.178422515371918e-11,-6.738879839316209e-09
	-1.178495451528490e-11,-6.738879838040685e-09
	-1.178528621606877e-11,-6.738879837460590e-09
	-1.178528621606877e-11,-6.738879837460590e-09
	6.738890142798298e-09,0.0
	-1.634282324685457e+02,0.0
	-1.572545174449900e+00,0.0

 30	2.371373705661660e-03,0.000000000000000e+00
	1.000000000000000e+00,0.000000000000000e+00
	-9.755467553200037e-07,-2.564033620756200e-03
	-6.574267883518192e-06,4.485425006336042e-09
	-1.322211691670397e-11,-7.346621318589354e-09
	-1.322293527373158e-11,-7.346621317116399e-09
	-1.322330744808282e-11,-7.346621316446516e-09
	-1.322330744808282e-11,-7.346621316446516e-09
	7.346633216863777e-09,0.0
	-1.626782328382517e+02,0.0
	-1.572596241694370e+00,0.0

 31	2.440619068041985e-03,0.000000000000000e+00
	1.000000000000000e+00,0.000000000000000e+00
	-1.033351525801407e-06,-2.638904731598852e-03
	-6.963817593563927e-06,4.889940698715895e-09
	-1.483545778849887e-11,-8.009171503255071e-09
	-1.483637600005654e-11,-8.009171501554131e-09
	-1.483679358648794e-11,-8.009171500780563e-09
	-1.483679358648794e-11,-8.009171500780563e-09
	8.009185243166717e-09,0.0
	-1.619282332298610e+02,0.0
	-1.572648800126681e+00,0.0

 32	2.511886431509585e-03,0.000000000000000e+00
	1.000000000000000e+00,0.000000000000000e+00
	-1.094581443185846e-06,-2.715962116308426e-03
	-7.376449556474786e-06,5.330937420321359e-09
	-1.664565575638510e-11,-8.731473265141683e-09
	-1.664668600654381e-11,-8.731473263177467e-09
	-1.664715454615610e-11,-8.731473262284165e-09
	-1.664715454615610e-11,-8.731473262284165e-09
	8.731489131742521e-09,0.0
	-1.611782336446809e+02,0.0
	-1.572702893290070e+00,0.0

 33	2.585234839562196e-03,0.000000000000000e+00
	1.000000000000000e+00,0.000000000000000e+00
	-1.159439460055566e-06,-2.795269615051642e-03
	-7.813531479460839e-06,5.811705192229972e-09
	-1.867673096933453e-11,-9.518915242858306e-09
	-1.867788692884219e-11,-9.518915240590067e-09
	-1.867841263885054e-11,-9.518915239558497e-09
	-1.867841263885054e-11,-9.518915239558497e-09
	9.518933565321154e-09,0.0
	-1.604282340840736e+02,0.0
	-1.572758565999235e+00,0.0

 34	2.660725059798815e-03,0.000000000000000e+00
	1.000000000000000e+00,0.000000000000000e+00
	-1.228140554671993e-06,-2.876892932143185e-03
	-8.276512111184744e-06,6.335830744068155e-09
	-2.095563446836635e-11,-1.037737204244142e-08
	-2.095693147604892e-11,-1.037737203982211e-08
	-2.095752133228100e-11,-1.037737203863087e-08
	-2.095752133228100e-11,-1.037737203863087e-08
	1.037739320088904e-08,0.0
	-1.596782345495034e+02,0.0
	-1.572815864377464e+00,0.0

 35	2.738419634264367e-03,0.000000000000000e+00
	1.000000000000000e+00,0.000000000000000e+00
	-1.300912443541588e-06,-2.960899690480782e-03
	-8.766926043759677e-06,6.907224272494851e-09
	-2.351260580776049e-11,-1.131324806346037e-08
	-2.351406107405726e-11,-1.131324806043562e-08
	-2.351472290351751e-11,-1.131324805906001e-08
	-2.351472290351751e-11,-1.131324805906001e-08
	1.131327249685157e-08,0.0
	-1.589282350425138e+02,0.0
	-1.572874835894846e+00,0.0

 36	2.818382931264460e-03,0.000000000000000e+00
	1.000000000000000e+00,0.000000000000000e+00
	-1.377996336202430e-06,-3.047359487567401e-03
	-9.286398799253310e-06,7.530148612853591e-09
	-2.638157431226284e-11,-1.233352527742713e-08
	-2.638320714759658e-11,-1.233352527393421e-08
	-2.638394973232489e-11,-1.233352527234567e-08
	-2.638394973232489e-11,-1.233352527234567e-08
	1.233355349266353e-08,0.0
	-1.581782355647363e+02,0.0
	-1.572935529407592e+00,0.0

 37	2.900681198693160e-03,0.000000000000000e+00
	1.000000000000000e+00,0.000000000000000e+00
	-1.459647734732792e-06,-3.136343953167382e-03
	-9.836652217578133e-06,8.209251041641749e-09
	-2.960060929466538e-11,-1.344581531495694e-08
	-2.960244136567761e-11,-1.344581531092338e-08
	-2.960327455928062e-11,-1.344581530908896e-08
	-2.960327455928062e-11,-1.344581530908896e-08
	1.344584789739924e-08,0.0
	-1.574282361179011e+02,0.0
	-1.572997995198510e+00,0.0

 38	2.985382618917966e-03,0.000000000000000e+00
	1.000000000000000e+00,0.000000000000000e+00
	-1.546137280636199e-06,-3.227926808649389e-03
	-1.041951016363448e-05,8.949597947067440e-09
	-3.321242520778754e-11,-1.465841625025558e-08
	-3.321448082483899e-11,-1.465841624559770e-08
	-3.321541568324024e-11,-1.465841624347934e-08
	-3.321541568324024e-11,-1.465841624347934e-08
	1.465845387586760e-08,0.0
	-1.566782367038435e+02,0.0
	-1.573062285018663e+00,0.0

 39	3.072557365267454e-03,0.000000000000000e+00
	1.000000000000000e+00,0.000000000000000e+00
	-1.637751651903554e-06,-3.322183928057887e-03
	-1.103690457261883e-05,9.756712626336718e-09
	-3.726494843376020e-11,-1.598037450653448e-08
	-3.726725487351125e-11,-1.598037450115564e-08
	-3.726830380165511e-11,-1.598037449870940e-08
	-3.726830380165511e-11,-1.598037449870940e-08
	1.598041795590685e-08,0.0
	-1.559282373245078e+02,0.0
	-1.573128452130231e+00,0.0

 40	3.162277660168387e-03,0.000000000000000e+00
	1.000000000000000e+00,0.000000000000000e+00
	-1.734794513234851e-06,-3.419193400974349e-03
	-1.169088185354719e-05,1.063661649168290e-08
	-4.181195323147026e-11,-1.742155234417783e-08
	-4.181454109882181e-11,-1.742155233796645e-08
	-4.181571801527774e-11,-1.742155233514158e-08
	-4.181571801527774e-11,-1.742155233514158e-08
	1.742160251872227e-08,0.0
	-1.551782379819423e+02,0.0
	-1.573196551350644e+00,0.0

 41	3.254617834980467e-03,0.000000000000000e+00
	1.000000000000000e+00,0.000000000000000e+00
	-1.837587522555288e-06,-3.519035597202717e-03
	-1.238360967214510e-05,1.159587399244698e-08
	-4.691377528029814e-11,-1.899270143500308e-08
	-4.691667891449548e-11,-1.899270142783029e-08
	-4.691799943614693e-11,-1.899270142456818e-08
	-4.691799943614693e-11,-1.899270142456818e-08
	1.899275937565327e-08,0.0
	-1.544282386783385e+02,0.0
	-1.573266639097984e+00,0.0

 42	3.349654391578285e-03,0.000000000000000e+00
	1.000000000000000e+00,0.000000000000000e+00
	-1.946471397183725e-06,-3.621793233358840e-03
	-1.311738413574121e-05,1.264164158854242e-08
	-5.263811228883225e-11,-2.070554307168971e-08
