Title: * sky130 bjt 2-stage ppa sweep ac: ce1 -> ce2 -> output rebias -> ideal opamp follower -> two rc poles
Date: Sat May 23 05:49:00  2026
Command: ngspice-46, Build Mar 29 2026   15:02:07
Plotname: AC Analysis
Flags: complex
No. Variables: 11
No. Points: 721
Variables:
	0	frequency	frequency grid=3
	1	v(vin)	voltage
	2	v(b1_collector)	voltage
	3	v(b2_collector)	voltage
	4	v(vout_drv)	voltage
	5	v(vfilt1)	voltage
	6	v(vout_final)	voltage
	7	gain	notype
	8	gain_vv	notype
	9	gain_db	decibel
	10	phase_deg	phase
Values:
 0	1.000000000000000e-03,0.000000000000000e+00
	1.000000000000000e+00,0.000000000000000e+00
	-1.795288361613967e-07,-9.571147279957642e-04
	-9.160685868584341e-07,3.103765623015773e-10
	-1.879199998159256e-13,-2.877913752290750e-10
	-1.879291605796824e-13,-2.877913752230929e-10
	-1.879335003713792e-13,-2.877913752202589e-10
	-1.879335003713792e-13,-2.877913752202589e-10
	2.877914365824119e-10,0.0
	-1.908184426583243e+02,0.0
	-1.571449346620504e+00,0.0

 1	1.029200527194428e-03,0.000000000000000e+00
	1.000000000000000e+00,0.000000000000000e+00
	-1.901665880844943e-07,-9.850629805856087e-04
	-9.703490581179687e-07,3.383677138068565e-10
	-2.108497055744222e-13,-3.137456888770230e-10
	-2.108599841202347e-13,-3.137456888701150e-10
	-2.108648534465219e-13,-3.137456888668424e-10
	-2.108648534465219e-13,-3.137456888668424e-10
	3.137457597267506e-10,0.0
	-1.900684426992041e+02,0.0
	-1.571468415142815e+00,0.0

 2	1.059253725177289e-03,0.000000000000000e+00
	1.000000000000000e+00,0.000000000000000e+00
	-2.014346663882996e-07,-1.013827336700353e-03
	-1.027845848890908e-06,3.688832329142985e-10
	-2.365772581817845e-13,-3.420406782847222e-10
	-2.365887908996577e-13,-3.420406782767449e-10
	-2.365942543735115e-13,-3.420406782729658e-10
	-2.365942543735115e-13,-3.420406782729658e-10
	3.420407601007104e-10,0.0
	-1.893184427425010e+02,0.0
	-1.571488040475953e+00,0.0

 3	1.090184492385128e-03,0.000000000000000e+00
	1.000000000000000e+00,0.000000000000000e+00
	-2.133704202528855e-07,-1.043431626975995e-03
	-1.088749538013931e-06,4.021507784051372e-10
	-2.654440465091750e-13,-3.728874359767589e-10
	-2.654569864312051e-13,-3.728874359675469e-10
	-2.654631165495745e-13,-3.728874359631828e-10
	-2.654631165495745e-13,-3.728874359631828e-10
	3.728875304563871e-10,0.0
	-1.885684427883668e+02,0.0
	-1.571508238879080e+00,0.0

 4	1.122018454301964e-03,0.000000000000000e+00
	1.000000000000000e+00,0.000000000000000e+00
	-2.260134119359237e-07,-1.073900377914933e-03
	-1.153261996822115e-06,4.384185403484700e-10
	-2.978331151561386e-13,-4.065160917302315e-10
	-2.978476339871545e-13,-4.065160917195937e-10
	-2.978545120929503e-13,-4.065160917145541e-10
	-2.978545120929503e-13,-4.065160917145541e-10
	4.065162008336028e-10,0.0
	-1.878184428369489e+02,0.0
	-1.571529027086134e+00,0.0

 5	1.154781984689459e-03,0.000000000000000e+00
	1.000000000000000e+00,0.000000000000000e+00
	-2.394055479052543e-07,-1.105258832204270e-03
	-1.221597058267877e-06,4.779570917030893e-10
	-3.341742472147623e-13,-4.431775294357222e-10
	-3.341905376107413e-13,-4.431775294234378e-10
	-3.341982549722063e-13,-4.431775294176182e-10
	-3.341982549722063e-13,-4.431775294176182e-10
	4.431776554263284e-10,0.0
	-1.870684428884119e+02,0.0
	-1.571550422319692e+00,0.0

 6	1.188502227437019e-03,0.000000000000000e+00
	1.000000000000000e+00,0.000000000000000e+00
	-2.535912177422475e-07,-1.137532969629347e-03
	-1.293981225692089e-06,5.210614069072369e-10
	-3.749496672256661e-13,-4.831452587935774e-10
	-3.749679453501599e-13,-4.831452587793915e-10
	-3.749766043719419e-13,-4.831452587726711e-10
	-3.749766043719419e-13,-4.831452587726711e-10
	4.831454042852577e-10,0.0
	-1.863184429429228e+02,0.0
	-1.571572442305240e+00,0.0

 7	1.223207119049932e-03,0.000000000000000e+00
	1.000000000000000e+00,0.000000000000000e+00
	-2.686174412752540e-07,-1.170749528596860e-03
	-1.370654423588648e-06,5.680530625117522e-10
	-4.207004399980837e-13,-5.267174558062846e-10
	-4.207209483905733e-13,-5.267174557899034e-10
	-4.207306639725711e-13,-5.267174557821428e-10
	-4.207306639725711e-13,-5.267174557821428e-10
	5.267176238174541e-10,0.0
	-1.855684430006643e+02,0.0
	-1.571595105285854e+00,0.0

 8	1.258925411794168e-03,0.000000000000000e+00
	1.000000000000000e+00,0.000000000000000e+00
	-2.845340244315071e-07,-1.204936028287008e-03
	-1.451870792857718e-06,6.192826362779126e-10
	-4.720336502044719e-13,-5.742191872921627e-10
	-4.720566609987165e-13,-5.742191872732456e-10
	-4.720675620607293e-13,-5.742191872642838e-10
	-4.720675620607293e-13,-5.742191872642838e-10
	5.742193813084314e-10,0.0
	-1.848184430618250e+02,0.0
	-1.571618430037319e+00,0.0

 9	1.295686697517020e-03,0.000000000000000e+00
	1.000000000000000e+00,0.000000000000000e+00
	-3.013937243236139e-07,-1.240120791452101e-03
	-1.537899533177139e-06,6.751323226345061e-10
	-5.296304580160334e-13,-6.260048360136629e-10
	-5.296562765511144e-13,-6.260048359918178e-10
	-5.296685077435282e-13,-6.260048359814690e-10
	-5.296685077435282e-13,-6.260048359814690e-10
	6.260050600601515e-10,0.0
	-1.840684431266118e+02,0.0
	-1.571642435883681e+00,0.0

 10	1.333521432163325e-03,0.000000000000000e+00
	1.000000000000000e+00,0.000000000000000e+00
	-3.192524241182597e-07,-1.276332967881371e-03
	-1.629025795291131e-06,7.360187840107403e-10
	-5.942551376749269e-13,-6.824607445152890e-10
	-5.942841065469076e-13,-6.824607444900626e-10
	-5.942978301701145e-13,-6.824607444781119e-10
	-5.942978301701145e-13,-6.824607444781119e-10
	6.824610032401337e-10,0.0
	-1.833184431952383e+02,0.0
	-1.571667142713257e+00,0.0

 11	1.372460961007563e-03,0.000000000000000e+00
	1.000000000000000e+00,0.000000000000000e+00
	-3.381693182663684e-07,-1.313602558550583e-03
	-1.725551626167797e-06,8.023962593134669e-10
	-6.667652189369647e-13,-7.440080973927925e-10
	-6.667977225449250e-13,-7.440080973636618e-10
	-6.668131207029481e-13,-7.440080973498613e-10
	-6.668131207029481e-13,-7.440080973498613e-10
	7.440083961635774e-10,0.0
	-1.825684432679282e+02,0.0
	-1.571692570995112e+00,0.0

 12	1.412537544622755e-03,0.000000000000000e+00
	1.000000000000000e+00,0.000000000000000e+00
	-3.582071087085709e-07,-1.351960440476356e-03
	-1.827796970158295e-06,8.747599527392878e-10
	-7.481228659549972e-13,-8.111060634962296e-10
	-7.481593356017690e-13,-8.111060634625901e-10
	-7.481766126186688e-13,-8.111060634466536e-10
	-7.481766126186688e-13,-8.111060634466536e-10
	8.111064085113436e-10,0.0
	-1.818184433449293e+02,0.0
	-1.571718741796018e+00,0.0

 13	1.453784385607663e-03,0.000000000000000e+00
	1.000000000000000e+00,0.000000000000000e+00
	-3.794322127073714e-07,-1.391438392297965e-03
	-1.936100729485451e-06,9.536497282091874e-10
	-8.394076445976938e-13,-8.842552215128654e-10
	-8.394485642129780e-13,-8.842552214740191e-10
	-8.394679493441042e-13,-8.842552214556159e-10
	-8.394679493441042e-13,-8.842552214556159e-10
	8.842556199300959e-10,0.0
	-1.810684434264899e+02,0.0
	-1.571745676797906e+00,0.0

 14	1.496235656094435e-03,0.000000000000000e+00
	1.000000000000000e+00,0.000000000000000e+00
	-4.019149829929778e-07,-1.432069120603571e-03
	-2.050821887560355e-06,1.039654136977584e-09
	-9.418308476103543e-13,-9.640012944788192e-10
	-9.418767601721635e-13,-9.640012944339597e-10
	-9.418985106462291e-13,-9.640012944127080e-10
	-9.418985106462291e-13,-9.640012944127080e-10
	9.640017545638498e-10,0.0
	-1.803184435128831e+02,0.0
	-1.571773398315829e+00,0.0

 15	1.539926526059493e-03,0.000000000000000e+00
	1.000000000000000e+00,0.000000000000000e+00
	-4.257299409543197e-07,-1.473886287026970e-03
	-2.172340698866355e-06,1.133414808473262e-09
	-1.056751567710569e-12,-1.050939221087094e-09
	-1.056803082450203e-12,-1.050939221035292e-09
	-1.056827486882547e-12,-1.050939221010751e-09
	-1.056827486882547e-12,-1.050939221010751e-09
	1.050939752384988e-09,0.0
	-1.795684436043966e+02,0.0
	-1.571801929316451e+00,0.0

 16	1.584893192461115e-03,0.000000000000000e+00
	1.000000000000000e+00,0.000000000000000e+00
	-4.509560236475209e-07,-1.516924536135473e-03
	-2.301059949345673e-06,1.235631237124389e-09
	-1.185694731894427e-12,-1.145717594161573e-09
	-1.185752532380589e-12,-1.145717594101752e-09
	-1.185779914602920e-12,-1.145717594073413e-09
	-1.185779914602920e-12,-1.145717594073413e-09
	1.145718207694796e-09,0.0
	-1.788184437013324e+02,0.0
	-1.571831293437071e+00,0.0

 17	1.631172909227840e-03,0.000000000000000e+00
	1.000000000000000e+00,0.000000000000000e+00
	-4.776768454400779e-07,-1.561219524131307e-03
	-2.437406291466758e-06,1.347066000879532e-09
	-1.330371336256701e-12,-1.249043499409492e-09
	-1.330436189466017e-12,-1.249043499340412e-09
	-1.330466912823454e-12,-1.249043499307686e-09
	-1.330466912823454e-12,-1.249043499307686e-09
	1.249044207906587e-09,0.0
	-1.780684438040126e+02,0.0
	-1.571861515005209e+00,0.0

 18	1.678804018122562e-03,0.000000000000000e+00
	1.000000000000000e+00,0.000000000000000e+00
	-5.059809751586903e-07,-1.606807948391658e-03
	-2.581831658401048e-06,1.468550450359200e-09
	-1.492701149829719e-12,-1.361687790552749e-09
	-1.492773916324035e-12,-1.361687790472977e-09
	-1.492808388496467e-12,-1.361687790435186e-09
	-1.492808388496467e-12,-1.361687790435186e-09
	1.361688608712412e-09,0.0
	-1.773184439127757e+02,0.0
	-1.571892619058758e+00,0.0

 19	1.727825980507865e-03,0.000000000000000e+00
	1.000000000000000e+00,0.000000000000000e+00
	-5.359622296587680e-07,-1.653727577870741e-03
	-2.734814761991418e-06,1.600990911077675e-09
	-1.674838188702781e-12,-1.484490840189587e-09
	-1.674919834048269e-12,-1.484490840097467e-09
	-1.674958512460007e-12,-1.484490840053826e-09
	-1.674958512460007e-12,-1.484490840053826e-09
	1.484491784985600e-09,0.0
	-1.765684440279844e+02,0.0
	-1.571924631366731e+00,0.0

 20	1.778279410038925e-03,0.000000000000000e+00
	1.000000000000000e+00,0.000000000000000e+00
	-5.677199847895663e-07,-1.702017284390428e-03
	-2.896862679484271e-06,1.745375445011914e-09
	-1.879199298451574e-12,-1.618368809293356e-09
	-1.879290906031177e-12,-1.618368809186978e-09
	-1.879334303920684e-12,-1.618368809136582e-09
	-1.879334303920684e-12,-1.618368809136582e-09
	1.618369900326741e-09,0.0
	-1.758184441500190e+02,0.0
	-1.571957578450605e+00,0.0

 21	1.830206106311058e-03,0.000000000000000e+00
	1.000000000000000e+00,0.000000000000000e+00
	-6.013595047841611e-07,-1.751717074843231e-03
	-3.068512534275654e-06,1.902781221953021e-09
	-2.108496224140377e-12,-1.764320482115973e-09
	-2.108599009529609e-12,-1.764320481993129e-09
	-2.108647702759843e-12,-1.764320481934933e-09
	-2.108647702759843e-12,-1.764320481934933e-09
	1.764321742021632e-09,0.0
	-1.750684442792863e+02,0.0
	-1.571991487606295e+00,0.0

 22	1.883649089489803e-03,0.000000000000000e+00
	1.000000000000000e+00,0.000000000000000e+00
	-6.369922911683622e-07,-1.802868124337777e-03
	-3.250333276253985e-06,2.074382555645630e-09
	-2.365771593454584e-12,-1.923434717492760e-09
	-2.365886920551436e-12,-1.923434717350902e-09
	-2.365941555251184e-12,-1.923434717283698e-09
	-2.365941555251184e-12,-1.923434717283698e-09
	1.923436172409072e-09,0.0
	-1.743184444162097e+02,0.0
	-1.572026386926769e+00,0.0

 23	1.938652635952210e-03,0.000000000000000e+00
	1.000000000000000e+00,0.000000000000000e+00
	-6.747364523418941e-07,-1.855512810309015e-03
	-3.442927567622810e-06,2.261459664650862e-09
	-2.654439290420247e-12,-2.096898572127558e-09
	-2.654568689543235e-12,-2.096898571963743e-09
	-2.654629990680827e-12,-2.096898571886137e-09
	-2.654629990680827e-12,-2.096898571886137e-09
	2.096900252238649e-09,0.0
	-1.735684445612479e+02,0.0
	-1.572062305325322e+00,0.0

 24	1.995262314968882e-03,0.000000000000000e+00
	1.000000000000000e+00,0.000000000000000e+00
	-7.147170950599483e-07,-1.909694747626907e-03
	-3.646933780476375e-06,2.465408223311781e-09
	-2.978329755460732e-12,-2.286006156472603e-09
	-2.978474943655234e-12,-2.286006156283433e-09
	-2.978543724658399e-12,-2.286006156193814e-09
	-2.978543724658399e-12,-2.286006156193814e-09
	2.286008096634554e-09,0.0
	-1.728184447148823e+02,0.0
	-1.572099272559527e+00,0.0

 25	2.053525026457149e-03,0.000000000000000e+00
	1.000000000000000e+00,0.000000000000000e+00
	-7.570667391111061e-07,-1.965458824729674e-03
	-3.863028112732091e-06,2.687749774062432e-09
	-3.341740812878756e-12,-2.492168289260772e-09
	-3.341903716701087e-12,-2.492168289042322e-09
	-3.341980890250617e-12,-2.492168288938832e-09
	-3.341980890250617e-12,-2.492168288938832e-09
	2.492170529724757e-09,0.0
	-1.720684448776203e+02,0.0
	-1.572137319255892e+00,0.0

 26	2.113489039836650e-03,0.000000000000000e+00
	1.000000000000000e+00,0.000000000000000e+00
	-8.019257565662632e-07,-2.022851240811854e-03
	-4.091926829439062e-06,2.930143078763205e-09
	-3.749494700212932e-12,-2.716923022718681e-09
	-3.749677481294501e-12,-2.716923022466418e-09
	-3.749764071434925e-12,-2.716923022346911e-09
	-3.749764071434925e-12,-2.716923022346911e-09
	2.716925609966027e-09,0.0
	-1.713184450499973e+02,0.0
	-1.572176476935230e+00,0.0

 27	2.175204034019526e-03,0.000000000000000e+00
	1.000000000000000e+00,0.000000000000000e+00
	-8.494428370539144e-07,-2.081919544097378e-03
	-4.334388636885475e-06,3.194396493743554e-09
	-4.207002056203117e-12,-2.961947116977087e-09
	-4.207207139933848e-12,-2.961947116685779e-09
	-4.207304295661840e-12,-2.961947116547774e-09
	-4.207304295661840e-12,-2.961947116547774e-09
	2.961950104683587e-09,0.0
	-1.705684452325900e+02,0.0
	-1.572216778038772e+00,0.0

 28	2.238721138568343e-03,0.000000000000000e+00
	1.000000000000000e+00,0.000000000000000e+00
	-8.997754806053379e-07,-2.142712671231126e-03
	-4.591217197391381e-06,3.482481460890469e-09
	-4.720333716458427e-12,-3.229068549291929e-09
	-4.720563824170106e-12,-3.229068548955532e-09
	-4.720672834680910e-12,-3.229068548796166e-09
	-4.720672834680910e-12,-3.229068548796166e-09
	3.229071999441417e-09,0.0
	-1.698184454260024e+02,0.0
	-1.572258255955049e+00,0.0

 29	2.304092976055850e-03,0.000000000000000e+00
	1.000000000000000e+00,0.000000000000000e+00
	-9.530905197031108e-07,-2.205280987821508e-03
	-4.863263793101480e-06,3.796547215414361e-09
	-5.296301269486627e-12,-3.520280151384097e-09
	-5.296559454563171e-12,-3.520280150995632e-09
	-5.296681766357376e-12,-3.520280150811599e-09
	-5.296681766357376e-12,-3.520280150811599e-09
	3.520284135554383e-09,0.0
	-1.690684456308734e+02,0.0
	-1.572300945047545e+00,0.0

 30	2.371373705661660e-03,0.000000000000000e+00
	1.000000000000000e+00,0.000000000000000e+00
	-1.009564672261122e-06,-2.269676330164496e-03
	-5.151430147613278e-06,4.138936820017769e-09
	-5.942547442007389e-12,-3.837754476638752e-09
	-5.942837130401229e-12,-3.837754476190158e-09
	-5.942974366478873e-12,-3.837754475977642e-09
	-5.942974366478873e-12,-3.837754475977642e-09
	3.837759077486593e-09,0.0
	-1.683184458478853e+02,0.0
	-1.572344880683172e+00,0.0

 31	2.440619068041985e-03,0.000000000000000e+00
	1.000000000000000e+00,0.000000000000000e+00
	-1.069385127371812e-06,-2.335952048187625e-03
	-5.456671414803811e-06,4.512204645107220e-09
	-6.667647512917815e-12,-4.183860008084265e-09
	-6.667972548610008e-12,-4.183860007566238e-09
	-6.668126530006704e-12,-4.183860007320826e-09
	-6.668126530006704e-12,-4.183860007320826e-09
	4.183865321060185e-09,0.0
	-1.675684460777572e+02,0.0
	-1.572390099261569e+00,0.0

 32	2.511886431509585e-03,0.000000000000000e+00
	1.000000000000000e+00,0.000000000000000e+00
	-1.132750165760842e-06,-2.404163049648020e-03
	-5.779999344745950e-06,4.919135425434114e-09
	-7.481223101576780e-12,-4.561178828054314e-09
	-7.481587797584058e-12,-4.561178827456106e-09
	-7.481760567534927e-12,-4.561178827172710e-09
	-7.481760567534927e-12,-4.561178827172710e-09
	4.561184963382849e-09,0.0
	-1.668184463212511e+02,0.0
	-1.572436638245254e+00,0.0

 33	2.585234839562196e-03,0.000000000000000e+00
	1.000000000000000e+00,0.000000000000000e+00
	-1.199869817005967e-06,-2.474365845620604e-03
	-6.122485637219638e-06,5.362765035352676e-09
	-8.394069840315806e-12,-4.972525881360318e-09
	-8.394479035921415e-12,-4.972525880669519e-09
	-8.394672886973430e-12,-4.972525880342257e-09
	-8.394672886973430e-12,-4.972525880342257e-09
	4.972532966326761e-09,0.0
	-1.660684465791682e+02,0.0
	-1.572484536190664e+00,0.0

 34	2.660725059798815e-03,0.000000000000000e+00
	1.000000000000000e+00,0.000000000000000e+00
	-1.270966555695005e-06,-2.546618597311016e-03
	-6.485265493911610e-06,5.846403137655960e-09
	-9.418300625259704e-12,-5.420969975663096e-09
	-9.418759750227408e-12,-5.420969974865374e-09
	-9.418977254659945e-12,-5.420969974487458e-09
	-9.418977254659945e-12,-5.420969974487458e-09
	5.420978157254194e-09,0.0
	-1.653184468523704e+02,0.0
	-1.572533832780096e+00,0.0

 35	2.738419634264367e-03,0.000000000000000e+00
	1.000000000000000e+00,0.000000000000000e+00
	-1.346276038840052e-06,-2.620981164242881e-03
	-6.869541381119705e-06,6.373657875014937e-09
	-1.056750634636138e-11,-5.909856675743064e-09
	-1.056802149298474e-11,-5.909856674821867e-09
	-1.056826553694198e-11,-5.909856674385456e-09
	-1.056826553694198e-11,-5.909856674385456e-09
	5.909866123696440e-09,0.0
	-1.645684471417605e+02,0.0
	-1.572584568854580e+00,0.0

 36	2.818382931264460e-03,0.000000000000000e+00
	1.000000000000000e+00,0.000000000000000e+00
	-1.426047886980195e-06,-2.697515153845303e-03
	-7.276587015384598e-06,6.948462788164118e-09
	-1.185693622933701e-11,-6.442833262424196e-09
	-1.185751423327992e-11,-6.442833261360413e-09
	-1.185778805506801e-11,-6.442833260856455e-09
	-1.185778805506801e-11,-6.442833260856455e-09
	6.442844172749778e-09,0.0
	-1.638184474482967e+02,0.0
	-1.572636786447719e+00,0.0

 37	2.900681198693160e-03,0.000000000000000e+00
	1.000000000000000e+00,0.000000000000000e+00
	-1.510546511567970e-06,-2.776283972489642e-03
	-7.707751585283189e-06,7.575106161685346e-09
	-1.330370018254105e-11,-7.023875942365838e-09
	-1.330434871354234e-11,-7.023875941137402e-09
	-1.330465594659944e-11,-7.023875940555440e-09
	-1.330465594659944e-11,-7.023875940555440e-09
	7.023888541412331e-09,0.0
	-1.630684477730005e+02,0.0
	-1.572690528820505e+00,0.0

 38	2.985382618917966e-03,0.000000000000000e+00
	1.000000000000000e+00,0.000000000000000e+00
	-1.600051991385479e-06,-2.857352878020382e-03
	-8.164464223396235e-06,8.258263016345724e-09
	-1.492699583381193e-11,-7.657319511728059e-09
	-1.492772349745740e-11,-7.657319510309484e-09
	-1.492806821856694e-11,-7.657319509637443e-09
	-1.492806821856694e-11,-7.657319509637443e-09
	7.657334060878821e-09,0.0
	-1.623184481169391e+02,0.0
	-1.572745840497163e+00,0.0

 39	3.072557365267454e-03,0.000000000000000e+00
	1.000000000000000e+00,0.000000000000000e+00
	-1.694861000883191e-06,-2.940789033812174e-03
	-8.648238743203219e-06,9.003029986570337e-09
	-1.674836326975035e-11,-8.347889694940496e-09
	-1.674917972166291e-11,-8.347889693302353e-09
	-1.674956650504963e-11,-8.347889692526293e-09
	-1.674956650504963e-11,-8.347889692526293e-09
	8.347906496036288e-09,0.0
	-1.615684484812618e+02,0.0
	-1.572802767302037e+00,0.0

 40	3.162277660168387e-03,0.000000000000000e+00
	1.000000000000000e+00,0.000000000000000e+00
	-1.795287793535020e-06,-3.026661564414497e-03
	-9.160678656712323e-06,9.814963343396976e-09
	-1.879197085784662e-11,-9.100738399921007e-09
	-1.879288693180961e-11,-9.100738398029308e-09
	-1.879332090983628e-11,-9.100738397133129e-09
	-1.879332090983628e-11,-9.100738397133129e-09
	9.100757801522029e-09,0.0
	-1.608184488671674e+02,0.0
	-1.572861356397550e+00,0.0

 41	3.254617834980467e-03,0.000000000000000e+00
	1.000000000000000e+00,0.000000000000000e+00
	-1.901665243449658e-06,-3.115041612810125e-03
	-9.703482489326448e-06,1.070012044639541e-08
	-2.108493594380780e-11,-9.921482152627578e-09
	-2.108596379552155e-11,-9.921482150443078e-09
	-2.108645072679181e-11,-9.921482149408188e-09
	-2.108645072679181e-11,-9.921482149408188e-09
	9.921504557244811e-09,0.0
	-1.600684492759441e+02,0.0
	-1.572921656323277e+00,0.0

 42	3.349654391578285e-03,0.000000000000000e+00
	1.000000000000000e+00,0.000000000000000e+00
	-2.014345948713366e-06,-3.206002399357942e-03
	-1.027844940969770e-05,1.166510493399274e-08
	-2.365768467979198e-11,-1.081624399779481e-08
