Title: * sky130 bjt 2-stage ppa sweep ac: ce1 -> ce2 -> output rebias -> ideal opamp follower -> two rc poles
Date: Sat May 23 05:49:00  2026
Command: ngspice-46, Build Mar 29 2026   15:02:07
Plotname: AC Analysis
Flags: complex
No. Variables: 11
No. Points: 721
Variables:
	0	frequency	frequency grid=3
	1	v(vin)	voltage
	2	v(b1_collector)	voltage
	3	v(b2_collector)	voltage
	4	v(vout_drv)	voltage
	5	v(vfilt1)	voltage
	6	v(vout_final)	voltage
	7	gain	notype
	8	gain_vv	notype
	9	gain_db	decibel
	10	phase_deg	phase
Values:
 0	1.000000000000000e-03,0.000000000000000e+00
	1.000000000000000e+00,0.000000000000000e+00
	-2.151105896581397e-08,-7.425565754327365e-05
	-5.513902336310696e-09,3.028353350777776e-12
	-2.651528089303776e-15,-2.598364011351617e-12
	-2.651610635259213e-15,-2.598364011267379e-12
	-2.651648185065143e-15,-2.598364011229059e-12
	-2.651648185065143e-15,-2.598364011229059e-12
	2.598365364241231e-12,0.0
	-2.317059956294062e+02,0.0
	-1.571816833257079e+00,0.0

 1	1.029200527194428e-03,0.000000000000000e+00
	1.000000000000000e+00,0.000000000000000e+00
	-2.278566922874890e-08,-7.642396151069033e-05
	-5.840621510524796e-09,3.301463829433182e-12
	-2.975063375399650e-15,-2.832696031486572e-12
	-2.975155993481078e-15,-2.832696031389296e-12
	-2.975198125054513e-15,-2.832696031345045e-12
	-2.975198125054513e-15,-2.832696031345045e-12
	2.832697593779091e-12,0.0
	-2.309559957271209e+02,0.0
	-1.571846632580661e+00,0.0

 2	1.059253725177289e-03,0.000000000000000e+00
	1.000000000000000e+00,0.000000000000000e+00
	-2.413580488408372e-08,-7.865558106279830e-05
	-6.186700003198099e-09,3.599204633163791e-12
	-3.338075923273941e-15,-3.088161147446457e-12
	-3.338179842465870e-15,-3.088161147334123e-12
	-3.338227114866664e-15,-3.088161147283023e-12
	-3.338227114866664e-15,-3.088161147283023e-12
	3.088162951553669e-12,0.0
	-2.302059958306287e+02,0.0
	-1.571877302059920e+00,0.0

 3	1.090184492385128e-03,0.000000000000000e+00
	1.000000000000000e+00,0.000000000000000e+00
	-2.556594109099228e-08,-8.095236504498027e-05
	-6.553284924889411e-09,3.923797034595235e-12
	-3.745382684802884e-15,-3.366665233896854e-12
	-3.745499284048474e-15,-3.366665233767133e-12
	-3.745552324552039e-15,-3.366665233708123e-12
	-3.745552324552039e-15,-3.366665233708123e-12
	3.366667317247309e-12,0.0
	-2.294559959402638e+02,0.0
	-1.571908867103836e+00,0.0

 4	1.122018454301964e-03,0.000000000000000e+00
	1.000000000000000e+00,0.000000000000000e+00
	-2.708081817826435e-08,-8.331621628956020e-05
	-6.941591356574019e-09,4.277662630571507e-12
	-4.202388368388074e-15,-3.670286045393822e-12
	-4.202519194886839e-15,-3.670286045244022e-12
	-4.202578707307686e-15,-3.670286045175879e-12
	-4.202578707307686e-15,-3.670286045175879e-12
	3.670288451209330e-12,0.0
	-2.287059960563984e+02,0.0
	-1.571941353863341e+00,0.0

 5	1.154781984689459e-03,0.000000000000000e+00
	1.000000000000000e+00,0.000000000000000e+00
	-2.868545735661578e-08,-8.574909319228463e-05
	-7.352906377149239e-09,4.663441408294308e-12
	-4.715157156022890e-15,-4.001288717227733e-12
	-4.715303945761035e-15,-4.001288717054748e-12
	-4.715370719791946e-15,-4.001288716976056e-12
	-4.715370719791946e-15,-4.001288716976056e-12
	4.001291495420062e-12,0.0
	-2.279559961794129e+02,0.0
	-1.571974789252985e+00,0.0

 6	1.188502227437019e-03,0.000000000000000e+00
	1.000000000000000e+00,0.000000000000000e+00
	-3.038517736193388e-08,-8.825301133474876e-05
	-7.788593329544457e-09,5.084011440712749e-12
	-5.290493171120389e-15,-4.362142664172691e-12
	-5.290657871906244e-15,-4.362142663972931e-12
	-5.290732793596987e-15,-4.362142663882060e-12
	-5.290732793596987e-15,-4.362142663882060e-12
	4.362145872379049e-12,0.0
	-2.272059963097176e+02,0.0
	-1.572009200973238e+00,0.0

 7	1.223207119049932e-03,0.000000000000000e+00
	1.000000000000000e+00,0.000000000000000e+00
	-3.218561208474501e-08,-9.083004515425408e-05
	-8.250096339634556e-09,5.542510358148245e-12
	-5.936030764897104e-15,-4.755540003240833e-12
	-5.936215562207279e-15,-4.755540003010153e-12
	-5.936299625721920e-15,-4.755540002905216e-12
	-5.936299625721920e-15,-4.755540002905216e-12
	4.755543708019620e-12,0.0
	-2.264559964477441e+02,0.0
	-1.572044617533429e+00,0.0

 8	1.258925411794168e-03,0.000000000000000e+00
	1.000000000000000e+00,0.000000000000000e+00
	-3.409272924423260e-08,-9.348232966234394e-05
	-8.738945102902130e-09,6.042358756313726e-12
	-6.660335819329010e-15,-5.184415637863363e-12
	-6.660543165308270e-15,-5.184415637596977e-12
	-6.660637486117090e-15,-5.184415637475799e-12
	-6.660637486117090e-15,-5.184415637475799e-12
	5.184419916075021e-12,0.0
	-2.257059965939508e+02,0.0
	-1.572081068275378e+00,0.0

 9	1.295686697517020e-03,0.000000000000000e+00
	1.000000000000000e+00,0.000000000000000e+00
	-3.611285016883585e-08,-9.621206221363842e-05
	-9.256759954734951e-09,6.587285715381854e-12
	-7.473019410919748e-15,-5.651969153343212e-12
	-7.473252056919378e-15,-5.651969153035595e-12
	-7.473357886600437e-15,-5.651969152895662e-12
	-7.473357886600437e-15,-5.651969152895662e-12
	5.651974093744788e-12,0.0
	-2.249559967488173e+02,0.0
	-1.572118583397693e+00,0.0

 10	1.333521432163325e-03,0.000000000000000e+00
	1.000000000000000e+00,0.000000000000000e+00
	-3.825267074880162e-08,-9.902150432614476e-05
	-9.805257241133507e-09,7.181356620445131e-12
	-8.384865343487847e-15,-6.161688686906877e-12
	-8.385126376574302e-15,-6.161688686551648e-12
	-8.385245119421070e-15,-6.161688686390054e-12
	-8.385245119421070e-15,-6.161688686390054e-12
	6.161694391993399e-12,0.0
	-2.242059969128589e+02,0.0
	-1.572157193980797e+00,0.0

 11	1.372460961007563e-03,0.000000000000000e+00
	1.000000000000000e+00,0.000000000000000e+00
	-4.051928363037614e-08,-1.019129835549072e-04
	-1.038625500766469e-08,7.829003490969183e-12
	-9.407973242285862e-15,-6.717376950451905e-12
	-9.408266126204119e-15,-6.717376950041692e-12
	-9.408399357859532e-15,-6.717376949855086e-12
	-9.408399357859532e-15,-6.717376949855086e-12
	6.717383538582779e-12,0.0
	-2.234559970866247e+02,0.0
	-1.572196932012671e+00,0.0

 12	1.412537544622755e-03,0.000000000000000e+00
	1.000000000000000e+00,0.000000000000000e+00
	-4.292020172498809e-08,-1.048888954202321e-04
	-1.100167902551740e-08,8.535058045492322e-12
	-1.055591910820540e-14,-7.323179600127343e-12
	-1.055624772934059e-14,-7.323179599653636e-12
	-1.055639721770480e-14,-7.323179599438148e-12
	-1.055639721770480e-14,-7.323179599438148e-12
	7.323187207981870e-12,0.0
	-2.227059972706857e+02,0.0
	-1.572237830415358e+00,0.0

 13	1.453784385607663e-03,0.000000000000000e+00
	1.000000000000000e+00,0.000000000000000e+00
	-4.546338311152480e-08,-1.079517053923406e-04
	-1.165356917458314e-08,9.304787748209420e-12
	-1.184393546246490e-14,-7.983616164358097e-12
	-1.184430418141208e-14,-7.983616163811071e-12
	-1.184447191010134e-14,-7.983616163562227e-12
	-1.184447191010134e-14,-7.983616163562227e-12
	7.983624949771055e-12,0.0
	-2.219559974656529e+02,0.0
	-1.572279923072237e+00,0.0

 14	1.496235656094435e-03,0.000000000000000e+00
	1.000000000000000e+00,0.000000000000000e+00
	-4.815725741396712e-08,-1.111039509337253e-04
	-1.234408620478314e-08,1.014393510641910e-11
	-1.328911347223613e-14,-8.703613761083559e-12
	-1.328952718166251e-14,-8.703613760451863e-12
	-1.328971537633043e-14,-8.703613760164505e-12
	-1.328971537633043e-14,-8.703613760164505e-12
	8.703623906319695e-12,0.0
	-2.212059976721710e+02,0.0
	-1.572323244856096e+00,0.0

 15	1.539926526059493e-03,0.000000000000000e+00
	1.000000000000000e+00,0.000000000000000e+00
	-5.101075374223968e-08,-1.143482436014669e-04
	-1.307551889800084e-08,1.105876051195529e-11
	-1.491062973921741e-14,-9.488543855714583e-12
	-1.491109392878476e-14,-9.488543854985109e-12
	-1.491130508665527e-14,-9.488543854653274e-12
	-1.491130508665527e-14,-9.488543854653274e-12
	9.488555571249915e-12,0.0
	-2.204559978909279e+02,0.0
	-1.572367831658018e+00,0.0

 16	1.584893192461115e-03,0.000000000000000e+00
	1.000000000000000e+00,0.000000000000000e+00
	-5.403333028846063e-08,-1.176872712106876e-04
	-1.385029165440607e-08,1.205608894627525e-11
	-1.673000076053854e-14,-1.034426233406256e-11
	-1.673052158974740e-14,-1.034426233322018e-11
	-1.673075851275122e-14,-1.034426233283698e-11
	-1.673075851275122e-14,-1.034426233283698e-11
	1.034427586295099e-11,0.0
	-2.197059981226463e+02,0.0
	-1.572413720417120e+00,0.0

 17	1.631172909227840e-03,0.000000000000000e+00
	1.000000000000000e+00,0.000000000000000e+00
	-5.723500567696195e-08,-1.211238000612910e-04
	-1.467097252826946e-08,1.314336089758236e-11
	-1.877136843844885e-14,-1.127715318916003e-11
	-1.877195281837093e-14,-1.127715318818726e-11
	-1.877221865032535e-14,-1.127715318774475e-11
	-1.877221865032535e-14,-1.127715318774475e-11
	1.127716881207578e-11,0.0
	-2.189559983680898e+02,0.0
	-1.572460949151153e+00,0.0

 18	1.678804018122562e-03,0.000000000000000e+00
	1.000000000000000e+00,0.000000000000000e+00
	-6.062639217179167e-08,-1.246606772295876e-04
	-1.554028173989397e-08,1.432868786983487e-11
	-2.106182042727413e-14,-1.229417614787413e-11
	-2.106247611225758e-14,-1.229417614675079e-11
	-2.106277438058277e-14,-1.229417614623979e-11
	-2.106277438058277e-14,-1.229417614623979e-11
	1.229419418893471e-11,0.0
	-2.182059986280827e+02,0.0
	-1.572509556987999e+00,0.0

 19	1.727825980507865e-03,0.000000000000000e+00
	1.000000000000000e+00,0.000000000000000e+00
	-6.421873085206403e-08,-1.283008329270543e-04
	-1.646110069197965e-08,1.562091289788904e-11
	-2.363174956857463e-14,-1.340291859269431e-11
	-2.363248525913897e-14,-1.340291859139710e-11
	-2.363281992166445e-14,-1.340291859080700e-11
	-2.363281992166445e-14,-1.340291859080700e-11
	1.340293942618474e-11,0.0
	-2.174559989034838e+02,0.0
	-1.572559584198085e+00,0.0

 20	1.778279410038925e-03,0.000000000000000e+00
	1.000000000000000e+00,0.000000000000000e+00
	-6.802392887148445e-08,-1.320472829278594e-04
	-1.743648152017407e-08,1.702967652008171e-11
	-2.651525718375064e-14,-1.461165216593868e-11
	-2.651608264203673e-14,-1.461165216444069e-11
	-2.651645813951909e-14,-1.461165216375926e-11
	-2.651645813951909e-14,-1.461165216375926e-11
	1.461167622407651e-11,0.0
	-2.167059991951959e+02,0.0
	-1.572611072227750e+00,0.0

 21	1.830206106311058e-03,0.000000000000000e+00
	1.000000000000000e+00,0.000000000000000e+00
	-7.205459892534972e-08,-1.359031310669839e-04
	-1.846965720946499e-08,1.856548870041463e-11
	-2.975060557544978e-14,-1.592939447864513e-11
	-2.975153175475670e-14,-1.592939447691528e-11
	-2.975195306980536e-14,-1.592939447612837e-11
	-2.975195306980536e-14,-1.592939447612837e-11
	1.592942226054732e-11,0.0
	-2.159559995041987e+02,0.0
	-1.572664063733573e+00,0.0

 22	1.883649089489803e-03,0.000000000000000e+00
	1.000000000000000e+00,0.000000000000000e+00
	-7.632410105664547e-08,-1.398715718118498e-04
	-1.956405231014153e-08,2.023980723718593e-11
	-3.338072574250051e-14,-1.736597638466557e-11
	-3.338176493262832e-14,-1.736597638266797e-11
	-3.338223765582130e-14,-1.736597638175926e-11
	-3.338223765582130e-14,-1.736597638175926e-11
	1.736600846670332e-11,0.0
	-2.152059998315073e+02,0.0
	-1.572718602617722e+00,0.0

 23	1.938652635952210e-03,0.000000000000000e+00
	1.000000000000000e+00,0.000000000000000e+00
	-8.084658693874911e-08,-1.439558929084912e-04
	-2.072329428853074e-08,2.206512324258640e-11
	-3.745378704477929e-14,-1.893211532157386e-11
	-3.745495303510602e-14,-1.893211531926706e-11
	-3.745548343917310e-14,-1.893211531821771e-11
	-3.745548343917310e-14,-1.893211531821771e-11
	1.893215236933015e-11,0.0
	-2.144560001782146e+02,0.0
	-1.572774734064316e+00,0.0

 24	1.995262314968882e-03,0.000000000000000e+00
	1.000000000000000e+00,0.000000000000000e+00
	-8.563704678238215e-08,-1.481594781053272e-04
	-2.195122555043900e-08,2.405505433142407e-11
	-4.202383637762962e-14,-2.063949526577395e-11
	-4.202514464008673e-14,-2.063949526311011e-11
	-4.202573976314405e-14,-2.063949526189833e-11
	-4.202573976314405e-14,-2.063949526189833e-11
	2.063953804785190e-11,0.0
	-2.137060005454643e+02,0.0
	-1.572832504576863e+00,0.0

 25	2.053525026457149e-03,0.000000000000000e+00
	1.000000000000000e+00,0.000000000000000e+00
	-9.071135902183556e-08,-1.524858099563534e-04
	-2.325191617690731e-08,2.622444621381180e-11
	-4.715151533666433e-14,-2.250085389806738e-11
	-4.715298323103824e-14,-2.250085389499123e-11
	-4.715365096997922e-14,-2.250085389359189e-11
	-4.715365096997922e-14,-2.250085389359189e-11
	2.250090330203587e-11,0.0
	-2.129560009344704e+02,0.0
	-1.572891962016783e+00,0.0

 26	2.113489039836650e-03,0.000000000000000e+00
	1.000000000000000e+00,0.000000000000000e+00
	-9.608634294504394e-08,-1.569384727059838e-04
	-2.462967741458480e-08,2.858948344990510e-11
	-5.290486488935637e-14,-2.453007763000919e-11
	-5.290651189364044e-14,-2.453007762645689e-11
	-5.290726110892184e-14,-2.453007762484096e-11
	-5.290726110892184e-14,-2.453007762484096e-11
	2.453013468081659e-11,0.0
	-2.122060013465328e+02,0.0
	-1.572953155643060e+00,0.0

 27	2.175204034019526e-03,0.000000000000000e+00
	1.000000000000000e+00,0.000000000000000e+00
	-1.017798144426314e-07,-1.615211552585358e-04
	-2.608907596555329e-08,3.116781019312567e-11
	-5.936022823105720e-14,-2.674230520006795e-11
	-5.936207619991069e-14,-2.674230519596584e-11
	-5.936291683312456e-14,-2.674230519409978e-11
	-5.936291683312456e-14,-2.674230519409978e-11
	2.674237108130600e-11,0.0
	-2.114560017830100e+02,0.0
	-1.573016136153049e+00,0.0

 28	2.238721138568343e-03,0.000000000000000e+00
	1.000000000000000e+00,0.000000000000000e+00
	-1.078106450598329e-07,-1.662376542340678e-04
	-2.763494912369871e-08,3.397866182224532e-11
	-6.660326380495889e-14,-2.915404061215467e-11
	-6.660533725970243e-14,-2.915404060741761e-11
	-6.660628046549379e-14,-2.915404060526273e-11
	-6.660628046549379e-14,-2.915404060526273e-11
	2.915411669061345e-11,0.0
	-2.107060022453484e+02,0.0
	-1.573080955724478e+00,0.0

 29	2.304092976055850e-03,0.000000000000000e+00
	1.000000000000000e+00,0.000000000000000e+00
	-1.141988245475559e-07,-1.710918771134990e-04
	-2.927242080802329e-08,3.704300844470745e-11
	-7.473008192848206e-14,-3.178327625924767e-11
	-7.473240838247754e-14,-3.178327625377741e-11
	-7.473346667655833e-14,-3.178327625128899e-11
	-7.473346667655833e-14,-3.178327625128899e-11
	3.178336411327147e-11,0.0
	-2.099560027350795e+02,0.0
	-1.573147668058670e+00,0.0

 30	2.371373705661660e-03,0.000000000000000e+00
	1.000000000000000e+00,0.000000000000000e+00
	-1.209655271197822e-07,-1.760878454756027e-04
	-3.100691854592298e-08,4.038371134156791e-11
	-8.384852010785641e-14,-3.464962715048862e-11
	-8.385113043158895e-14,-3.464962714417166e-11
	-8.385231785681226e-14,-3.464962714129808e-11
	-8.385231785681226e-14,-3.464962714129808e-11
	3.464972860272055e-11,0.0
	-2.092060032538299e+02,0.0
	-1.573216328425035e+00,0.0

 31	2.440619068041985e-03,0.000000000000000e+00
	1.000000000000000e+00,0.000000000000000e+00
	-1.281331816369462e-07,-1.812296983285119e-04
	-3.284419146278624e-08,4.402569352131502e-11
	-9.407957396343632e-14,-3.777447724313459e-11
	-9.408250279414249e-14,-3.777447723583989e-11
	-9.408383510684071e-14,-3.777447723252154e-11
	-9.408383510684071e-14,-3.777447723252154e-11
	3.777459439832963e-11,0.0
	-2.084560038033197e+02,0.0
	-1.573286993706854e+00,0.0

 32	2.511886431509585e-03,0.000000000000000e+00
	1.000000000000000e+00,0.000000000000000e+00
	-1.357255459478857e-07,-1.865216955384698e-04
	-3.479032933748068e-08,4.799612565486115e-11
	-1.055590027527251e-13,-4.118113897091595e-11
	-1.055622889540028e-13,-4.118113896249216e-11
	-1.055637838330621e-13,-4.118113895866018e-11
	-1.055637838330621e-13,-4.118113895866018e-11
	4.118127425960659e-11,0.0
	-2.077060043853682e+02,0.0
	-1.573359722448406e+00,0.0

 33	2.585234839562196e-03,0.000000000000000e+00
	1.000000000000000e+00,0.000000000000000e+00
	-1.437677856366772e-07,-1.919682213586724e-04
	-3.685178278688139e-08,5.232462877878045e-11
	-1.184391307948880e-13,-4.489502715883995e-11
	-1.184428179723866e-13,-4.489502714911231e-11
	-1.184444952538325e-13,-4.489502714468722e-11
	-1.184444952538325e-13,-4.489502714468722e-11
	4.489518338776063e-11,0.0
	-2.069560050019044e+02,0.0
	-1.573434574903464e+00,0.0

 34	2.660725059798815e-03,0.000000000000000e+00
	1.000000000000000e+00,0.000000000000000e+00
	-1.522865574353942e-07,-1.975737880609938e-04
	-3.903538464635224e-08,5.704349527912350e-11
	-1.328908687001508e-13,-4.894384862181186e-11
	-1.328950057801844e-13,-4.894384861057855e-11
	-1.328968877203903e-13,-4.894384860546854e-11
	-1.328968877203903e-13,-4.894384860546854e-11
	4.894402903212802e-11,0.0
	-2.062060056549775e+02,0.0
	-1.573511613085213e+00,0.0

 35	2.738419634264367e-03,0.000000000000000e+00
	1.000000000000000e+00,0.000000000000000e+00
	-1.613100975796224e-07,-2.033430396741143e-04
	-4.134837261713887e-08,6.218792980451504e-11
	-1.491059812242361e-13,-5.335780886154813e-11
	-1.491106231029971e-13,-5.335780884857612e-11
	-1.491127346740086e-13,-5.335780884267516e-11
	-1.491127346740086e-13,-5.335780884267516e-11
	5.335801719609815e-11,0.0
	-2.054560063467450e+02,0.0
	-1.573590900817623e+00,0.0

 36	2.818382931264460e-03,0.000000000000000e+00
	1.000000000000000e+00,0.000000000000000e+00
	-1.708683153988168e-07,-2.092807558302907e-04
	-4.379841325546557e-08,6.779631190537814e-11
	-1.672996318391820e-13,-5.816983740333967e-11
	-1.673048401111699e-13,-5.816983738835982e-11
	-1.673072093320643e-13,-5.816983738154549e-11
	-1.673072093320643e-13,-5.816983738154549e-11
	5.817007798428452e-11,0.0
	-2.047060070795005e+02,0.0
	-1.573672503788322e+00,0.0

 37	2.900681198693160e-03,0.000000000000000e+00
	1.000000000000000e+00,0.000000000000000e+00
	-1.809928924525005e-07,-2.153918557248224e-04
	-4.639362738310961e-08,7.391048235906564e-11
	-1.877132377854459e-13,-6.341583345391337e-11
	-1.877190815607770e-13,-6.341583343661493e-11
	-1.877217398694538e-13,-6.341583342874589e-11
	-1.877217398694538e-13,-6.341583342874589e-11
	6.341611127240509e-11,0.0
	-2.039560078556759e+02,0.0
	-1.573756489603009e+00,0.0

 38	2.985382618917966e-03,0.000000000000000e+00
	1.000000000000000e+00,0.000000000000000e+00
	-1.917173875403209e-07,-2.216814021908467e-04
	-4.914261700358961e-08,8.057605531694879e-11
	-2.106176734889668e-13,-6.913493371280726e-11
	-2.106242303104083e-13,-6.913493369283135e-11
	-2.106272129807443e-13,-6.913493368374431e-11
	-2.106272129807443e-13,-6.913493368374431e-11
	6.913525453253624e-11,0.0
	-2.032060086778403e+02,0.0
	-1.573842927841465e+00,0.0

 39	3.072557365267454e-03,0.000000000000000e+00
	1.000000000000000e+00,0.000000000000000e+00
	-2.030773479339239e-07,-2.281546058929806e-04
	-5.205449381301049e-08,8.784275860162695e-11
	-2.363168648482688e-13,-7.536980433477445e-11
	-2.363242217201671e-13,-7.536980431170661e-11
	-2.363275683300713e-13,-7.536980430121307e-11
	-2.363275683300713e-13,-7.536980430121307e-11
	7.537017481154405e-11,0.0
	-2.024560095487234e+02,0.0
	-1.573931890115188e+00,0.0

 40	3.162277660168387e-03,0.000000000000000e+00
	1.000000000000000e+00,0.000000000000000e+00
	-2.151104272006908e-07,-2.348168296440423e-04
	-5.513890940035968e-08,9.576480469380222e-11
	-2.651518220858264e-13,-8.216695922151427e-11
	-2.651600766285811e-13,-8.216695919487594e-11
	-2.651638315851604e-13,-8.216695918275818e-11
	-2.651638315851604e-13,-8.216695918275818e-11
	8.216738704132334e-11,0.0
	-2.017060104712073e+02,0.0
	-1.574023450126721e+00,0.0

 41	3.254617834980467e-03,0.000000000000000e+00
	1.000000000000000e+00,0.000000000000000e+00
	-2.278565100073203e-07,-2.416735928468480e-04
	-5.840608723696611e-08,1.044012951755019e-10
	-2.975051646733099e-13,-8.957710701647061e-11
	-2.975144264187130e-13,-8.957710698570916e-11
	-2.975186395475161e-13,-8.957710697171582e-11
	-2.975186395475161e-13,-8.957710697171582e-11
	8.957760105496852e-11,0.0
	-2.009560114483513e+02,0.0
	-1.574117683730701e+00,0.0

 42	3.349654391578285e-03,0.000000000000000e+00
	1.000000000000000e+00,0.000000000000000e+00
	-2.413578443191001e-07,-2.487305760661923e-04
	-6.186685656142221e-08,1.138166616475472e-10
	-3.338061983730321e-13,-9.765552939143974e-11
