Title: * sky130 bjt 2-stage ppa sweep ac: ce1 -> ce2 -> output rebias -> ideal opamp follower -> two rc poles
Date: Sat May 23 05:48:59  2026
Command: ngspice-46, Build Mar 29 2026   15:02:07
Plotname: AC Analysis
Flags: complex
No. Variables: 11
No. Points: 721
Variables:
	0	frequency	frequency grid=3
	1	v(vin)	voltage
	2	v(b1_collector)	voltage
	3	v(b2_collector)	voltage
	4	v(vout_drv)	voltage
	5	v(vfilt1)	voltage
	6	v(vout_final)	voltage
	7	gain	notype
	8	gain_vv	notype
	9	gain_db	decibel
	10	phase_deg	phase
Values:
 0	1.000000000000000e-03,0.000000000000000e+00
	1.000000000000000e+00,0.000000000000000e+00
	-2.157854384077549e-07,-1.335111190967456e-03
	-1.782521877190082e-06,4.986066931874455e-10
	-3.325697372530535e-13,-5.599956589444807e-10
	-3.325893940903458e-13,-5.599956589328061e-10
	-3.325974867702873e-13,-5.599956589279997e-10
	-3.325974867702873e-13,-5.599956589279997e-10
	5.599957576975854e-10,0.0
	-1.850363052604298e+02,0.0
	-1.571390255412663e+00,0.0

 1	1.029200527194428e-03,0.000000000000000e+00
	1.000000000000000e+00,0.000000000000000e+00
	-2.285715291189826e-07,-1.374097139480797e-03
	-1.888142931835759e-06,5.435732832973462e-10
	-3.731493791909058e-13,-6.104985742403926e-10
	-3.731714345247778e-13,-6.104985742269108e-10
	-3.731805146608838e-13,-6.104985742213603e-10
	-3.731805146608838e-13,-6.104985742213603e-10
	6.104986882786975e-10,0.0
	-1.842863052969188e+02,0.0
	-1.571407598440628e+00,0.0

 2	1.059253725177289e-03,0.000000000000000e+00
	1.000000000000000e+00,0.000000000000000e+00
	-2.421152432922665e-07,-1.414221498052473e-03
	-2.000022426598736e-06,5.925951622918437e-10
	-4.186804856829365e-13,-6.655560679320960e-10
	-4.187052321741726e-13,-6.655560679165277e-10
	-4.187154202542930e-13,-6.655560679101181e-10
	-4.187154202542930e-13,-6.655560679101181e-10
	6.655561996214752e-10,0.0
	-1.835363053355670e+02,0.0
	-1.571425447894081e+00,0.0

 3	1.090184492385128e-03,0.000000000000000e+00
	1.000000000000000e+00,0.000000000000000e+00
	-2.564614729345773e-07,-1.455517508838412e-03
	-2.118531197267526e-06,6.460380543060987e-10
	-4.697672266612779e-13,-7.255788921455812e-10
	-4.697949926806676e-13,-7.255788921276030e-10
	-4.698064238943886e-13,-7.255788921202014e-10
	-4.698064238943886e-13,-7.255788921202014e-10
	7.255790442181023e-10,0.0
	-1.827863053765079e+02,0.0
	-1.571443818560908e+00,0.0

 4	1.122018454301964e-03,0.000000000000000e+00
	1.000000000000000e+00,0.000000000000000e+00
	-2.716577700711945e-07,-1.498019384682617e-03
	-2.244062053022153e-06,7.043006661162441e-10
	-5.270874919173465e-13,-7.910148424463018e-10
	-5.271186459029618e-13,-7.910148424255410e-10
	-5.271314719354884e-13,-7.910148424169936e-10
	-5.271314719354884e-13,-7.910148424169936e-10
	7.910150180569077e-10,0.0
	-1.820363054198738e+02,0.0
	-1.571462725660807e+00,0.0

 5	1.154781984689459e-03,0.000000000000000e+00
	1.000000000000000e+00,0.000000000000000e+00
	-2.877545043611192e-07,-1.541762337459710e-03
	-2.377031078435001e-06,7.678176616602664e-10
	-5.914018862802130e-13,-8.623520985768338e-10
	-5.914368416263535e-13,-8.623520985528597e-10
	-5.914512326712786e-13,-8.623520985429895e-10
	-5.914512326712786e-13,-8.623520985429895e-10
	8.623523013687958e-10,0.0
	-1.812863054658095e+02,0.0
	-1.571482184857897e+00,0.0

 6	1.188502227437019e-03,0.000000000000000e+00
	1.000000000000000e+00,0.000000000000000e+00
	-3.048050300525805e-07,-1.586782607248161e-03
	-2.517879012623750e-06,8.370629048156599e-10
	-6.635638223727819e-13,-9.401228664777661e-10
	-6.636030429154619e-13,-9.401228664500814e-10
	-6.636191899331289e-13,-9.401228664386835e-10
	-6.636191899331289e-13,-9.401228664386835e-10
	9.401231006582681e-10,0.0
	-1.805363055144683e+02,0.0
	-1.571502212273702e+00,0.0

 7	1.223207119049932e-03,0.000000000000000e+00
	1.000000000000000e+00,0.000000000000000e+00
	-3.228658628307824e-07,-1.633117492353529e-03
	-2.667072710124165e-06,9.125529946254343e-10
	-7.445308448696834e-13,-1.024907348761565e-09
	-7.445748510414473e-13,-1.024907348729595e-09
	-7.445929682928766e-13,-1.024907348716433e-09
	-7.445929682928766e-13,-1.024907348716433e-09
	1.024907619188986e-09,0.0
	-1.797863055660094e+02,0.0
	-1.571522824500496e+00,0.0

 8	1.258925411794168e-03,0.000000000000000e+00
	1.000000000000000e+00,0.000000000000000e+00
	-3.419968671448946e-07,-1.680805380209721e-03
	-2.825106688322266e-06,9.948511193456554e-10
	-8.353773365218141e-13,-1.117338073259605e-09
	-8.354267122575541e-13,-1.117338073222687e-09
	-8.354470401475535e-13,-1.117338073207487e-09
	-8.354470401475535e-13,-1.117338073207487e-09
	1.117338385544315e-09,0.0
	-1.790363056206033e+02,0.0
	-1.571544038615060e+00,0.0

 9	1.295686697517020e-03,0.000000000000000e+00
	1.000000000000000e+00,0.000000000000000e+00
	-3.622614546344486e-07,-1.729885779181175e-03
	-2.992504766578679e-06,1.084571258068066e-09
	-9.373087745491287e-13,-1.218104611936243e-09
	-9.373641750345372e-13,-1.218104611893610e-09
	-9.373869833017239e-13,-1.218104611876058e-09
	-9.373869833017239e-13,-1.218104611876058e-09
	1.218104972556996e-09,0.0
	-1.782863056784333e+02,0.0
	-1.571565872192823e+00,0.0

 10	1.333521432163325e-03,0.000000000000000e+00
	1.000000000000000e+00,0.000000000000000e+00
	-3.837267943135986e-07,-1.780399351294874e-03
	-3.169821802479243e-06,1.182382761265476e-09
	-1.051677726575965e-12,-1.327958725375309e-09
	-1.051739886941442e-12,-1.327958725326078e-09
	-1.051765478237506e-12,-1.327958725305809e-09
	-1.051765478237506e-12,-1.327958725305809e-09
	1.327959141813652e-09,0.0
	-1.775363057396891e+02,0.0
	-1.571588343322424e+00,0.0

 11	1.372460961007563e-03,0.000000000000000e+00
	1.000000000000000e+00,0.000000000000000e+00
	-4.064640352094538e-07,-1.832387945927877e-03
	-3.357645530959974e-06,1.289015344428386e-09
	-1.180001798361960e-12,-1.447719971216005e-09
	-1.180071543437334e-12,-1.447719971159154e-09
	-1.180100257343040e-12,-1.447719971135748e-09
	-1.180100257343040e-12,-1.447719971135748e-09
	1.447720452111494e-09,0.0
	-1.767863058045747e+02,0.0
	-1.571611470620702e+00,0.0

 12	1.412537544622755e-03,0.000000000000000e+00
	1.000000000000000e+00,0.000000000000000e+00
	-4.305485421921685e-07,-1.885894634477322e-03
	-3.556598512410179e-06,1.405264532051656e-09
	-1.323983771486365e-12,-1.578281818382260e-09
	-1.324062026745871e-12,-1.578281818316609e-09
	-1.324094244277080e-12,-1.578281818289580e-09
	-1.324094244277080e-12,-1.578281818289580e-09
	1.578282373711698e-09,0.0
	-1.760363058733066e+02,0.0
	-1.571635273248114e+00,0.0

 13	1.453784385607663e-03,0.000000000000000e+00
	1.000000000000000e+00,0.000000000000000e+00
	-4.560601457797053e-07,-1.940963746045275e-03
	-3.767340196208177e-06,1.531997592584635e-09
	-1.485534198199300e-12,-1.720618312718946e-09
	-1.485622002042046e-12,-1.720618312643133e-09
	-1.485658150705556e-12,-1.720618312611921e-09
	-1.485658150705556e-12,-1.720618312611921e-09
	1.720618954003365e-09,0.0
	-1.752863059461102e+02,0.0
	-1.571659770924610e+00,0.0

 14	1.496235656094435e-03,0.000000000000000e+00
	1.000000000000000e+00,0.000000000000000e+00
	-4.830834067434036e-07,-1.997640904162862e-03
	-3.990569106524780e-06,1.670160008618924e-09
	-1.666796753256818e-12,-1.875791343760848e-09
	-1.666895270785687e-12,-1.875791343673301e-09
	-1.666935830251988e-12,-1.875791343637258e-09
	-1.666935830251988e-12,-1.875791343637258e-09
	1.875792084304530e-09,0.0
	-1.745363060232262e+02,0.0
	-1.571684983945974e+00,0.0

 15	1.539926526059493e-03,0.000000000000000e+00
	1.000000000000000e+00,0.000000000000000e+00
	-5.117078963929424e-07,-2.055973064588082e-03
	-4.227025157644338e-06,1.820782530587151e-09
	-1.870176679144366e-12,-2.044958566848976e-09
	-1.870287217626203e-12,-2.044958566747878e-09
	-1.870332726094397e-12,-2.044958566706256e-09
	-1.870332726094397e-12,-2.044958566706256e-09
	2.044959422015461e-09,0.0
	-1.737863061049138e+02,0.0
	-1.571710933200636e+00,0.0

 16	1.584893192461115e-03,0.000000000000000e+00
	1.000000000000000e+00,0.000000000000000e+00
	-5.420284934694292e-07,-2.116008554207992e-03
	-4.477492106482659e-06,1.984988866598663e-09
	-2.098372702140933e-12,-2.229382039698490e-09
	-2.098496728353156e-12,-2.229382039581745e-09
	-2.098547789692522e-12,-2.229382039533679e-09
	-2.098547789692522e-12,-2.229382039533679e-09
	2.229383027229322e-09,0.0
	-1.730363061914414e+02,0.0
	-1.571737640186975e+00,0.0

 17	1.631172909227840e-03,0.000000000000000e+00
	1.000000000000000e+00,0.000000000000000e+00
	-5.741456986297115e-07,-2.177797111074783e-03
	-4.742800150416079e-06,2.164004065773276e-09
	-2.354412842722152e-12,-2.430437637842976e-09
	-2.354552002415962e-12,-2.430437637708160e-09
	-2.354609294178924e-12,-2.430437637652656e-09
	-2.354609294178924e-12,-2.430437637652656e-09
	2.430438778225766e-09,0.0
	-1.722863062830959e+02,0.0
	-1.571765127031135e+00,0.0

 18	1.678804018122562e-03,0.000000000000000e+00
	1.000000000000000e+00,0.000000000000000e+00
	-6.081659675661098e-07,-2.241389925613807e-03
	-5.023828679046664e-06,2.359163657624756e-09
	-2.641694595490212e-12,-2.649625319204079e-09
	-2.641850735228675e-12,-2.649625319048396e-09
	-2.641915017641492e-12,-2.649625318984301e-09
	-2.641915017641492e-12,-2.649625318984301e-09
	2.649626636097550e-09,0.0
	-1.715363063801805e+02,0.0
	-1.571793416505352e+00,0.0

 19	1.727825980507865e-03,0.000000000000000e+00
	1.000000000000000e+00,0.000000000000000e+00
	-6.442020638631076e-07,-2.306839683030744e-03
	-5.321509189017113e-06,2.571923615672787e-09
	-2.964030011788115e-12,-2.888580314360110e-09
	-2.964205203448886e-12,-2.888580314180331e-09
	-2.964277329499375e-12,-2.888580314106315e-09
	-2.964277329499375e-12,-2.888580314106315e-09
	2.888581835084930e-09,0.0
	-1.707863064830166e+02,0.0
	-1.571822532046821e+00,0.0

 20	1.778279410038925e-03,0.000000000000000e+00
	1.000000000000000e+00,0.000000000000000e+00
	-6.823734327641535e-07,-2.374200606962119e-03
	-5.636828371536418e-06,2.803871219616375e-09
	-3.325696283214753e-12,-3.149085325996286e-09
	-3.325892851482581e-12,-3.149085325788680e-09
	-3.325973778238725e-12,-3.149085325703207e-09
	-3.325973778238725e-12,-3.149085325703207e-09
	3.149087082101867e-09,0.0
	-1.700363065919474e+02,0.0
	-1.571852497777114e+00,0.0

 21	1.830206106311058e-03,0.000000000000000e+00
	1.000000000000000e+00,0.000000000000000e+00
	-7.228065970831876e-07,-2.443528504395226e-03
	-5.970831382858792e-06,3.056736897109142e-09
	-3.731492497255637e-12,-3.433083828553104e-09
	-3.731713050469450e-12,-3.433083828313363e-09
	-3.731803851779083e-12,-3.433083828214660e-09
	-3.731803851779083e-12,-3.433083828214660e-09
	3.433085856472135e-09,0.0
	-1.692863067073322e+02,0.0
	-1.571883338522162e+00,0.0

 22	1.883649089489803e-03,0.000000000000000e+00
	1.000000000000000e+00,0.000000000000000e+00
	-7.656355765775522e-07,-2.514880811904355e-03
	-6.324625308539147e-06,3.332407133472911e-09
	-4.186803318129369e-12,-3.742694567283074e-09
	-4.187050782893278e-12,-3.742694567006226e-09
	-4.187152663633362e-12,-3.742694566892246e-09
	-4.187152663633362e-12,-3.742694566892246e-09
	3.742696909087372e-09,0.0
	-1.685363068295554e+02,0.0
	-1.571915079832823e+00,0.0

 23	1.938652635952210e-03,0.000000000000000e+00
	1.000000000000000e+00,0.000000000000000e+00
	-8.110023321688763e-07,-2.588316643234402e-03
	-6.699382832969037e-06,3.632938545671974e-09
	-4.697670437864928e-12,-4.080227364895023e-09
	-4.697948097882387e-12,-4.080227364575324e-09
	-4.698062409946958e-12,-4.080227364443702e-09
	-4.698062409946958e-12,-4.080227364443702e-09
	4.080230069168356e-09,0.0
	-1.677863069590200e+02,0.0
	-1.571947748006053e+00,0.0

 24	1.995262314968882e-03,0.000000000000000e+00
	1.000000000000000e+00,0.000000000000000e+00
	-8.590572364850859e-07,-2.663896838272360e-03
	-7.096346126332674e-06,3.960573225532103e-09
	-5.270872745702373e-12,-4.448200353694909e-09
	-5.271184285348831e-12,-4.448200353325727e-09
	-5.271312545587764e-12,-4.448200353173733e-09
	-5.271312545587764e-12,-4.448200353173733e-09
	4.448203476540936e-09,0.0
	-1.670363070961560e+02,0.0
	-1.571981370106688e+00,0.0

 25	2.053525026457149e-03,0.000000000000000e+00
	1.000000000000000e+00,0.000000000000000e+00
	-9.099595722858074e-07,-2.741684013453655e-03
	-7.516830961885696e-06,4.317755466684240e-09
	-5.914016279624879e-12,-4.849358761790746e-09
	-5.914365832837063e-12,-4.849358761364422e-09
	-5.914509743183705e-12,-4.849358761188902e-09
	-5.914509743183705e-12,-4.849358761188902e-09
	4.849362367996958e-09,0.0
	-1.662863072414203e+02,0.0
	-1.572015973989868e+00,0.0

 26	2.113489039836650e-03,0.000000000000000e+00
	1.000000000000000e+00,0.000000000000000e+00
	-9.638780604197262e-07,-2.821742613636659e-03
	-7.962231077202890e-06,4.707150000020662e-09
	-6.635635153618309e-12,-5.286695393512362e-09
	-6.636027358748908e-12,-5.286695393020051e-09
	-6.636188828803628e-12,-5.286695392817363e-09
	-6.636188828803628e-12,-5.286695392817363e-09
	5.286699557894178e-09,0.0
	-1.655363073952880e+02,0.0
	-1.572051588324114e+00,0.0

 27	2.175204034019526e-03,0.000000000000000e+00
	1.000000000000000e+00,0.000000000000000e+00
	-1.020991419064780e-06,-2.904138965491411e-03
	-8.434022793817790e-06,5.131661873685080e-09
	-7.445304799865491e-12,-5.763472956813955e-09
	-7.445744861231095e-12,-5.763472956245443e-09
	-7.445926033600453e-12,-5.763472956011382e-09
	-7.445926033600453e-12,-5.763472956011382e-09
	5.763477765766871e-09,0.0
	-1.647863075582742e+02,0.0
	-1.572088242615080e+00,0.0

 28	2.238721138568343e-03,0.000000000000000e+00
	1.000000000000000e+00,0.000000000000000e+00
	-1.081488956106182e-06,-2.988941332448559e-03
	-8.933769910624079e-06,5.594458125951021e-09
	-8.353769028572465e-12,-6.283248404264959e-09
	-8.354262785511467e-12,-6.283248403608451e-09
	-8.354466064239202e-12,-6.283248403338162e-09
	-8.354466064239202e-12,-6.283248403338162e-09
	6.283253957556927e-09,0.0
	-1.640363077309186e+02,0.0
	-1.572125967229993e+00,0.0

 29	2.304092976055850e-03,0.000000000000000e+00
	1.000000000000000e+00,0.000000000000000e+00
	-1.145571196616074e-06,-3.076219971255133e-03
	-9.463128887207526e-06,6.098991412641650e-09
	-9.373082591379996e-12,-6.849899469186712e-09
	-9.373636595736816e-12,-6.849899468428588e-09
	-9.373864678203956e-12,-6.849899468116464e-09
	-9.373864678203956e-12,-6.849899468116464e-09
	6.849905882027958e-09,0.0
	-1.632863079137915e+02,0.0
	-1.572164793422816e+00,0.0

 30	2.371373705661660e-03,0.000000000000000e+00
	1.000000000000000e+00,0.000000000000000e+00
	-1.213450547510641e-06,-3.166047190176372e-03
	-1.002385433430507e-05,6.649025765367330e-09
	-1.051677114008659e-11,-7.467653594910437e-09
	-1.051739274315035e-11,-7.467653594034969e-09
	-1.051764865586768e-11,-7.467653593674535e-09
	-1.051764865586768e-11,-7.467653593674535e-09
	7.467661000343644e-09,0.0
	-1.625363081075009e+02,0.0
	-1.572204753360140e+00,0.0

 31	2.440619068041985e-03,0.000000000000000e+00
	1.000000000000000e+00,0.000000000000000e+00
	-1.285352001592942e-06,-3.258497408901247e-03
	-1.061780482960242e-05,7.248664672765941e-09
	-1.180001070324361e-11,-8.141119472984953e-09
	-1.180070815329495e-11,-8.141119471973981e-09
	-1.180099529206282e-11,-8.141119471557757e-09
	-1.180099529206282e-11,-8.141119471557757e-09
	8.141128024645402e-09,0.0
	-1.617863083126883e+02,0.0
	-1.572245880147830e+00,0.0

 32	2.511886431509585e-03,0.000000000000000e+00
	1.000000000000000e+00,0.000000000000000e+00
	-1.361513883311230e-06,-3.353647220194763e-03
	-1.124694907812150e-05,7.902381694214839e-09
	-1.323982906211704e-11,-8.875321425597711e-09
	-1.324061161387729e-11,-8.875321424430258e-09
	-1.324093378884568e-11,-8.875321423949612e-09
	-1.324093378884568e-11,-8.875321423949612e-09
	8.875331300900636e-09,0.0
	-1.610363085300376e+02,0.0
	-1.572288207858452e+00,0.0

 33	2.585234839562196e-03,0.000000000000000e+00
	1.000000000000000e+00,0.000000000000000e+00
	-1.442188638708325e-06,-3.451575453353987e-03
	-1.191337243766000e-05,8.615053834447940e-09
	-1.485533169818949e-11,-9.675736888741963e-09
	-1.485620973562478e-11,-9.675736887393811e-09
	-1.485657122185140e-11,-9.675736886838768e-09
	-1.485657122185140e-11,-9.675736886838768e-09
	9.675748292563260e-09,0.0
	-1.602863087602600e+02,0.0
	-1.572331771559504e+00,0.0

 34	2.660725059798815e-03,0.000000000000000e+00
	1.000000000000000e+00,0.000000000000000e+00
	-1.527643672173338e-06,-3.552363239509396e-03
	-1.261928383082244e-05,9.391997927982106e-09
	-1.666795531024427e-11,-1.054833727569178e-08
	-1.666894048435376e-11,-1.054833727413496e-08
	-1.666934607853129e-11,-1.054833727349401e-08
	-1.666934607853129e-11,-1.054833727349401e-08
	1.054835044461842e-08,0.0
	-1.595363090041254e+02,0.0
	-1.572376607342464e+00,0.0

 35	2.738419634264367e-03,0.000000000000000e+00
	1.000000000000000e+00,0.000000000000000e+00
	-1.618162232780060e-06,-3.656094078842602e-03
	-1.336702306667574e-05,1.023901030490866e-08
	-1.870175226518349e-11,-1.149963252572957e-08
	-1.870285764860038e-11,-1.149963252393177e-08
	-1.870331273270532e-11,-1.149963252319161e-08
	-1.870331273270532e-11,-1.149963252319161e-08
	1.149964773296789e-08,0.0
	-1.587863092624432e+02,0.0
	-1.572422752352694e+00,0.0

 36	2.818382931264460e-03,0.000000000000000e+00
	1.000000000000000e+00,0.000000000000000e+00
	-1.714044353139377e-06,-3.762853909759456e-03
	-1.415906859620990e-05,1.116241003389162e-08
	-2.098370975692285e-11,-1.253671967040002e-08
	-2.098495001737942e-11,-1.253671966832396e-08
	-2.098546063008731e-11,-1.253671966746924e-08
	-2.098546063008731e-11,-1.253671966746924e-08
	1.253673723144375e-08,0.0
	-1.580363095360643e+02,0.0
	-1.572470244820208e+00,0.0

 37	2.900681198693160e-03,0.000000000000000e+00
	1.000000000000000e+00,0.000000000000000e+00
	-1.815607843882292e-06,-3.872731180084195e-03
	-1.499804572730292e-05,1.216908606497311e-08
	-2.354410790834320e-11,-1.366733577959229e-08
	-2.354549950330165e-11,-1.366733577719489e-08
	-2.354607242011624e-11,-1.366733577620787e-08
	-2.354607242011624e-11,-1.366733577620787e-08
	1.366735605876784e-08,0.0
	-1.572863098258995e+02,0.0
	-1.572519124091349e+00,0.0

 38	2.985382618917966e-03,0.000000000000000e+00
	1.000000000000000e+00,0.000000000000000e+00
	-1.923189347073397e-06,-3.985816920337558e-03
	-1.588673532649569e-05,1.326654862397006e-08
	-2.641692156817338e-11,-1.489991568250165e-08
	-2.641848296320519e-11,-1.489991567973318e-08
	-2.641912578636469e-11,-1.489991567859339e-08
	-2.641912578636469e-11,-1.489991567859339e-08
	1.489993910052657e-08,0.0
	-1.565363101329079e+02,0.0
	-1.572569430661382e+00,0.0

 39	3.072557365267454e-03,0.000000000000000e+00
	1.000000000000000e+00,0.000000000000000e+00
	-2.037145452035466e-06,-4.102204819144615e-03
	-1.682808303633026e-05,1.446298524178302e-08
	-2.964027113419208e-11,-1.624365489399884e-08
	-2.964202304800347e-11,-1.624365489080186e-08
	-2.964274430735709e-11,-1.624365488948565e-08
	-2.964274430735709e-11,-1.624365488948565e-08
	1.624368193671008e-08,0.0
	-1.557863104581094e+02,0.0
	-1.572621206208043e+00,0.0

 40	3.162277660168387e-03,0.000000000000000e+00
	1.000000000000000e+00,0.000000000000000e+00
	-2.157853877298235e-06,-4.221991300854885e-03
	-1.782520903887763e-05,1.576732183671697e-08
	-3.325692838497980e-11,-1.770857821591063e-08
	-3.325889406433464e-11,-1.770857821221882e-08
	-3.325970333052780e-11,-1.770857821069887e-08
	-3.325970333052780e-11,-1.770857821069887e-08
	1.770860944434386e-08,0.0
	-1.550363108025773e+02,0.0
	-1.572674493626068e+00,0.0

 41	3.254617834980467e-03,0.000000000000000e+00
	1.000000000000000e+00,0.000000000000000e+00
	-2.285714722573897e-06,-4.345275605419385e-03
	-1.888141839772326e-05,1.718928930537931e-08
	-3.731488403200998e-11,-1.930561452489398e-08
	-3.731708956019821e-11,-1.930561452063074e-08
	-3.731799757166833e-11,-1.930561451887554e-08
	-3.731799757166833e-11,-1.930561451887554e-08
	1.930565058692301e-08,0.0
	-1.542863111674603e+02,0.0
	-1.572729337062726e+00,0.0

 42	3.349654391578285e-03,0.000000000000000e+00
	1.000000000000000e+00,0.000000000000000e+00
	-2.421151794924541e-06,-4.472159870609413e-03
	-2.000021201283052e-05,1.873949611914011e-08
	-4.186798452337332e-11,-2.104667830496301e-08
