Title: * sky130 bjt 2-stage ppa sweep ac: ce1 -> ce2 -> output rebias -> ideal opamp follower -> two rc poles
Date: Sat May 23 05:48:59  2026
Command: ngspice-46, Build Mar 29 2026   15:02:07
Plotname: AC Analysis
Flags: complex
No. Variables: 11
No. Points: 721
Variables:
	0	frequency	frequency grid=3
	1	v(vin)	voltage
	2	v(b1_collector)	voltage
	3	v(b2_collector)	voltage
	4	v(vout_drv)	voltage
	5	v(vfilt1)	voltage
	6	v(vout_final)	voltage
	7	gain	notype
	8	gain_vv	notype
	9	gain_db	decibel
	10	phase_deg	phase
Values:
 0	1.000000000000000e-03,0.000000000000000e+00
	1.000000000000000e+00,0.000000000000000e+00
	-2.157774227078698e-07,-1.335111190969159e-03
	-1.782521877196691e-06,4.985852894863223e-10
	-3.325630130833486e-13,-5.599956589486694e-10
	-3.325826699206412e-13,-5.599956589369950e-10
	-3.325907626005826e-13,-5.599956589321888e-10
	-3.325907626005826e-13,-5.599956589321888e-10
	5.599957576977809e-10,0.0
	-1.850363052604268e+02,0.0
	-1.571390243405124e+00,0.0

 1	1.029200527194428e-03,0.000000000000000e+00
	1.000000000000000e+00,0.000000000000000e+00
	-2.285630384590409e-07,-1.374097139482654e-03
	-1.888142931843175e-06,5.435499493144046e-10
	-3.731418345485277e-13,-6.104985742452299e-10
	-3.731638898823999e-13,-6.104985742317485e-10
	-3.731729700185059e-13,-6.104985742261982e-10
	-3.731729700185059e-13,-6.104985742261982e-10
	6.104986882789236e-10,0.0
	-1.842863052969155e+02,0.0
	-1.571407586082462e+00,0.0

 2	1.059253725177289e-03,0.000000000000000e+00
	1.000000000000000e+00,0.000000000000000e+00
	-2.421062495291180e-07,-1.414221498054498e-03
	-2.000022426607058e-06,5.925697239456134e-10
	-4.186720204551007e-13,-6.655560679376824e-10
	-4.186967669463369e-13,-6.655560679221144e-10
	-4.187069550264574e-13,-6.655560679157050e-10
	-4.187069550264574e-13,-6.655560679157050e-10
	6.655561996217365e-10,0.0
	-1.835363053355636e+02,0.0
	-1.571425435175051e+00,0.0

 3	1.090184492385128e-03,0.000000000000000e+00
	1.000000000000000e+00,0.000000000000000e+00
	-2.564519462574859e-07,-1.455517508840619e-03
	-2.118531197276862e-06,6.460103218156634e-10
	-4.697577285195967e-13,-7.255788921520319e-10
	-4.697854945389866e-13,-7.255788921340541e-10
	-4.697969257527077e-13,-7.255788921266527e-10
	-4.697969257527077e-13,-7.255788921266527e-10
	7.255790442184036e-10,0.0
	-1.827863053765043e+02,0.0
	-1.571443805470475e+00,0.0

 4	1.122018454301964e-03,0.000000000000000e+00
	1.000000000000000e+00,0.000000000000000e+00
	-2.716476789030271e-07,-1.498019384685023e-03
	-2.244062053032628e-06,7.042704325853940e-10
	-5.270768348273010e-13,-7.910148424537508e-10
	-5.271079888129165e-13,-7.910148424329905e-10
	-5.271208148454434e-13,-7.910148424244433e-10
	-5.271208148454434e-13,-7.910148424244433e-10
	7.910150180572556e-10,0.0
	-1.820363054198700e+02,0.0
	-1.571462712188126e+00,0.0

 5	1.154781984689459e-03,0.000000000000000e+00
	1.000000000000000e+00,0.000000000000000e+00
	-2.877438152536803e-07,-1.541762337462333e-03
	-2.377031078446755e-06,7.677847015339658e-10
	-5.913899288287535e-13,-8.623520985854361e-10
	-5.914248841748945e-13,-8.623520985614626e-10
	-5.914392752198197e-13,-8.623520985515926e-10
	-5.914392752198197e-13,-8.623520985515926e-10
	8.623523013691979e-10,0.0
	-1.812863054658055e+02,0.0
	-1.571482170991808e+00,0.0

 6	1.188502227437019e-03,0.000000000000000e+00
	1.000000000000000e+00,0.000000000000000e+00
	-3.047937075757451e-07,-1.586782607251020e-03
	-2.517879012636940e-06,8.370269721973103e-10
	-6.635504058918641e-13,-9.401228664877004e-10
	-6.635896264345445e-13,-9.401228664600159e-10
	-6.636057734522117e-13,-9.401228664486181e-10
	-6.636057734522117e-13,-9.401228664486181e-10
	9.401231006587323e-10,0.0
	-1.805363055144640e+02,0.0
	-1.571502198002715e+00,0.0

 7	1.223207119049932e-03,0.000000000000000e+00
	1.000000000000000e+00,0.000000000000000e+00
	-3.228538694550589e-07,-1.633117492356647e-03
	-2.667072710138962e-06,9.125138214423817e-10
	-7.445157913308415e-13,-1.024907348773036e-09
	-7.445597975026059e-13,-1.024907348741067e-09
	-7.445779147540355e-13,-1.024907348727905e-09
	-7.445779147540355e-13,-1.024907348727905e-09
	1.024907619189523e-09,0.0
	-1.797863055660048e+02,0.0
	-1.571522809812789e+00,0.0

 8	1.258925411794168e-03,0.000000000000000e+00
	1.000000000000000e+00,0.000000000000000e+00
	-3.419841631170302e-07,-1.680805380213120e-03
	-2.825106688338869e-06,9.948084133492549e-10
	-8.353604461738351e-13,-1.117338073272852e-09
	-8.354098219095757e-13,-1.117338073235934e-09
	-8.354301497995753e-13,-1.117338073220735e-09
	-8.354301497995753e-13,-1.117338073220735e-09
	1.117338385544934e-09,0.0
	-1.790363056205985e+02,0.0
	-1.571544023498464e+00,0.0

 9	1.295686697517020e-03,0.000000000000000e+00
	1.000000000000000e+00,0.000000000000000e+00
	-3.622479978456621e-07,-1.729885779184880e-03
	-2.992504766597309e-06,1.084524700653383e-09
	-9.372898232674771e-13,-1.218104611951541e-09
	-9.373452237528864e-13,-1.218104611908909e-09
	-9.373680320200734e-13,-1.218104611891357e-09
	-9.373680320200734e-13,-1.218104611891357e-09
	1.218104972557711e-09,0.0
	-1.782863056784282e+02,0.0
	-1.571565856634814e+00,0.0

 10	1.333521432163325e-03,0.000000000000000e+00
	1.000000000000000e+00,0.000000000000000e+00
	-3.837125401600080e-07,-1.780399351298914e-03
	-3.169821802500145e-06,1.182332005094357e-09
	-1.051656462888790e-12,-1.327958725392974e-09
	-1.051718623254267e-12,-1.327958725343744e-09
	-1.051744214550332e-12,-1.327958725323475e-09
	-1.051744214550332e-12,-1.327958725323475e-09
	1.327959141814477e-09,0.0
	-1.775363057396837e+02,0.0
	-1.571588327310113e+00,0.0

 11	1.372460961007563e-03,0.000000000000000e+00
	1.000000000000000e+00,0.000000000000000e+00
	-4.064489364442314e-07,-1.832387945932281e-03
	-3.357645530983428e-06,1.288960010838171e-09
	-1.179977940113221e-12,-1.447719971236405e-09
	-1.180047685188596e-12,-1.447719971179554e-09
	-1.180076399094302e-12,-1.447719971156149e-09
	-1.180076399094302e-12,-1.447719971156149e-09
	1.447720452112447e-09,0.0
	-1.767863058045690e+02,0.0
	-1.571611454140823e+00,0.0

 12	1.412537544622755e-03,0.000000000000000e+00
	1.000000000000000e+00,0.000000000000000e+00
	-4.305325487689370e-07,-1.885894634482123e-03
	-3.556598512436492e-06,1.405204208230194e-09
	-1.323957002091798e-12,-1.578281818405816e-09
	-1.324035257351306e-12,-1.578281818340166e-09
	-1.324067474882514e-12,-1.578281818313138e-09
	-1.324067474882514e-12,-1.578281818313138e-09
	1.578282373712798e-09,0.0
	-1.760363058733006e+02,0.0
	-1.571635256287014e+00,0.0

 13	1.453784385607663e-03,0.000000000000000e+00
	1.000000000000000e+00,0.000000000000000e+00
	-4.560432046866543e-07,-1.940963746050509e-03
	-3.767340196237703e-06,1.531931828490531e-09
	-1.485504162445544e-12,-1.720618312746149e-09
	-1.485591966288291e-12,-1.720618312670337e-09
	-1.485628114951803e-12,-1.720618312639126e-09
	-1.485628114951803e-12,-1.720618312639126e-09
	1.720618954004636e-09,0.0
	-1.752863059461038e+02,0.0
	-1.571659753468237e+00,0.0

 14	1.496235656094435e-03,0.000000000000000e+00
	1.000000000000000e+00,0.000000000000000e+00
	-4.830654618275761e-07,-1.997640904168567e-03
	-3.990569106557908e-06,1.670088313624042e-09
	-1.666763052587954e-12,-1.875791343792261e-09
	-1.666861570116825e-12,-1.875791343704716e-09
	-1.666902129583127e-12,-1.875791343668673e-09
	-1.666902129583127e-12,-1.875791343668673e-09
	1.875792084305997e-09,0.0
	-1.745363060232194e+02,0.0
	-1.571684965979866e+00,0.0

 15	1.539926526059493e-03,0.000000000000000e+00
	1.000000000000000e+00,0.000000000000000e+00
	-5.116888881741116e-07,-2.055973064594303e-03
	-4.227025157681508e-06,1.820704369816318e-09
	-1.870138866373332e-12,-2.044958566885251e-09
	-1.870249404855171e-12,-2.044958566784156e-09
	-1.870294913323366e-12,-2.044958566742535e-09
	-1.870294913323366e-12,-2.044958566742535e-09
	2.044959422017157e-09,0.0
	-1.737863061049067e+02,0.0
	-1.571710914709908e+00,0.0

 16	1.584893192461115e-03,0.000000000000000e+00
	1.000000000000000e+00,0.000000000000000e+00
	-5.420083589429440e-07,-2.116008554214774e-03
	-4.477492106524366e-06,1.984903656939276e-09
	-2.098330275515634e-12,-2.229382039740380e-09
	-2.098454301727859e-12,-2.229382039623638e-09
	-2.098505363067226e-12,-2.229382039575574e-09
	-2.098505363067226e-12,-2.229382039575574e-09
	2.229383027231279e-09,0.0
	-1.730363061914338e+02,0.0
	-1.571737621156308e+00,0.0

 17	1.631172909227840e-03,0.000000000000000e+00
	1.000000000000000e+00,0.000000000000000e+00
	-5.741243710576624e-07,-2.177797111082176e-03
	-4.742800150462873e-06,2.163911171525034e-09
	-2.354365239267523e-12,-2.430437637891349e-09
	-2.354504398961336e-12,-2.430437637756536e-09
	-2.354561690724299e-12,-2.430437637701033e-09
	-2.354561690724299e-12,-2.430437637701033e-09
	2.430438778228025e-09,0.0
	-1.722863062830878e+02,0.0
	-1.571765107444762e+00,0.0

 18	1.678804018122562e-03,0.000000000000000e+00
	1.000000000000000e+00,0.000000000000000e+00
	-6.081433762561192e-07,-2.241389925621867e-03
	-5.023828679099170e-06,2.359062385757075e-09
	-2.641641183537904e-12,-2.649625319259941e-09
	-2.641797323276370e-12,-2.649625319104262e-09
	-2.641861605689188e-12,-2.649625319040168e-09
	-2.641861605689188e-12,-2.649625319040168e-09
	2.649626636100161e-09,0.0
	-1.715363063801720e+02,0.0
	-1.571793396347047e+00,0.0

 19	1.727825980507865e-03,0.000000000000000e+00
	1.000000000000000e+00,0.000000000000000e+00
	-6.441781339340136e-07,-2.306839683039530e-03
	-5.321509189076024e-06,2.571813210654493e-09
	-2.963970082594643e-12,-2.888580314424618e-09
	-2.964145274255418e-12,-2.888580314244843e-09
	-2.964217400305909e-12,-2.888580314170828e-09
	-2.964217400305909e-12,-2.888580314170828e-09
	2.888581835087945e-09,0.0
	-1.707863064830076e+02,0.0
	-1.571822511299883e+00,0.0

 20	1.778279410038925e-03,0.000000000000000e+00
	1.000000000000000e+00,0.000000000000000e+00
	-6.823480848978082e-07,-2.374200606971698e-03
	-5.636828371602516e-06,2.803750857779126e-09
	-3.325629041556936e-12,-3.149085326070778e-09
	-3.325825609824768e-12,-3.149085325863176e-09
	-3.325906536580914e-12,-3.149085325777705e-09
	-3.325906536580914e-12,-3.149085325777705e-09
	3.149087082105347e-09,0.0
	-1.700363065919379e+02,0.0
	-1.571852476424354e+00,0.0

 21	1.830206106311058e-03,0.000000000000000e+00
	1.000000000000000e+00,0.000000000000000e+00
	-7.227797472615499e-07,-2.443528504405669e-03
	-5.970831382932956e-06,3.056605680502522e-09
	-3.731417050878483e-12,-3.433083828639126e-09
	-3.731637604092301e-12,-3.433083828399390e-09
	-3.731728405401938e-12,-3.433083828300690e-09
	-3.731728405401938e-12,-3.433083828300690e-09
	3.433085856476154e-09,0.0
	-1.692863067073220e+02,0.0
	-1.571883316545890e+00,0.0

 22	1.883649089489803e-03,0.000000000000000e+00
	1.000000000000000e+00,0.000000000000000e+00
	-7.656071358042024e-07,-2.514880811915740e-03
	-6.324625308622359e-06,3.332264083165332e-09
	-4.186718665906425e-12,-3.742694567382411e-09
	-4.186966130670340e-12,-3.742694567105569e-09
	-4.187068011410426e-12,-3.742694566991591e-09
	-4.187068011410426e-12,-3.742694566991591e-09
	3.742696909092013e-09,0.0
	-1.685363068295447e+02,0.0
	-1.571915057214833e+00,0.0

 23	1.938652635952210e-03,0.000000000000000e+00
	1.000000000000000e+00,0.000000000000000e+00
	-8.109722061740279e-07,-2.588316643246813e-03
	-6.699382833062406e-06,3.632782594447453e-09
	-4.697575456513977e-12,-4.080227365009736e-09
	-4.697853116531445e-12,-4.080227364690044e-09
	-4.697967428596018e-12,-4.080227364558425e-09
	-4.697967428596018e-12,-4.080227364558425e-09
	4.080230069173716e-09,0.0
	-1.677863069590085e+02,0.0
	-1.571947724727606e+00,0.0

 24	1.995262314968882e-03,0.000000000000000e+00
	1.000000000000000e+00,0.000000000000000e+00
	-8.590253254131205e-07,-2.663896838285891e-03
	-7.096346126437433e-06,3.960403209928368e-09
	-5.270766174880195e-12,-4.448200353827378e-09
	-5.271077714526662e-12,-4.448200353458203e-09
	-5.271205974765599e-12,-4.448200353306211e-09
	-5.271205974765599e-12,-4.448200353306211e-09
	4.448203476547125e-09,0.0
	-1.670363070961440e+02,0.0
	-1.571981346148498e+00,0.0

 25	2.053525026457149e-03,0.000000000000000e+00
	1.000000000000000e+00,0.000000000000000e+00
	-9.099257703642929e-07,-2.741684013468406e-03
	-7.516830962003239e-06,4.317570118312825e-09
	-5.913896705203317e-12,-4.849358761943719e-09
	-5.914246258415511e-12,-4.849358761517403e-09
	-5.914390168762157e-12,-4.849358761341885e-09
	-5.914390168762157e-12,-4.849358761341885e-09
	4.849362368004104e-09,0.0
	-1.662863072414075e+02,0.0
	-1.572015949332086e+00,0.0

 26	2.113489039836650e-03,0.000000000000000e+00
	1.000000000000000e+00,0.000000000000000e+00
	-9.638422556088247e-07,-2.821742613652740e-03
	-7.962231077334775e-06,4.706947936104197e-09
	-6.635500988919697e-12,-5.286695393689011e-09
	-6.635893194050308e-12,-5.286695393196709e-09
	-6.636054664105035e-12,-5.286695392994025e-09
	-6.636054664105035e-12,-5.286695392994025e-09
	5.286699557902431e-09,0.0
	-1.655363073952744e+02,0.0
	-1.572051562946312e+00,0.0

 27	2.175204034019526e-03,0.000000000000000e+00
	1.000000000000000e+00,0.000000000000000e+00
	-1.020953492685880e-06,-2.904138965508943e-03
	-8.434022793965772e-06,5.131441586741200e-09
	-7.445154264608485e-12,-5.763472957017949e-09
	-7.445594325974103e-12,-5.763472956449449e-09
	-7.445775498343467e-12,-5.763472956215393e-09
	-7.445775498343467e-12,-5.763472956215393e-09
	5.763477765776405e-09,0.0
	-1.647863075582599e+02,0.0
	-1.572088216496232e+00,0.0

 28	2.238721138568343e-03,0.000000000000000e+00
	1.000000000000000e+00,0.000000000000000e+00
	-1.081448782448529e-06,-2.988941332467672e-03
	-8.933769910790114e-06,5.594217972545920e-09
	-8.353600125248861e-12,-6.283248404500526e-09
	-8.354093882187882e-12,-6.283248403844032e-09
	-8.354297160915625e-12,-6.283248403573751e-09
	-8.354297160915625e-12,-6.283248403573751e-09
	6.283253957567936e-09,0.0
	-1.640363077309034e+02,0.0
	-1.572125940348461e+00,0.0

 29	2.304092976055850e-03,0.000000000000000e+00
	1.000000000000000e+00,0.000000000000000e+00
	-1.145528642520088e-06,-3.076219971275969e-03
	-9.463128887393819e-06,6.098729601129374e-09
	-9.372893078749102e-12,-6.849899469458739e-09
	-9.373447083105944e-12,-6.849899468700631e-09
	-9.373675165573093e-12,-6.849899468388513e-09
	-9.373675165573093e-12,-6.849899468388513e-09
	6.849905882040668e-09,0.0
	-1.632863079137754e+02,0.0
	-1.572164765756330e+00,0.0

 30	2.371373705661660e-03,0.000000000000000e+00
	1.000000000000000e+00,0.000000000000000e+00
	-1.213405471926550e-06,-3.166047190199088e-03
	-1.002385433451410e-05,6.648740342523375e-09
	-1.051655850343545e-11,-7.467653595224567e-09
	-1.051718010649924e-11,-7.467653594349119e-09
	-1.051743601921658e-11,-7.467653593988691e-09
	-1.051743601921658e-11,-7.467653593988691e-09
	7.467661000358320e-09,0.0
	-1.625363081074838e+02,0.0
	-1.572204724885778e+00,0.0

 31	2.440619068041985e-03,0.000000000000000e+00
	1.000000000000000e+00,0.000000000000000e+00
	-1.285304255113255e-06,-3.258497408926011e-03
	-1.061780482983695e-05,7.248353509215371e-09
	-1.179977212101842e-11,-8.141119473347706e-09
	-1.180046957106979e-11,-8.141119472336753e-09
	-1.180075670983767e-11,-8.141119471920538e-09
	-1.180075670983767e-11,-8.141119471920538e-09
	8.141128024662348e-09,0.0
	-1.617863083126702e+02,0.0
	-1.572245850842001e+00,0.0

 32	2.511886431509585e-03,0.000000000000000e+00
	1.000000000000000e+00,0.000000000000000e+00
	-1.361463307675518e-06,-3.353647220221760e-03
	-1.124694907838465e-05,7.902042468546287e-09
	-1.323956136848300e-11,-8.875321426016612e-09
	-1.324034392024329e-11,-8.875321424849181e-09
	-1.324066609521169e-11,-8.875321424368546e-09
	-1.324066609521169e-11,-8.875321424368546e-09
	8.875331300920205e-09,0.0
	-1.610363085300184e+02,0.0
	-1.572288177696878e+00,0.0

 33	2.585234839562196e-03,0.000000000000000e+00
	1.000000000000000e+00,0.000000000000000e+00
	-1.442135066278568e-06,-3.451575453383276e-03
	-1.191337243795476e-05,8.614684015894485e-09
	-1.485503134102163e-11,-9.675736889225300e-09
	-1.485590937845696e-11,-9.675736887877174e-09
	-1.485627086468360e-11,-9.675736887322142e-09
	-1.485627086468360e-11,-9.675736887322142e-09
	9.675748292585457e-09,0.0
	-1.602863087602401e+02,0.0
	-1.572331740517196e+00,0.0

 34	2.660725059798815e-03,0.000000000000000e+00
	1.000000000000000e+00,0.000000000000000e+00
	-1.527586925378589e-06,-3.552363239541484e-03
	-1.261928383115372e-05,9.391594757542429e-09
	-1.666761830399581e-11,-1.054833727625040e-08
	-1.666860347810536e-11,-1.054833727469361e-08
	-1.666900907228290e-11,-1.054833727405267e-08
	-1.666900907228290e-11,-1.054833727405267e-08
	1.054835044464452e-08,0.0
	-1.595363090041039e+02,0.0
	-1.572376575393705e+00,0.0

 35	2.738419634264367e-03,0.000000000000000e+00
	1.000000000000000e+00,0.000000000000000e+00
	-1.618102123527404e-06,-3.656094078877582e-03
	-1.336702306704745e-05,1.023857077476121e-08
	-1.870137413799631e-11,-1.149963252637465e-08
	-1.870247952141327e-11,-1.149963252457689e-08
	-1.870293460551823e-11,-1.149963252383675e-08
	-1.870293460551823e-11,-1.149963252383675e-08
	1.149964773299803e-08,0.0
	-1.587863092624205e+02,0.0
	-1.572422719471014e+00,0.0

 36	2.818382931264460e-03,0.000000000000000e+00
	1.000000000000000e+00,0.000000000000000e+00
	-1.713980682190787e-06,-3.762853909797591e-03
	-1.415906859662813e-05,1.116193086495766e-08
	-2.098328549129339e-11,-1.253671967114598e-08
	-2.098452575175003e-11,-1.253671966906996e-08
	-2.098503636445796e-11,-1.253671966821526e-08
	-2.098503636445796e-11,-1.253671966821526e-08
	1.253673723147959e-08,0.0
	-1.580363095360395e+02,0.0
	-1.572470210978366e+00,0.0

 37	2.900681198693160e-03,0.000000000000000e+00
	1.000000000000000e+00,0.000000000000000e+00
	-1.815540400194163e-06,-3.872731180125769e-03
	-1.499804572777087e-05,1.216856368244926e-08
	-2.354363187453590e-11,-1.366733578045252e-08
	-2.354502346949444e-11,-1.366733577805517e-08
	-2.354559638630906e-11,-1.366733577706817e-08
	-2.354559638630906e-11,-1.366733577706817e-08
	1.366735605880804e-08,0.0
	-1.572863098258740e+02,0.0
	-1.572519089261307e+00,0.0

 38	2.985382618917966e-03,0.000000000000000e+00
	1.000000000000000e+00,0.000000000000000e+00
	-1.923117907097022e-06,-3.985816920382881e-03
	-1.588673532702072e-05,1.326597913066450e-08
	-2.641638744952855e-11,-1.489991568349501e-08
	-2.641794884456047e-11,-1.489991568072660e-08
	-2.641859166772001e-11,-1.489991567958683e-08
	-2.641859166772001e-11,-1.489991567958683e-08
	1.489993910057297e-08,0.0
	-1.565363101328809e+02,0.0
	-1.572569394814285e+00,0.0

 39	3.072557365267454e-03,0.000000000000000e+00
	1.000000000000000e+00,0.000000000000000e+00
	-2.037069778976064e-06,-4.102204819194026e-03
	-1.682808303691937e-05,1.446236438903708e-08
	-2.963967184330121e-11,-1.624365489514598e-08
	-2.964142375711272e-11,-1.624365489194906e-08
	-2.964214501646639e-11,-1.624365489063288e-08
	-2.964214501646639e-11,-1.624365489063288e-08
	1.624368193676368e-08,0.0
	-1.557863104580808e+02,0.0
	-1.572621169314192e+00,0.0

 40	3.162277660168387e-03,0.000000000000000e+00
	1.000000000000000e+00,0.000000000000000e+00
	-2.157773720330075e-06,-4.221991300908752e-03
	-1.782520903953863e-05,1.576664499270935e-08
	-3.325625596964224e-11,-1.770857821723531e-08
	-3.325822164899721e-11,-1.770857821354357e-08
	-3.325903091519043e-11,-1.770857821202367e-08
	-3.325903091519043e-11,-1.770857821202367e-08
	1.770860944440576e-08,0.0
	-1.550363108025470e+02,0.0
	-1.572674455654897e+00,0.0

 41	3.254617834980467e-03,0.000000000000000e+00
	1.000000000000000e+00,0.000000000000000e+00
	-2.285629816008915e-06,-4.345275605478110e-03
	-1.888141839846491e-05,1.718855142057085e-08
	-3.731412956971289e-11,-1.930561452642370e-08
	-3.731633509790129e-11,-1.930561452216055e-08
	-3.731724310937150e-11,-1.930561452040539e-08
	-3.731724310937150e-11,-1.930561452040539e-08
	1.930565058699449e-08,0.0
	-1.542863111674282e+02,0.0
	-1.572729297982776e+00,0.0

 42	3.349654391578285e-03,0.000000000000000e+00
	1.000000000000000e+00,0.000000000000000e+00
	-2.421061857331694e-06,-4.472159870673433e-03
	-2.000021201366266e-05,1.873869168860218e-08
	-4.186713800289628e-11,-2.104667830672950e-08
