Title: * sky130 bjt 2-stage ppa sweep ac: ce1 -> ce2 -> output rebias -> ideal opamp follower -> two rc poles
Date: Sat May 23 05:48:59  2026
Command: ngspice-46, Build Mar 29 2026   15:02:07
Plotname: AC Analysis
Flags: complex
No. Variables: 11
No. Points: 721
Variables:
	0	frequency	frequency grid=3
	1	v(vin)	voltage
	2	v(b1_collector)	voltage
	3	v(b2_collector)	voltage
	4	v(vout_drv)	voltage
	5	v(vfilt1)	voltage
	6	v(vout_final)	voltage
	7	gain	notype
	8	gain_vv	notype
	9	gain_db	decibel
	10	phase_deg	phase
Values:
 0	1.000000000000000e-03,0.000000000000000e+00
	1.000000000000000e+00,0.000000000000000e+00
	-1.074104793256782e-07,-7.929064851227268e-04
	-6.287006882153824e-07,1.528574988346152e-10
	-1.100718594686212e-13,-1.975121117603348e-10
	-1.100761900524042e-13,-1.975121117579213e-10
	-1.100781756607219e-13,-1.975121117568146e-10
	-1.100781756607219e-13,-1.975121117568146e-10
	1.975121424313988e-10,0.0
	-1.940881240028918e+02,0.0
	-1.571353650410570e+00,0.0

 1	1.029200527194428e-03,0.000000000000000e+00
	1.000000000000000e+00,0.000000000000000e+00
	-1.137749502252164e-07,-8.160597716172055e-04
	-6.659535441934964e-07,1.666428744353677e-10
	-1.235026566010001e-13,-2.153246384770464e-10
	-1.235075155958588e-13,-2.153246384742593e-10
	-1.235097434850052e-13,-2.153246384729814e-10
	-1.235097434850052e-13,-2.153246384729814e-10
	2.153246738954384e-10,0.0
	-1.933381240368179e+02,0.0
	-1.571369924553218e+00,0.0

 2	1.059253725177289e-03,0.000000000000000e+00
	1.000000000000000e+00,0.000000000000000e+00
	-1.205165397192328e-07,-8.398891462035326e-04
	-7.054137704396854e-07,1.816714770845444e-10
	-1.385722586468356e-13,-2.347435784369499e-10
	-1.385777105286609e-13,-2.347435784337314e-10
	-1.385802102613625e-13,-2.347435784322557e-10
	-1.385802102613625e-13,-2.347435784322557e-10
	2.347436193374705e-10,0.0
	-1.925881240727546e+02,0.0
	-1.571386673909344e+00,0.0

 3	1.090184492385128e-03,0.000000000000000e+00
	1.000000000000000e+00,0.000000000000000e+00
	-1.276575934874763e-07,-8.644143510033284e-04
	-7.472121618380405e-07,1.980554265742994e-10
	-1.554806300122431e-13,-2.559138051353142e-10
	-1.554867471241717e-13,-2.559138051315976e-10
	-1.554895518703524e-13,-2.559138051298935e-10
	-1.554895518703524e-13,-2.559138051298935e-10
	2.559138523664982e-10,0.0
	-1.918381241108215e+02,0.0
	-1.571403912355425e+00,0.0

 4	1.122018454301964e-03,0.000000000000000e+00
	1.000000000000000e+00,0.000000000000000e+00
	-1.352217812742146e-07,-8.896557046178389e-04
	-7.914872633538360e-07,2.159169541621965e-10
	-1.744521344443304e-13,-2.789932573997040e-10
	-1.744589979566944e-13,-2.789932573954120e-10
	-1.744621449336198e-13,-2.789932573934442e-10
	-1.744621449336198e-13,-2.789932573934442e-10
	2.789933119414239e-10,0.0
	-1.910881241511408e+02,0.0
	-1.571421654173140e+00,0.0

 5	1.154781984689459e-03,0.000000000000000e+00
	1.000000000000000e+00,0.000000000000000e+00
	-1.432341753439556e-07,-9.156341189613392e-04
	-8.383858292532613e-07,2.353893144680269e-10
	-1.957385121995282e-13,-3.041541176783570e-10
	-1.957462131869349e-13,-3.041541176734008e-10
	-1.957497441530622e-13,-3.041541176711283e-10
	-1.957497441530622e-13,-3.041541176711283e-10
	3.041541806621518e-10,0.0
	-1.903381241938502e+02,0.0
	-1.571439914061198e+00,0.0

 6	1.188502227437019e-03,0.000000000000000e+00
	1.000000000000000e+00,0.000000000000000e+00
	-1.517213335859913e-07,-9.423711165862637e-04
	-8.880633095354650e-07,2.566177796102133e-10
	-2.196222204816072e-13,-3.315840965922975e-10
	-2.196308611314428e-13,-3.315840965865742e-10
	-2.196348229405299e-13,-3.315840965839500e-10
	-2.196348229405299e-13,-3.315840965839500e-10
	3.315841693248484e-10,0.0
	-1.895881242390927e+02,0.0
	-1.571458707147519e+00,0.0

 7	1.223207119049932e-03,0.000000000000000e+00
	1.000000000000000e+00,0.000000000000000e+00
	-1.607113875432360e-07,-9.698888485142987e-04
	-9.406843651870540e-07,2.797607229977084e-10
	-2.464201814744173e-13,-3.614878333337311e-10
	-2.464298764428105e-13,-3.614878333271219e-10
	-2.464343216656364e-13,-3.614878333240915e-10
	-2.464343216656364e-13,-3.614878333240915e-10
	3.614879173239695e-10,0.0
	-1.888381242870141e+02,0.0
	-1.571478049001763e+00,0.0

 8	1.258925411794168e-03,0.000000000000000e+00
	1.000000000000000e+00,0.000000000000000e+00
	-1.702341356568750e-07,-9.982101125874411e-04
	-9.964234139654367e-07,3.049908008624302e-10
	-2.764879877029294e-13,-3.940884223576193e-10
	-2.764988656361670e-13,-3.940884223499871e-10
	-2.765038532581133e-13,-3.940884223464877e-10
	-2.765038532581133e-13,-3.940884223464877e-10
	3.940885193480325e-10,0.0
	-1.880881243377767e+02,0.0
	-1.571497955648236e+00,0.0

 9	1.295686697517020e-03,0.000000000000000e+00
	1.000000000000000e+00,0.000000000000000e+00
	-1.803211420364497e-07,-1.027358372356067e-03
	-1.055465208524864e-06,3.324962403486999e-10
	-3.102246205264080e-13,-4.296290777579438e-10
	-3.102368257679917e-13,-4.296290777491302e-10
	-3.102424219717423e-13,-4.296290777450891e-10
	-3.102424219717423e-13,-4.296290777450891e-10
	4.296291897607241e-10,0.0
	-1.873381243915446e+02,0.0
	-1.571518443579157e+00,0.0

 10	1.333521432163325e-03,0.000000000000000e+00
	1.000000000000000e+00,0.000000000000000e+00
	-1.910058410819924e-07,-1.057357776517012e-03
	-1.118005448795014e-06,3.624822437668926e-10
	-3.480777443732444e-13,-4.683749477430827e-10
	-3.480914388792393e-13,-4.683749477329051e-10
	-3.480977179229833e-13,-4.683749477282384e-10
	-3.480977179229833e-13,-4.683749477282384e-10
	4.683750770818739e-10,0.0
	-1.865881244485002e+02,0.0
	-1.571539529768328e+00,0.0

 11	1.372460961007563e-03,0.000000000000000e+00
	1.000000000000000e+00,0.000000000000000e+00
	-2.023236483058800e-07,-1.088233178920986e-03
	-1.184251430648647e-06,3.951725194904411e-10
	-3.905496469707215e-13,-5.106150927495908e-10
	-3.905650124588121e-13,-5.106150927378379e-10
	-3.905720576616040e-13,-5.106150927324490e-10
	-3.905720576616040e-13,-5.106150927324490e-10
	5.106152421076947e-10,0.0
	-1.858381245088310e+02,0.0
	-1.571561231685192e+00,0.0

 12	1.412537544622755e-03,0.000000000000000e+00
	1.000000000000000e+00,0.000000000000000e+00
	-2.143120777209114e-07,-1.120010159162747e-03
	-1.254422733002901e-06,4.308109509148669e-10
	-4.382039043909563e-13,-5.566646419496751e-10
	-4.382211447517277e-13,-5.566646419361028e-10
	-4.382290495990793e-13,-5.566646419298799e-10
	-4.382290495990793e-13,-5.566646419298799e-10
	5.566648144257200e-10,0.0
	-1.850881245727360e+02,0.0
	-1.571583567309310e+00,0.0

 13	1.453784385607663e-03,0.000000000000000e+00
	1.000000000000000e+00,0.000000000000000e+00
	-2.270108661843404e-07,-1.152715043773524e-03
	-1.328751945634095e-06,4.696634159312280e-10
	-4.916728593547701e-13,-6.068671442416207e-10
	-4.916922033572084e-13,-6.068671442259478e-10
	-4.917010727415834e-13,-6.068671442187617e-10
	-4.917010727415834e-13,-6.068671442187617e-10
	6.068673434138471e-10,0.0
	-1.843381246404280e+02,0.0
	-1.571606555145253e+00,0.0

 14	1.496235656094435e-03,0.000000000000000e+00
	1.000000000000000e+00,0.000000000000000e+00
	-2.404621051093959e-07,-1.186374928031212e-03
	-1.407485440119189e-06,5.120197704881037e-10
	-5.516660120260362e-13,-6.615971312627678e-10
	-5.516877163531507e-13,-6.615971312446691e-10
	-5.516976679658220e-13,-6.615971312363706e-10
	-5.516976679658220e-13,-6.615971312363706e-10
	6.615973612632628e-10,0.0
	-1.835881247121298e+02,0.0
	-1.571630214237935e+00,0.0

 15	1.539926526059493e-03,0.000000000000000e+00
	1.000000000000000e+00,0.000000000000000e+00
	-2.547103799816673e-07,-1.221017698408814e-03
	-1.490884186456608e-06,5.581960110392861e-10
	-6.189794346359650e-13,-7.212629115448501e-10
	-6.190037872908110e-13,-7.212629115239499e-10
	-6.190149531835504e-13,-7.212629115143669e-10
	-6.190149531835504e-13,-7.212629115143669e-10
	7.212631771452732e-10,0.0
	-1.828381247880808e+02,0.0
	-1.571654564188389e+00,0.0

 16	1.584893192461115e-03,0.000000000000000e+00
	1.000000000000000e+00,0.000000000000000e+00
	-2.698029181418690e-07,-1.256672055676884e-03
	-1.579224618076227e-06,6.085366320113449e-10
	-6.945063348645773e-13,-7.863096166584315e-10
	-6.945336589918764e-13,-7.863096166342961e-10
	-6.945461873291994e-13,-7.863096166232299e-10
	-6.945461873291994e-13,-7.863096166232299e-10
	7.863099233690091e-10,0.0
	-1.820881248685339e+02,0.0
	-1.571679625170007e+00,0.0

 17	1.631172909227840e-03,0.000000000000000e+00
	1.000000000000000e+00,0.000000000000000e+00
	-2.857897453256628e-07,-1.293367538681921e-03
	-1.672799548104259e-06,6.634171958778798e-10
	-7.792489081480026e-13,-8.572225220711607e-10
	-7.792795663220705e-13,-8.572225220432898e-10
	-7.792936233472857e-13,-8.572225220305106e-10
	-7.792936233472857e-13,-8.572225220305106e-10
	8.572228762550032e-10,0.0
	-1.813381249537533e+02,0.0
	-1.571705417945255e+00,0.0

 18	1.678804018122562e-03,0.000000000000000e+00
	1.000000000000000e+00,0.000000000000000e+00
	-3.027238514787233e-07,-1.331134548817927e-03
	-1.771919139918724e-06,7.232471350142083e-10
	-8.743316361836207e-13,-9.345306674938725e-10
	-8.743660352195002e-13,-9.345306674616875e-10
	-8.743818074606543e-13,-9.345306674469304e-10
	-8.743818074606543e-13,-9.345306674469304e-10
	9.345310764989842e-10,0.0
	-1.805881250440203e+02,0.0
	-1.571731963882869e+00,0.0

 19	1.727825980507865e-03,0.000000000000000e+00
	1.000000000000000e+00,0.000000000000000e+00
	-3.206613663970497e-07,-1.370004375213054e-03
	-1.876911935213664e-06,7.884728062350111e-10
	-9.810162080954931e-13,-1.018810803724046e-09
	-9.810548044471343e-13,-1.018810803686880e-09
	-9.810725011921210e-13,-1.018810803669838e-09
	-9.810725011921210e-13,-1.018810803669838e-09
	1.018811276035770e-09,0.0
	-1.798381251396374e+02,0.0
	-1.571759284975564e+00,0.0

 20	1.778279410038925e-03,0.000000000000000e+00
	1.000000000000000e+00,0.000000000000000e+00
	-3.396617457750082e-07,-1.410009220652618e-03
	-1.988125942982254e-06,8.595808208057890e-10
	-1.100718262256435e-12,-1.110691695432794e-09
	-1.100761568073550e-12,-1.110691695389875e-09
	-1.100781424147229e-12,-1.110691695370196e-09
	-1.100781424147229e-12,-1.110691695370196e-09
	1.110692240849851e-09,0.0
	-1.790881252409210e+02,0.0
	-1.571787403858250e+00,0.0

 21	1.830206106311058e-03,0.000000000000000e+00
	1.000000000000000e+00,0.000000000000000e+00
	-3.597879682764897e-07,-1.451182228256729e-03
	-2.105929793024074e-06,9.371016747675373e-10
	-1.235026170916629e-12,-1.210858811993404e-09
	-1.235074760840597e-12,-1.210858811943842e-09
	-1.235097039720771e-12,-1.210858811921117e-09
	-1.235097039720771e-12,-1.210858811921117e-09
	1.210859441831180e-09,0.0
	-1.783381253482039e+02,0.0
	-1.571816343826788e+00,0.0

 22	1.883649089489803e-03,0.000000000000000e+00
	1.000000000000000e+00,0.000000000000000e+00
	-3.811067442840911e-07,-1.493557508939108e-03
	-2.230713957799930e-06,1.021613706660152e-09
	-1.385722116899086e-12,-1.320059441346312e-09
	-1.385776635688078e-12,-1.320059441289078e-09
	-1.385801633001677e-12,-1.320059441262836e-09
	-1.385801633001677e-12,-1.320059441262836e-09
	1.320060168671609e-09,0.0
	-1.775881254618447e+02,0.0
	-1.571846128857284e+00,0.0

 23	1.938652635952210e-03,0.000000000000000e+00
	1.000000000000000e+00,0.000000000000000e+00
	-4.036887370171853e-07,-1.537170169667092e-03
	-2.362892046689811e-06,1.113747412172209e-09
	-1.554805742038473e-12,-1.439108265054801e-09
	-1.554866913122983e-12,-1.439108264988709e-09
	-1.554894960568845e-12,-1.439108264958405e-09
	-1.554894960568845e-12,-1.439108264958405e-09
	1.439109104956928e-09,0.0
	-1.768381255822197e+02,0.0
	-1.571876783625960e+00,0.0

 24	1.995262314968882e-03,0.000000000000000e+00
	1.000000000000000e+00,0.000000000000000e+00
	-4.276087967517310e-07,-1.582056342545934e-03
	-2.502902176937161e-06,1.214190147903378e-09
	-1.744520681158673e-12,-1.568893436139286e-09
	-1.744589316240981e-12,-1.568893436062964e-09
	-1.744620785991284e-12,-1.568893436027970e-09
	-1.744620785991284e-12,-1.568893436027970e-09
	1.568894406043101e-09,0.0
	-1.760881257097275e+02,0.0
	-1.571908333529592e+00,0.0

 25	2.053525026457149e-03,0.000000000000000e+00
	1.000000000000000e+00,0.000000000000000e+00
	-4.529462089190804e-07,-1.628253214753913e-03
	-2.651208425827807e-06,1.323691259334309e-09
	-1.957384333680282e-12,-1.710383205035053e-09
	-1.957461343505225e-12,-1.710383204946917e-09
	-1.957496653143975e-12,-1.710383204906506e-09
	-1.957496653143975e-12,-1.710383204906506e-09
	1.710384325062469e-09,0.0
	-1.753381258447881e+02,0.0
	-1.571940804706552e+00,0.0

 26	2.113489039836650e-03,0.000000000000000e+00
	1.000000000000000e+00,0.000000000000000e+00
	-4.797849569046076e-07,-1.675799059349500e-03
	-2.808302368911416e-06,1.443067671255733e-09
	-2.196221267901988e-12,-1.864633143101618e-09
	-2.196307674341962e-12,-1.864633142999841e-09
	-2.196347292406064e-12,-1.864633142953175e-09
	-2.196347292406064e-12,-1.864633142953175e-09
	1.864634436489057e-09,0.0
	-1.745881259878546e+02,0.0
	-1.571974224058462e+00,0.0

 27	2.175204034019526e-03,0.000000000000000e+00
	1.000000000000000e+00,0.000000000000000e+00
	-5.082140004191927e-07,-1.724733266980487e-03
	-2.974704709376244e-06,1.573209982373645e-09
	-2.464200701219433e-12,-2.032794017580935e-09
	-2.464297650833977e-12,-2.032794017463404e-09
	-2.464342103030420e-12,-2.032794017409516e-09
	-2.464342103030420e-12,-2.032794017409516e-09
	2.032795511161395e-09,0.0
	-1.738381261393976e+02,0.0
	-1.572008619272483e+00,0.0

 28	2.238721138568343e-03,0.000000000000000e+00
	1.000000000000000e+00,0.000000000000000e+00
	-5.383275703643223e-07,-1.775096378516866e-03
	-3.150967003960497e-06,1.715089109545441e-09
	-2.764878553603013e-12,-2.216120376742757e-09
	-2.764987332852922e-12,-2.216120376607035e-09
	-2.765037209034571e-12,-2.216120376544805e-09
	-2.765037209034571e-12,-2.216120376544805e-09
	2.216122101502499e-09,0.0
	-1.730881262999200e+02,0.0
	-1.572044018844249e+00,0.0

 29	2.304092976055850e-03,0.000000000000000e+00
	1.000000000000000e+00,0.000000000000000e+00
	-5.702254811695138e-07,-1.826930118638032e-03
	-3.337673491134908e-06,1.869763531226728e-09
	-3.102244632368199e-12,-2.415979909273485e-09
	-3.102366684686024e-12,-2.415979909116756e-09
	-3.102422646678589e-12,-2.415979909044893e-09
	-3.102422646678589e-12,-2.415979909044893e-09
	2.415981900994883e-09,0.0
	-1.723381264699543e+02,0.0
	-1.572080452101481e+00,0.0

 30	2.371373705661660e-03,0.000000000000000e+00
	1.000000000000000e+00,0.000000000000000e+00
	-6.040134616364608e-07,-1.880277430399648e-03
	-3.535443027610714e-06,2.038387184162592e-09
	-3.480775574342453e-12,-2.633863647728625e-09
	-3.480912519285913e-12,-2.633863647547637e-09
	-3.480975309669941e-12,-2.633863647464651e-09
	-3.480975309669941e-12,-2.633863647464651e-09
	2.633865947732516e-09,0.0
	-1.715881266500629e+02,0.0
	-1.572117949228274e+00,0.0

 31	2.440619068041985e-03,0.000000000000000e+00
	1.000000000000000e+00,0.000000000000000e+00
	-6.398035053873266e-07,-1.935182510810665e-03
	-3.744931139590124e-06,2.222218072236545e-09
	-3.905494247933983e-12,-2.871397092167840e-09
	-3.905647902676443e-12,-2.871397091958838e-09
	-3.905718354640882e-12,-2.871397091863008e-09
	-3.905718354640882e-12,-2.871397091863008e-09
	2.871399748170778e-09,0.0
	-1.708381268408430e+02,0.0
	-1.572156541290114e+00,0.0

 32	2.511886431509585e-03,0.000000000000000e+00
	1.000000000000000e+00,0.000000000000000e+00
	-6.777142420777957e-07,-1.991690847448652e-03
	-3.966832195561920e-06,2.422627651702722e-09
	-4.382036403328301e-12,-3.130352336960180e-09
	-4.382208806771470e-12,-3.130352336718829e-09
	-4.382287855169540e-12,-3.130352336608166e-09
	-4.382287855169540e-12,-3.130352336608166e-09
	3.130355404064377e-09,0.0
	-1.700881270429264e+02,0.0
	-1.572196260259605e+00,0.0

 33	2.585234839562196e-03,0.000000000000000e+00
	1.000000000000000e+00,0.000000000000000e+00
	-7.178713306062834e-07,-2.049849256144343e-03
	-4.201881707838604e-06,2.641111062818067e-09
	-4.916725455209901e-12,-3.412661291224038e-09
	-4.916918895038723e-12,-3.412661290945331e-09
	-4.917007588792804e-12,-3.412661290817540e-09
	-4.917007588792804e-12,-3.412661290817540e-09
	3.412664833060531e-09,0.0
	-1.693381272569884e+02,0.0
	-1.572237139042966e+00,0.0

 34	2.660725059798815e-03,0.000000000000000e+00
	1.000000000000000e+00,0.000000000000000e+00
	-7.604078756218029e-07,-2.109705919766594e-03
	-4.450858770478056e-06,2.879298284214541e-09
	-5.516656390338425e-12,-3.720430091540607e-09
	-5.516873433377146e-12,-3.720430091218760e-09
	-5.516972949397288e-12,-3.720430091071189e-09
	-5.516972949397288e-12,-3.720430091071189e-09
	3.720434181589362e-09,0.0
	-1.685881274837321e+02,0.0
	-1.572279211507283e+00,0.0

 35	2.738419634264367e-03,0.000000000000000e+00
	1.000000000000000e+00,0.000000000000000e+00
	-8.054648687122338e-07,-2.171310428140900e-03
	-4.714588641641567e-06,3.138966293207338e-09
	-6.189789913338530e-12,-4.055954814439645e-09
	-6.190033439610751e-12,-4.055954814067981e-09
	-6.190145098411488e-12,-4.055954813897569e-09
	-6.190145098411488e-12,-4.055954813897569e-09
	4.055959537553993e-09,0.0
	-1.678381277239120e+02,0.0
	-1.572322512508574e+00,0.0

 36	2.818382931264460e-03,0.000000000000000e+00
	1.000000000000000e+00,0.000000000000000e+00
	-8.531916557326512e-07,-2.234713819130293e-03
	-4.993945478982345e-06,3.422052322785722e-09
	-6.945058079993219e-12,-4.421738605903452e-09
	-6.945331320937902e-12,-4.421738605474261e-09
	-6.945456604160598e-12,-4.421738605277472e-09
	-6.945456604160598e-12,-4.421738605277472e-09
	4.421744060070483e-09,0.0
	-1.670881279783208e+02,0.0
	-1.572367077920662e+00,0.0

 37	2.900681198693160e-03,0.000000000000000e+00
	1.000000000000000e+00,0.000000000000000e+00
	-9.037464318268348e-07,-2.299968620919986e-03
	-5.289855237098860e-06,3.730668314164071e-09
	-7.792482819675533e-12,-4.820510355651712e-09
	-7.792789401026015e-12,-4.820510355156089e-09
	-7.792929971099257e-12,-4.820510354928841e-09
	-7.792929971099257e-12,-4.820510354928841e-09
	4.820516654025138e-09,0.0
	-1.663381282478063e+02,0.0
	-1.572412944664892e+00,0.0

 38	2.985382618917966e-03,0.000000000000000e+00
	1.000000000000000e+00,0.000000000000000e+00
	-9.572967657786151e-07,-2.367128895533128e-03
	-5.603298736687740e-06,4.067116672739485e-09
	-8.743308919667782e-12,-5.255245055546735e-09
	-8.743652909562831e-12,-5.255245054974401e-09
	-8.743810631761737e-12,-5.255245054711978e-09
	-8.743810631761737e-12,-5.255245054711978e-09
	5.255252328794409e-09,0.0
	-1.655881285332584e+02,0.0
	-1.572460150740727e+00,0.0

 39	3.072557365267454e-03,0.000000000000000e+00
	1.000000000000000e+00,0.000000000000000e+00
	-1.014020155433632e-06,-2.436250283618718e-03
	-5.935314915536290e-06,4.433907444974035e-09
	-9.810153235922322e-12,-5.729185993967061e-09
	-9.810539198887569e-12,-5.729185993306139e-09
	-9.810716166084720e-12,-5.729185993003098e-09
	-9.810716166084720e-12,-5.729185993003098e-09
	5.729194392981843e-09,0.0
	-1.648381288356255e+02,0.0
	-1.572508735257216e+00,0.0

 40	3.162277660168387e-03,0.000000000000000e+00
	1.000000000000000e+00,0.000000000000000e+00
	-1.074104616032504e-06,-2.507390050548425e-03
	-6.287004272158095e-06,4.833777044373707e-09
	-1.100717211022349e-11,-6.245868951746903e-09
	-1.100760516773958e-11,-6.245868950983683e-09
	-1.100780372817601e-11,-6.245868950633737e-09
	-1.100780372817601e-11,-6.245868950633737e-09
	6.245878650777126e-09,0.0
	-1.640881291559103e+02,0.0
	-1.572558738465408e+00,0.0

 41	3.254617834980467e-03,0.000000000000000e+00
	1.000000000000000e+00,0.000000000000000e+00
	-1.137749303403535e-06,-2.580607133857178e-03
	-6.659532513473292e-06,5.269708666253307e-09
	-1.235024921522887e-11,-6.809148580175273e-09
	-1.235073511369001e-11,-6.809148579293921e-09
	-1.235095790213478e-11,-6.809148578889809e-09
	-1.235095790213478e-11,-6.809148578889809e-09
	6.809159780439743e-09,0.0
	-1.633381294951697e+02,0.0
	-1.572610201791684e+00,0.0

 42	3.349654391578285e-03,0.000000000000000e+00
	1.000000000000000e+00,0.000000000000000e+00
	-1.205165174080351e-06,-2.655962192067736e-03
	-7.054134418607347e-06,5.744954543574857e-09
	-1.385720631991566e-11,-7.423227157819544e-09
