Title: * sky130 bjt 2-stage ppa sweep noise: ce1 -> ce2 -> output rebias -> ideal opamp follower -> two rc poles
Date: Sat May 23 05:49:01  2026
Command: ngspice-46, Build Mar 29 2026   15:02:07
Plotname: Noise Spectral Density Curves
Flags: real
No. Variables: 3
No. Points: 265
Variables:
	0	frequency	frequency grid=3
	1	onoise_spectrum	voltage-density
	2	inoise_spectrum	voltage-density
Values:
 0	1.000000000000000e+01
	1.862947082391532e-04
	3.175203630140891e-06

 1	1.029200527194428e+01
	1.825613698812002e-04
	3.040787649897313e-06

 2	1.059253725177289e+01
	1.787517903319536e-04
	2.912099187129503e-06

 3	1.090184492385128e+01
	1.748770570690579e-04
	2.788891974645095e-06

 4	1.122018454301964e+01
	1.709480767133365e-04
	2.670930562650645e-06

 5	1.154781984689458e+01
	1.669755182908934e-04
	2.557989822507272e-06

 6	1.188502227437019e+01
	1.629697613976166e-04
	2.449854475179433e-06

 7	1.223207119049932e+01
	1.589408495740898e-04
	2.346318642980537e-06

 8	1.258925411794168e+01
	1.548984491046215e-04
	2.247185423311467e-06

 9	1.295686697517020e+01
	1.508518133603301e-04
	2.152266483173341e-06

 10	1.333521432163325e+01
	1.468097527194516e-04
	2.061381673314360e-06

 11	1.372460961007563e+01
	1.427806100144736e-04
	1.974358660943859e-06

 12	1.412537544622755e+01
	1.387722413815225e-04
	1.891032580013854e-06

 13	1.453784385607663e+01
	1.347920023201142e-04
	1.811245698131131e-06

 14	1.496235656094434e+01
	1.308467387139516e-04
	1.734847099220899e-06

 15	1.539926526059493e+01
	1.269427825155826e-04
	1.661692381116771e-06

 16	1.584893192461115e+01
	1.230859517587213e-04
	1.591643367301906e-06

 17	1.631172909227840e+01
	1.192815545335999e-04
	1.524567832072553e-06

 18	1.678804018122562e+01
	1.155343965407541e-04
	1.460339238438395e-06

 19	1.727825980507865e+01
	1.118487918274344e-04
	1.398836488114369e-06

 20	1.778279410038925e+01
	1.082285763075235e-04
	1.339943682995959e-06

 21	1.830206106311058e+01
	1.046771236696102e-04
	1.283549897544990e-06

 22	1.883649089489803e+01
	1.011973632878720e-04
	1.229548961545344e-06

 23	1.938652635952210e+01
	9.779179976504935e-05
	1.177839252718537e-06

 24	1.995262314968882e+01
	9.446253375671742e-05
	1.128323498717384e-06

 25	2.053525026457149e+01
	9.121128374809448e-05
	1.080908588042569e-06

 26	2.113489039836650e+01
	8.803940848014758e-05
	1.035505389451703e-06

 27	2.175204034019526e+01
	8.494792974808668e-05
	9.920285794538040e-07

 28	2.238721138568343e+01
	8.193755532343951e-05
	9.503964775037610e-07

 29	2.304092976055849e+01
	7.900870177816061e-05
	9.105308885319295e-07

 30	2.371373705661659e+01
	7.616151701715645e-05
	8.723569524630416e-07

 31	2.440619068041984e+01
	7.339590235255594e-05
	8.358030003966954e-07

 32	2.511886431509584e+01
	7.071153397821417e-05
	8.008004171385523e-07

 33	2.585234839562195e+01
	6.810788372758790e-05
	7.672835097873178e-07

 34	2.660725059798814e+01
	6.558423902052608e-05
	7.351893820975004e-07

 35	2.738419634264367e+01
	6.313972192525859e-05
	7.044578143521019e-07

 36	2.818382931264459e+01
	6.077330728079150e-05
	6.750311484925944e-07

 37	2.900681198693160e+01
	5.848383984200782e-05
	6.468541782661388e-07

 38	2.985382618917966e+01
	5.627005042458456e-05
	6.198740441617725e-07

 39	3.072557365267453e+01
	5.413057104027399e-05
	5.940401329184623e-07

 40	3.162277660168386e+01
	5.206394902460299e-05
	5.693039813984399e-07

 41	3.254617834980466e+01
	5.006866016851430e-05
	5.456191846292282e-07

 42	3.349654391578284e+01
	4.814312087393227e-05
	5.229413078271777e-07

 43	3.447466065731501e+01
	4.628569935994237e-05
	5.012278022242090e-07

 44	3.548133892335763e+01
	4.449472595165516e-05
	4.804379245279651e-07

 45	3.651741272548386e+01
	4.276850248813494e-05
	4.605326598535132e-07

 46	3.758374042884451e+01
	4.110531088898791e-05
	4.414746479723483e-07

 47	3.868120546330531e+01
	3.950342092141758e-05
	4.232281127316271e-07

 48	3.981071705534983e+01
	3.796109721110434e-05
	4.057587945033823e-07

 49	4.097321098135426e+01
	3.647660554095043e-05
	3.890338855299402e-07

 50	4.216965034285834e+01
	3.504821848199042e-05
	3.730219680379057e-07

 51	4.340102636447450e+01
	3.367422040028131e-05
	3.576929549989387e-07

 52	4.466835921509644e+01
	3.235291188302621e-05
	3.430180334210860e-07

 53	4.597269885308735e+01
	3.108261362591752e-05
	3.289696100597230e-07

 54	4.731512589614819e+01
	2.986166982250008e-05
	3.155212594421814e-07

 55	4.869675251658646e+01
	2.868845109457249e-05
	3.026476741049506e-07

 56	5.011872336272738e+01
	2.756135700122887e-05
	2.903246169468619e-07

 57	5.158221650723073e+01
	2.647881816197094e-05
	2.785288756060663e-07

 58	5.308844442309900e+01
	2.543929802774901e-05
	2.672382187727195e-07

 59	5.463865498818559e+01
	2.444129433161715e-05
	2.564313543532845e-07

 60	5.623413251903509e+01
	2.348334024892075e-05
	2.460878894061156e-07

 61	5.787619883491225e+01
	2.256400529490787e-05
	2.361882917716301e-07

 62	5.956621435290124e+01
	2.168189598584484e-05
	2.267138533238087e-07

 63	6.130557921498227e+01
	2.083565628784402e-05
	2.176466547730966e-07

 64	6.309573444801953e+01
	2.002396787585860e-05
	2.089695319539288e-07

 65	6.493816315762135e+01
	1.924555022363047e-05
	2.006660435331519e-07

 66	6.683439175686169e+01
	1.849916054368390e-05
	1.927204400785371e-07

 67	6.878599123088100e+01
	1.778359359501650e-05
	1.851176344293513e-07

 68	7.079457843841404e+01
	1.709768137460330e-05
	1.778431733136816e-07

 69	7.286181745132302e+01
	1.644029270753144e-05
	1.708832101597459e-07

 70	7.498942093324584e+01
	1.581033274925901e-05
	1.642244790509541e-07

 71	7.717915155850152e+01
	1.520674241231589e-05
	1.578542697768368e-07

 72	7.943282347242844e+01
	1.462849772865757e-05
	1.517604039342831e-07

 73	8.175230379436530e+01
	1.407460915782911e-05
	1.459312120357416e-07

 74	8.413951416451982e+01
	1.354412085017906e-05
	1.403555115831575e-07

 75	8.659643233600687e+01
	1.303610987345499e-05
	1.350225860684812e-07

 76	8.912509381337490e+01
	1.254968541029387e-05
	1.299221648635509e-07

 77	9.172759353897833e+01
	1.208398793341999e-05
	1.250444039640364e-07

 78	9.440608762859272e+01
	1.163818836462497e-05
	1.203798675539394e-07

 79	9.716279515771102e+01
	1.121148722303164e-05
	1.159195103588819e-07

 80	1.000000000000004e+02
	1.080311376752525e-05
	1.116546607580454e-07

 81	1.029200527194432e+02
	1.041232513775668e-05
	1.075770046261910e-07

 82	1.059253725177293e+02
	1.003840549760088e-05
	1.036785698786533e-07

 83	1.090184492385132e+02
	9.680665184560190e-06
	9.995171169357460e-08

 84	1.122018454301968e+02
	9.338439868175354e-06
	9.638909838692864e-08

 85	1.154781984689463e+02
	9.011089720149674e-06
	9.298369791705243e-08

 86	1.188502227437024e+02
	8.697998598551787e-06
	8.972876499648007e-08

 87	1.223207119049937e+02
	8.398573248172921e-06
	8.661782878982537e-08

 88	1.258925411794173e+02
	8.112242518785993e-06
	8.364468117731871e-08

 89	1.295686697517025e+02
	7.838456602837891e-06
	8.080336556432015e-08

 90	1.333521432163330e+02
	7.576686293820534e-06
	7.808816621776102e-08

 91	1.372460961007568e+02
	7.326422266355307e-06
	7.549359811095136e-08

 92	1.412537544622761e+02
	7.087174378785253e-06
	7.301439725859032e-08

 93	1.453784385607669e+02
	6.858470998886548e-06
	7.064551152407944e-08

 94	1.496235656094440e+02
	6.639858353095519e-06
	6.838209188142351e-08

 95	1.539926526059499e+02
	6.430899899468543e-06
	6.621948411407644e-08

 96	1.584893192461121e+02
	6.231175724404775e-06
	6.415322093309770e-08

 97	1.631172909227846e+02
	6.040281963019895e-06
	6.217901449690632e-08

 98	1.678804018122568e+02
	5.857830242856717e-06
	6.029274931481558e-08

 99	1.727825980507872e+02
	5.683447150518680e-06
	5.849047551636777e-08

 100	1.778279410038932e+02
	5.516773720636042e-06
	5.676840246833549e-08

 101	1.830206106311065e+02
	5.357464946469911e-06
	5.512289272109956e-08

 102	1.883649089489810e+02
	5.205189311340602e-06
	5.355045626598900e-08

 103	1.938652635952217e+02
	5.059628339971783e-06
	5.204774508509567e-08

 104	1.995262314968890e+02
	4.920476168747168e-06
	5.061154797507483e-08

 105	2.053525026457157e+02
	4.787439133826080e-06
	4.923878562652490e-08

 106	2.113489039836658e+02
	4.660235376002796e-06
	4.792650594072932e-08

 107	2.175204034019534e+02
	4.538594461162830e-06
	4.667187956584214e-08

 108	2.238721138568351e+02
	4.422257015180843e-06
	4.547219563502684e-08

 109	2.304092976055858e+02
	4.310974372097018e-06
	4.432485768960303e-08

 110	2.371373705661668e+02
	4.204508234439498e-06
	4.322737977093599e-08

 111	2.440619068041993e+02
	4.102630344586337e-06
	4.217738266559587e-08

 112	2.511886431509594e+02
	4.005122166119165e-06
	4.117259028922397e-08

 113	2.585234839562205e+02
	3.911774574176094e-06
	4.021082619554790e-08

 114	2.660725059798825e+02
	3.822387553890175e-06
	3.929001019807861e-08

 115	2.738419634264377e+02
	3.736769906089521e-06
	3.840815509317286e-08

 116	2.818382931264470e+02
	3.654738959513824e-06
	3.756336347434321e-08

 117	2.900681198693171e+02
	3.576120288904072e-06
	3.675382462891775e-08

 118	2.985382618917977e+02
	3.500747438429089e-06
	3.597781150936577e-08

 119	3.072557365267465e+02
	3.428461649986969e-06
	3.523367777281246e-08

 120	3.162277660168398e+02
	3.359111596040458e-06
	3.451985488341584e-08

 121	3.254617834980479e+02
	3.292553116720749e-06
	3.383484927338401e-08

 122	3.349654391578297e+02
	3.228648961023225e-06
	3.317723955943362e-08

 123	3.447466065731516e+02
	3.167268532002627e-06
	3.254567381243134e-08

 124	3.548133892335777e+02
	3.108287635938023e-06
	3.193886687880054e-08

 125	3.651741272548400e+02
	3.051588235503233e-06
	3.135559775301696e-08

 126	3.758374042884466e+02
	2.997058207029579e-06
	3.079470700114572e-08

 127	3.868120546330547e+02
	2.944591101996100e-06
	3.025509423590031e-08

 128	3.981071705534999e+02
	2.894085912899810e-06
	2.973571564411945e-08

 129	4.097321098135442e+02
	2.845446843699465e-06
	2.923558156787551e-08

 130	4.216965034285851e+02
	2.798583085031830e-06
	2.875375414064829e-08

 131	4.340102636447468e+02
	2.753408594407480e-06
	2.828934498012854e-08

 132	4.466835921509662e+02
	2.709841881596475e-06
	2.784151293927009e-08

 133	4.597269885308754e+02
	2.667805799401569e-06
	2.740946191718691e-08

 134	4.731512589614838e+02
	2.627227340009524e-06
	2.699243873142119e-08

 135	4.869675251658666e+02
	2.588037437096153e-06
	2.658973105296551e-08

 136	5.011872336272759e+02
	2.550170773830579e-06
	2.620066540526714e-08

 137	5.158221650723094e+02
	2.513565596915280e-06
	2.582460522822959e-08

 138	5.308844442309922e+02
	2.478163536760720e-06
	2.546094900800875e-08

 139	5.463865498818583e+02
	2.443909433878396e-06
	2.510912847315807e-08

 140	5.623413251903534e+02
	2.410751171537969e-06
	2.476860685743387e-08

 141	5.787619883491251e+02
	2.378639514722764e-06
	2.443887722932017e-08

 142	5.956621435290151e+02
	2.347527955372267e-06
	2.411946088809152e-08

 143	6.130557921498255e+02
	2.317372563901261e-06
	2.380990582599461e-08

 144	6.309573444801982e+02
	2.288131846930387e-06
	2.350978525590714e-08

 145	6.493816315762165e+02
	2.259766611174774e-06
	2.321869620362259e-08

 146	6.683439175686200e+02
	2.232239833386333e-06
	2.293625816371903e-08

 147	6.878599123088131e+02
	2.205516536251829e-06
	2.266211181779562e-08

 148	7.079457843841436e+02
	2.179563670116731e-06
	2.239591781370722e-08

 149	7.286181745132336e+02
	2.154350000397306e-06
	2.213735560429278e-08

 150	7.498942093324620e+02
	2.129846000530421e-06
	2.188612234397766e-08

 151	7.717915155850188e+02
	2.106023750302071e-06
	2.164193184153443e-08

 152	7.943282347242881e+02
	2.082856839381948e-06
	2.140451356720919e-08

 153	8.175230379436568e+02
	2.060320275890124e-06
	2.117361171235928e-08

 154	8.413951416452022e+02
	2.038390399815970e-06
	2.094898429970511e-08

 155	8.659643233600727e+02
	2.017044801102218e-06
	2.073040234226890e-08

 156	8.912509381337532e+02
	1.996262242210866e-06
	2.051764904905928e-08

 157	9.172759353897875e+02
	1.976022584982197e-06
	2.031051907555548e-08

 158	9.440608762859316e+02
	1.956306721601844e-06
	2.010881781705642e-08

 159	9.716279515771147e+02
	1.937096509486594e-06
	1.991236074297586e-08

 160	1.000000000000009e+03
	1.918374709911725e-06
	1.972097277019200e-08

 161	1.029200527194437e+03
	1.900124930195816e-06
	1.953448767359583e-08

 162	1.059253725177299e+03
	1.882331569266041e-06
	1.935274753202112e-08

 163	1.090184492385138e+03
	1.864979766435689e-06
	1.917560220778586e-08

 164	1.122018454301974e+03
	1.848055353219225e-06
	1.900290885812610e-08

 165	1.154781984689469e+03
	1.831544808031293e-06
	1.883453147685431e-08

 166	1.188502227437030e+03
	1.815435213602769e-06
	1.867034046463338e-08

 167	1.223207119049943e+03
	1.799714216967545e-06
	1.851021222631410e-08

 168	1.258925411794179e+03
	1.784369991871612e-06
	1.835402879384303e-08

 169	1.295686697517032e+03
	1.769391203463160e-06
	1.820167747330981e-08

 170	1.333521432163337e+03
	1.754766975128141e-06
	1.805305051476071e-08

 171	1.372460961007575e+03
	1.740486857341203e-06
	1.790804480346781e-08

 172	1.412537544622768e+03
	1.726540798411380e-06
	1.776656157140096e-08

 173	1.453784385607676e+03
	1.712919116996161e-06
	1.762850612770956e-08

 174	1.496235656094448e+03
	1.699612476279129e-06
	1.749378760707893e-08

 175	1.539926526059507e+03
	1.686611859698621e-06
	1.736231873487873e-08

 176	1.584893192461129e+03
	1.673908548123848e-06
	1.723401560808401e-08

 177	1.631172909227855e+03
	1.661494098383855e-06
	1.710879749099042e-08

 178	1.678804018122577e+03
	1.649360323053545e-06
	1.698658662480716e-08

 179	1.727825980507881e+03
	1.637499271409789e-06
	1.686730805025454e-08

 180	1.778279410038941e+03
	1.625903211473023e-06
	1.675088944234251e-08

 181	1.830206106311075e+03
	1.614564613054562e-06
	1.663726095655103e-08

 182	1.883649089489820e+03
	1.603476131736389e-06
	1.652635508567821e-08

 183	1.938652635952227e+03
	1.592630593706804e-06
	1.641810652666255e-08

 184	1.995262314968900e+03
	1.582020981390025e-06
	1.631245205672582e-08

 185	2.053525026457167e+03
	1.571640419803171e-06
	1.620933041822088e-08

 186	2.113489039836669e+03
	1.561482163577118e-06
	1.610868221160460e-08

 187	2.175204034019545e+03
	1.551539584590478e-06
	1.601044979599253e-08

 188	2.238721138568363e+03
	1.541806160155717e-06
	1.591457719677949e-08

 189	2.304092976055870e+03
	1.532275461710552e-06
	1.582101001984657e-08

 190	2.371373705661681e+03
	1.522941143966626e-06
	1.572969537190117e-08

 191	2.440619068042006e+03
	1.513796934467508e-06
	1.564058178652507e-08

 192	2.511886431509607e+03
	1.504836623515827e-06
	1.555361915553215e-08

 193	2.585234839562218e+03
	1.496054054429596e-06
	1.546875866526053e-08

 194	2.660725059798838e+03
	1.487443114090049e-06
	1.538595273745185e-08

 195	2.738419634264391e+03
	1.478997723745807e-06
	1.530515497438446e-08

 196	2.818382931264484e+03
	1.470711830043268e-06
	1.522632010795735e-08

 197	2.900681198693185e+03
	1.462579396252998e-06
	1.514940395243433e-08

 198	2.985382618917992e+03
	1.454594393663450e-06
	1.507436336057981e-08

 199	3.072557365267480e+03
	1.446750793120853e-06
	1.500115618293582e-08

 200	3.162277660168414e+03
	1.439042556691043e-06
	1.492974123000252e-08

 201	3.254617834980495e+03
	1.431463629425503e-06
	1.486007823710457e-08

 202	3.349654391578314e+03
	1.424007931215050e-06
	1.479212783173643e-08

 203	3.447466065731532e+03
	1.416669348716645e-06
	1.472585150319867e-08

 204	3.548133892335794e+03
	1.409441727345417e-06
	1.466121157434286e-08

 205	3.651741272548418e+03
	1.402318863322004e-06
	1.459817117526089e-08

 206	3.758374042884484e+03
	1.395294495772126e-06
	1.453669421876650e-08

 207	3.868120546330566e+03
	1.388362298878257e-06
	1.447674537752008e-08

 208	3.981071705535018e+03
	1.381515874086303e-06
	1.441829006266895e-08

 209	4.097321098135462e+03
	1.374748742373898e-06
	1.436129440387443e-08

 210	4.216965034285871e+03
	1.368054336592849e-06
	1.430572523061285e-08

 211	4.340102636447489e+03
	1.361425993900109e-06
	1.425155005464529e-08

 212	4.466835921509683e+03
	1.354856948299071e-06
	1.419873705355308e-08

 213	4.597269885308776e+03
	1.348340323317295e-06
	1.414725505525328e-08

 214	4.731512589614861e+03
	1.341869124850804e-06
	1.409707352340440e-08

 215	4.869675251658689e+03
	1.335436234213133e-06
	1.404816254362904e-08

 216	5.011872336272783e+03
	1.329034401432062e-06
	1.400049281048017e-08

 217	5.158221650723120e+03
	1.322656238846232e-06
	1.395403561508278e-08

 218	5.308844442309948e+03
	1.316294215054278e-06
	1.390876283339521e-08

 219	5.463865498818609e+03
	1.309940649286737e-06
	1.386464691503017e-08

 220	5.623413251903560e+03
	1.303587706268343e-06
	1.382166087258788e-08

 221	5.787619883491278e+03
	1.297227391653437e-06
	1.377977827145151e-08

 222	5.956621435290179e+03
	1.290851548122323e-06
	1.373897322000620e-08

 223	6.130557921498284e+03
	1.284451852236564e-06
	1.369922036024049e-08

 224	6.309573444802011e+03
	1.278019812157349e-06
	1.366049485869635e-08

 225	6.493816315762195e+03
	1.271546766344427e-06
	1.362277239773495e-08

 226	6.683439175686231e+03
	1.265023883355170e-06
	1.358602916709204e-08

 227	6.878599123088164e+03
	1.258442162878065e-06
	1.355024185569403e-08

 228	7.079457843841470e+03
	1.251792438140554e-06
	1.351538764371402e-08

 229	7.286181745132371e+03
	1.245065379835753e-06
	1.348144419484545e-08

 230	7.498942093324656e+03
	1.238251501725251e-06
	1.344838964877790e-08

 231	7.717915155850224e+03
	1.231341168074030e-06
	1.341620261385460e-08

 232	7.943282347242919e+03
	1.224324603084390e-06
	1.338486215990126e-08

 233	8.175230379436608e+03
	1.217191902492264e-06
	1.335434781121270e-08

 234	8.413951416452062e+03
	1.209933047495120e-06
	1.332463953968435e-08

 235	8.659643233600769e+03
	1.202537921174279e-06
	1.329571775808328e-08

 236	8.912509381337575e+03
	1.194996327574389e-06
	1.326756331344846e-08

 237	9.172759353897920e+03
	1.187298013590328e-06
	1.324015748061364e-08

 238	9.440608762859361e+03
	1.179432693805372e-06
	1.321348195585078e-08

 239	9.716279515771193e+03
	1.171390078405045e-06
	1.318751885062585e-08

 240	1.000000000000014e+04
	1.163159904275120e-06
	1.316225068546657e-08

 241	1.029200527194442e+04
	1.154731969364615e-06
	1.313766038394046e-08

 242	1.059253725177303e+04
	1.146096170368762e-06
	1.311373126674051e-08

 243	1.090184492385143e+04
	1.137242543751039e-06
	1.309044704587929e-08

 244	1.122018454301979e+04
	1.128161310083516e-06
	1.306779181899200e-08

 245	1.154781984689474e+04
	1.118842921641089e-06
	1.304575006374868e-08

 246	1.188502227437035e+04
	1.109278113136237e-06
	1.302430663237966e-08

 247	1.223207119049949e+04
	1.099457955423878e-06
	1.300344674631472e-08

 248	1.258925411794185e+04
	1.089373911950099e-06
	1.298315599094059e-08

 249	1.295686697517038e+04
	1.079017897655417e-06
	1.296342031047905e-08

 250	1.333521432163343e+04
	1.068382339977912e-06
	1.294422600299306e-08

 251	1.372460961007581e+04
	1.057460241536510e-06
	1.292555971552146e-08

 252	1.412537544622774e+04
	1.046245244008545e-06
	1.290740843935121e-08

 253	1.453784385607682e+04
	1.034731692650645e-06
	1.288975950543300e-08

 254	1.496235656094455e+04
	1.022914700850888e-06
	1.287260057994380e-08

 255	1.539926526059514e+04
	1.010790214045402e-06
	1.285591966000635e-08

 256	1.584893192461136e+04
	9.983550722794655e-07
	1.283970506957356e-08

 257	1.631172909227862e+04
	9.856070706594822e-07
	1.282394545548269e-08

 258	1.678804018122584e+04
	9.725450169078910e-07
	1.280862978369127e-08

 259	1.727825980507888e+04
	9.591687852172153e-07
	1.279374733570409e-08

 260	1.778279410038948e+04
	9.454793656029978e-07
	1.277928770519979e-08

 261	1.830206106311082e+04
	9.314789079622465e-07
	1.276524079486886e-08

 262	1.883649089489827e+04
	9.171707600781145e-07
	1.275159681347514e-08

 263	1.938652635952235e+04
	9.025594988606031e-07
	1.273834627315364e-08

 264	1.995262314968908e+04
	8.876509541710119e-07
	1.272547998695780e-08

