Title: * sky130 bjt 2-stage ppa sweep ac: ce1 -> ce2 -> output rebias -> ideal opamp follower -> two rc poles
Date: Sat May 23 05:48:59  2026
Command: ngspice-46, Build Mar 29 2026   15:02:07
Plotname: AC Analysis
Flags: complex
No. Variables: 11
No. Points: 721
Variables:
	0	frequency	frequency grid=3
	1	v(vin)	voltage
	2	v(b1_collector)	voltage
	3	v(b2_collector)	voltage
	4	v(vout_drv)	voltage
	5	v(vfilt1)	voltage
	6	v(vout_final)	voltage
	7	gain	notype
	8	gain_vv	notype
	9	gain_db	decibel
	10	phase_deg	phase
Values:
 0	1.000000000000000e-03,0.000000000000000e+00
	1.000000000000000e+00,0.000000000000000e+00
	-1.074606971015754e-07,-7.488248761831980e-04
	-5.607386890514690e-07,1.453470856282763e-10
	-1.010048140075069e-13,-1.761612228791685e-10
	-1.010086764589192e-13,-1.761612228769538e-10
	-1.010104474246908e-13,-1.761612228759383e-10
	-1.010104474246908e-13,-1.761612228759383e-10
	1.761612518355172e-10,0.0
	-1.950817922436357e+02,0.0
	-1.571369724474053e+00,0.0

 1	1.029200527194428e-03,0.000000000000000e+00
	1.000000000000000e+00,0.000000000000000e+00
	-1.138281435762263e-07,-7.706909564039628e-04
	-5.939645433943954e-07,1.584551384078223e-10
	-1.133292643196317e-13,-1.920482306995656e-10
	-1.133335980613354e-13,-1.920482306970081e-10
	-1.133355851175858e-13,-1.920482306958355e-10
	-1.133355851175858e-13,-1.920482306958355e-10
	1.920482641378352e-10,0.0
	-1.943317922785693e+02,0.0
	-1.571386467987814e+00,0.0

 2	1.059253725177289e-03,0.000000000000000e+00
	1.000000000000000e+00,0.000000000000000e+00
	-1.205728849574095e-07,-7.931955376099776e-04
	-6.291591531554077e-07,1.727453342180783e-10
	-1.271575248260687e-13,-2.093679998466568e-10
	-1.271623873641655e-13,-2.093679998437035e-10
	-1.271646168779157e-13,-2.093679998423494e-10
	-1.271646168779157e-13,-2.093679998423494e-10
	2.093680384605678e-10,0.0
	-1.935817923155743e+02,0.0
	-1.571403700420936e+00,0.0

 3	1.090184492385128e-03,0.000000000000000e+00
	1.000000000000000e+00,0.000000000000000e+00
	-1.277172773717976e-07,-8.163572643591058e-04
	-6.664391743998128e-07,1.883242840196798e-10
	-1.426730880878502e-13,-2.282497431101256e-10
	-1.426785439452454e-13,-2.282497431067152e-10
	-1.426810455007786e-13,-2.282497431051514e-10
	-1.426810455007786e-13,-2.282497431051514e-10
	2.282497877007739e-10,0.0
	-1.928317923547714e+02,0.0
	-1.571421436050114e+00,0.0

 4	1.122018454301964e-03,0.000000000000000e+00
	1.000000000000000e+00,0.000000000000000e+00
	-1.352850016295625e-07,-8.401953256393176e-04
	-7.059281754960464e-07,2.053082134273232e-10
	-1.600818361381980e-13,-2.488343262597162e-10
	-1.600879577107793e-13,-2.488343262557779e-10
	-1.600907645022060e-13,-2.488343262539721e-10
	-1.600907645022060e-13,-2.488343262539721e-10
	2.488343777521931e-10,0.0
	-1.920817923962886e+02,0.0
	-1.571439689568933e+00,0.0

 5	1.154781984689459e-03,0.000000000000000e+00
	1.000000000000000e+00,0.000000000000000e+00
	-1.433011417167920e-07,-8.647294707663498e-04
	-7.477570466943040e-07,2.238238298019668e-10
	-1.796147724098954e-13,-2.712753189615652e-10
	-1.796216409271820e-13,-2.712753189570172e-10
	-1.796247901989057e-13,-2.712753189549320e-10
	-1.796247901989057e-13,-2.712753189549320e-10
	2.712753784241491e-10,0.0
	-1.913317924402693e+02,0.0
	-1.571458476100035e+00,0.0

 6	1.188502227437019e-03,0.000000000000000e+00
	1.000000000000000e+00,0.000000000000000e+00
	-1.517922679388684e-07,-8.899800257454836e-04
	-7.920644339762620e-07,2.440092675421662e-10
	-2.015310870085686e-13,-2.957401404713959e-10
	-2.015387936115764e-13,-2.957401404661440e-10
	-2.015423271525031e-13,-2.957401404637361e-10
	-2.015423271525031e-13,-2.957401404637361e-10
	2.957402091377160e-10,0.0
	-1.905817924868560e+02,0.0
	-1.571477811207653e+00,0.0

 7	1.223207119049932e-03,0.000000000000000e+00
	1.000000000000000e+00,0.000000000000000e+00
	-1.607865249904556e-07,-9.159679101114579e-04
	-8.389971986096801e-07,2.660151186249571e-10
	-2.261215960049529e-13,-3.224113086504020e-10
	-2.261302429555795e-13,-3.224113086443372e-10
	-2.261342076536312e-13,-3.224113086415564e-10
	-2.261342076536312e-13,-3.224113086415564e-10
	3.224113879450303e-10,0.0
	-1.898317925362011e+02,0.0
	-1.571497710910500e+00,0.0

 8	1.258925411794168e-03,0.000000000000000e+00
	1.000000000000000e+00,0.000000000000000e+00
	-1.703137252437728e-07,-9.427146542592737e-04
	-8.887109039337240e-07,2.900055560858650e-10
	-2.537126003841186e-13,-3.514878016228151e-10
	-2.537223024220954e-13,-3.514878016158116e-10
	-2.537267508863835e-13,-3.514878016126005e-10
	-2.537267508863835e-13,-3.514878016126005e-10
	3.514878931908223e-10,0.0
	-1.890817925884718e+02,0.0
	-1.571518191695046e+00,0.0

 9	1.295686697517020e-03,0.000000000000000e+00
	1.000000000000000e+00,0.000000000000000e+00
	-1.804054475647100e-07,-9.702424172817944e-04
	-9.413703309896577e-07,3.161595588198374e-10
	-2.846702158577727e-13,-3.831865422341362e-10
	-2.846811017231895e-13,-3.831865422260487e-10
	-2.846860929821053e-13,-3.831865422223405e-10
	-2.846860929821053e-13,-3.831865422223405e-10
	3.831866479752199e-10,0.0
	-1.883317926438380e+02,0.0
	-1.571539270529173e+00,0.0

 10	1.333521432163325e-03,0.000000000000000e+00
	1.000000000000000e+00,0.000000000000000e+00
	-1.910951419840714e-07,-9.985740053278496e-04
	-9.971500247022085e-07,3.446722468392598e-10
	-3.194052309924008e-13,-4.177440163831695e-10
	-3.194174451340073e-13,-4.177440163738303e-10
	-3.194230454184915e-13,-4.177440163695481e-10
	-3.194230454184915e-13,-4.177440163695481e-10
	4.177441384910664e-10,0.0
	-1.875817927024841e+02,0.0
	-1.571560964876232e+00,0.0

 11	1.372460961007563e-03,0.000000000000000e+00
	1.000000000000000e+00,0.000000000000000e+00
	-2.024182405710610e-07,-1.027732890496683e-03
	-1.056234872425440e-06,3.757563369521024e-10
	-3.583785581185837e-13,-4.554180373025312e-10
	-3.583922626105344e-13,-4.554180372917464e-10
	-3.583985462329212e-13,-4.554180372868014e-10
	-3.583985462329212e-13,-4.554180372868014e-10
	4.554181783105285e-10,0.0
	-1.868317927646069e+02,0.0
	-1.571583292709512e+00,0.0

 12	1.412537544622755e-03,0.000000000000000e+00
	1.000000000000000e+00,0.000000000000000e+00
	-2.144122748762944e-07,-1.057743230283680e-03
	-1.118820716769782e-06,4.096437297195658e-10
	-4.021073493512526e-13,-4.964896689494682e-10
	-4.021227260437294e-13,-4.964896689370142e-10
	-4.021297763838245e-13,-4.964896689313038e-10
	-4.021297763838245e-13,-4.964896689313038e-10
	4.964898317829608e-10,0.0
	-1.860817928304121e+02,0.0
	-1.571606272527132e+00,0.0

 13	1.453784385607663e-03,0.000000000000000e+00
	1.000000000000000e+00,0.000000000000000e+00
	-2.271170003339877e-07,-1.088629887594702e-03
	-1.185115004740886e-06,4.465872395326647e-10
	-4.511718588764948e-13,-5.412653228559331e-10
	-4.511891118087461e-13,-5.412653228415514e-10
	-4.511970224202246e-13,-5.412653228349571e-10
	-4.511970224202246e-13,-5.412653228349571e-10
	5.412655108931137e-10,0.0
	-1.853317929001150e+02,0.0
	-1.571629923367364e+00,0.0

 14	1.496235656094435e-03,0.000000000000000e+00
	1.000000000000000e+00,0.000000000000000e+00
	-2.405745280349652e-07,-1.120418451343454e-03
	-1.255337475341196e-06,4.868624807140017e-10
	-5.062231425624898e-13,-5.900790440807857e-10
	-5.062425006703034e-13,-5.900790440641777e-10
	-5.062513765221090e-13,-5.900790440565629e-10
	-5.062513765221090e-13,-5.900790440565629e-10
	5.900792612227303e-10,0.0
	-1.845817929739478e+02,0.0
	-1.571654264824405e+00,0.0

 15	1.539926526059493e-03,0.000000000000000e+00
	1.000000000000000e+00,0.000000000000000e+00
	-2.548294643082664e-07,-1.153135257651924e-03
	-1.329720887915934e-06,5.307699237176510e-10
	-5.679916970647825e-13,-6.432950033192910e-10
	-5.680134172183205e-13,-6.432950033001123e-10
	-5.680233760875371e-13,-6.432950032913188e-10
	-5.680233760875371e-13,-6.432950032913188e-10
	6.432952540708921e-10,0.0
	-1.838317930521551e+02,0.0
	-1.571679317064613e+00,0.0

 16	1.584893192461115e-03,0.000000000000000e+00
	1.000000000000000e+00,0.000000000000000e+00
	-2.699290585730485e-07,-1.186807411668679e-03
	-1.408511793655045e-06,5.786371367654547e-10
	-6.372971530599387e-13,-7.013102137607542e-10
	-6.373215234722432e-13,-7.013102137386070e-10
	-6.373326975069235e-13,-7.013102137284523e-10
	-6.373326975069235e-13,-7.013102137284523e-10
	7.013105033241801e-10,0.0
	-1.830817931349981e+02,0.0
	-1.571705100843213e+00,0.0

 17	1.631172909227840e-03,0.000000000000000e+00
	1.000000000000000e+00,0.000000000000000e+00
	-2.859233599514819e-07,-1.221462810024941e-03
	-1.491971352810686e-06,6.308212296447169e-10
	-7.150591512317176e-13,-7.645574929641053e-10
	-7.150864952831168e-13,-7.645574929385302e-10
	-7.150990327558038e-13,-7.645574929268037e-10
	-7.150990327558038e-13,-7.645574929268037e-10
	7.645578273467261e-10,0.0
	-1.823317932227491e+02,0.0
	-1.571731637521490e+00,0.0

 18	1.678804018122562e-03,0.000000000000000e+00
	1.000000000000000e+00,0.000000000000000e+00
	-3.028653831613790e-07,-1.257130163945870e-03
	-1.580376200335819e-06,6.877115178976140e-10
	-8.023095453256115e-13,-8.335086918464862e-10
	-8.023402258547732e-13,-8.335086918169527e-10
	-8.023542931299833e-13,-8.335086918034111e-10
	-8.023542931299833e-13,-8.335086918034111e-10
	8.335090779855043e-10,0.0
	-1.815817933156987e+02,0.0
	-1.571758949084488e+00,0.0

 19	1.727825980507865e-03,0.000000000000000e+00
	1.000000000000000e+00,0.000000000000000e+00
	-3.208112842385394e-07,-1.293839023036751e-03
	-1.674019362815879e-06,7.497324272791874e-10
	-9.002060941993682e-13,-9.086782148754737e-10
	-9.002405183179402e-13,-9.086782148413687e-10
	-9.002563020597154e-13,-9.086782148257314e-10
	-9.002563020597154e-13,-9.086782148257314e-10
	9.086786607818451e-10,0.0
	-1.808317934141562e+02,0.0
	-1.571787058159227e+00,0.0

 20	1.778279410038925e-03,0.000000000000000e+00
	1.000000000000000e+00,0.000000000000000e+00
	-3.398205466717481e-07,-1.331619799764790e-03
	-1.773211229731996e-06,8.173466601525619e-10
	-1.010047824554033e-12,-9.906268577263985e-10
	-1.010086449048757e-12,-9.906268576870146e-10
	-1.010104158697579e-12,-9.906268576689570e-10
	-1.010104158697579e-12,-9.906268576689570e-10
	9.906273726510305e-10,0.0
	-1.800817935184491e+02,0.0
	-1.571815988033441e+00,0.0

 21	1.830206106311058e-03,0.000000000000000e+00
	1.000000000000000e+00,0.000000000000000e+00
	-3.599561785661168e-07,-1.370503794653839e-03
	-1.878280582275815e-06,8.910586474437994e-10
	-1.133292268199044e-12,-1.079965991035346e-09
	-1.133335605593027e-12,-1.079965990989866e-09
	-1.133355476144960e-12,-1.079965990969014e-09
	-1.133355476144960e-12,-1.079965990969014e-09
	1.079966585661019e-09,0.0
	-1.793317936289190e+02,0.0
	-1.571845762674880e+00,0.0

 22	1.883649089489803e-03,0.000000000000000e+00
	1.000000000000000e+00,0.000000000000000e+00
	-3.812849214896015e-07,-1.410523222216090e-03
	-1.989575683121073e-06,9.714183119073408e-10
	-1.271574802575722e-12,-1.177362121457158e-09
	-1.271623427929290e-12,-1.177362121404639e-09
	-1.271645723054228e-12,-1.177362121380559e-09
	-1.271645723054228e-12,-1.177362121380559e-09
	1.177362808120154e-09,0.0
	-1.785817937459365e+02,0.0
	-1.571876406751159e+00,0.0

 23	1.938652635952210e-03,0.000000000000000e+00
	1.000000000000000e+00,0.000000000000000e+00
	-4.038774716947234e-07,-1.451711237641541e-03
	-2.107465430774081e-06,1.059025170782584e-09
	-1.426730351181116e-12,-1.283541864060969e-09
	-1.426784909722502e-12,-1.283541864000321e-09
	-1.426809925262901e-12,-1.283541863972513e-09
	-1.426809925262901e-12,-1.283541863972513e-09
	1.283542657007003e-09,0.0
	-1.778317938698872e+02,0.0
	-1.571907945650199e+00,0.0

 24	1.995262314968882e-03,0.000000000000000e+00
	1.000000000000000e+00,0.000000000000000e+00
	-4.278087144475242e-07,-1.494101964264765e-03
	-2.232340582317451e-06,1.154532808442385e-09
	-1.600817731834740e-12,-1.399297363152155e-09
	-1.600878947521849e-12,-1.399297363082120e-09
	-1.600907015418370e-12,-1.399297363050008e-09
	-1.600907015418370e-12,-1.399297363050008e-09
	1.399298278831921e-09,0.0
	-1.770817940011839e+02,0.0
	-1.571940405501259e+00,0.0

 25	2.053525026457149e-03,0.000000000000000e+00
	1.000000000000000e+00,0.000000000000000e+00
	-4.531579722424220e-07,-1.537730521835877e-03
	-2.364615048610494e-06,1.258653752408462e-09
	-1.796146975881163e-12,-1.525492201967726e-09
	-1.796215661008028e-12,-1.525492201886851e-09
	-1.796247153704172e-12,-1.525492201849769e-09
	-1.796247153704172e-12,-1.525492201849769e-09
	1.525493259378190e-09,0.0
	-1.763317941402588e+02,0.0
	-1.571973813196581e+00,0.0

 26	2.113489039836650e-03,0.000000000000000e+00
	1.000000000000000e+00,0.000000000000000e+00
	-4.800092677236666e-07,-1.582633055615133e-03
	-2.504727266229286e-06,1.372164789102558e-09
	-2.015309980827221e-12,-1.663067845327145e-09
	-2.015387046802628e-12,-1.663067845233751e-09
	-2.015422382186826e-12,-1.663067845190930e-09
	-2.015422382186826e-12,-1.663067845190930e-09
	1.663069066405656e-09,0.0
	-1.755817942875758e+02,0.0
	-1.572008196413673e+00,0.0

 27	2.175204034019526e-03,0.000000000000000e+00
	1.000000000000000e+00,0.000000000000000e+00
	-5.084516021869842e-07,-1.628846766319096e-03
	-2.653141650704485e-06,1.495912759000371e-09
	-2.261214903163530e-12,-1.813050663309157e-09
	-2.261301372604819e-12,-1.813050663201309e-09
	-2.261341019555543e-12,-1.813050663151859e-09
	-2.261341019555543e-12,-1.813050663151859e-09
	1.813052073388572e-09,0.0
	-1.748317944436217e+02,0.0
	-1.572043583638236e+00,0.0

 28	2.238721138568343e-03,0.000000000000000e+00
	1.000000000000000e+00,0.000000000000000e+00
	-5.385792505820841e-07,-1.676409940938718e-03
	-2.810350135864121e-06,1.630820874413967e-09
	-2.537124747730509e-12,-1.976559588347152e-09
	-2.537221768033050e-12,-1.976559588222610e-09
	-2.537266252640522e-12,-1.976559588165506e-09
	-2.537266252640522e-12,-1.976559588165506e-09
	1.976561216681394e-09,0.0
	-1.740817946089123e+02,0.0
	-1.572080004187763e+00,0.0

 29	2.304092976055850e-03,0.000000000000000e+00
	1.000000000000000e+00,0.000000000000000e+00
	-5.704920739963023e-07,-1.725361984459552e-03
	-2.976873804387188e-06,1.777895607039559e-09
	-2.846700665686658e-12,-2.154814462868997e-09
	-2.846809524249043e-12,-2.154814462725179e-09
	-2.846859436796116e-12,-2.154814462659236e-09
	-2.846859436796116e-12,-2.154814462659236e-09
	2.154816343239967e-09,0.0
	-1.733317947839991e+02,0.0
	-1.572117488235829e+00,0.0

 30	2.371373705661660e-03,0.000000000000000e+00
	1.000000000000000e+00,0.000000000000000e+00
	-6.042958506534383e-07,-1.775743452507296e-03
	-3.153264614978460e-06,1.938234196658213e-09
	-3.194050535619140e-12,-2.349145139761161e-09
	-3.194172676926121e-12,-2.349145139595082e-09
	-3.194228679720946e-12,-2.349145139518932e-09
	-3.194228679720946e-12,-2.349145139518932e-09
	2.349147311179587e-09,0.0
	-1.725817949694590e+02,0.0
	-1.572156066837089e+00,0.0

 31	2.440619068041985e-03,0.000000000000000e+00
	1.000000000000000e+00,0.000000000000000e+00
	-6.401026265254144e-07,-1.827596084945858e-03
	-3.340107231876054e-06,2.113032836998324e-09
	-3.583783472421179e-12,-2.561001403539339e-09
	-3.583920517211038e-12,-2.561001403347554e-09
	-3.583983353375462e-12,-2.561001403259618e-09
	-3.583983353375462e-12,-2.561001403259618e-09
	2.561003911054103e-09,0.0
	-1.718317951659074e+02,0.0
	-1.572195771953003e+00,0.0

 32	2.511886431509585e-03,0.000000000000000e+00
	1.000000000000000e+00,0.000000000000000e+00
	-6.780310867188421e-07,-1.880962840457320e-03
	-3.538020962768736e-06,2.303595599837751e-09
	-4.021070987242942e-12,-2.791963786248927e-09
	-4.021224754013624e-12,-2.791963786027457e-09
	-4.021295257343925e-12,-2.791963785925910e-09
	-4.021295257343925e-12,-2.791963785925910e-09
	2.791966681881660e-09,0.0
	-1.710817953739953e+02,0.0
	-1.572236636478317e+00,0.0

 33	2.585234839562196e-03,0.000000000000000e+00
	1.000000000000000e+00,0.000000000000000e+00
	-7.182069488681303e-07,-1.935887932131735e-03
	-3.747661811537211e-06,2.511344163918292e-09
	-4.511715610057095e-12,-3.043755358777720e-09
	-4.511888139196475e-12,-3.043755358521971e-09
	-4.511967245227294e-12,-3.043755358404707e-09
	-4.511967245227294e-12,-3.043755358404707e-09
	3.043758702602062e-09,0.0
	-1.703317955944166e+02,0.0
	-1.572278694268315e+00,0.0

 34	2.660725059798815e-03,0.000000000000000e+00
	1.000000000000000e+00,0.000000000000000e+00
	-7.607633798377307e-07,-1.992416864095346e-03
	-3.969724652634250e-06,2.737828421261182e-09
	-5.062227885424094e-12,-3.318254585554990e-09
	-5.062421466284581e-12,-3.318254585259655e-09
	-5.062510224702840e-12,-3.318254585124240e-09
	-5.062510224702840e-12,-3.318254585124240e-09
	3.318258446942887e-09,0.0
	-1.695817958278969e+02,0.0
	-1.572321980166863e+00,0.0

 35	2.738419634264367e-03,0.000000000000000e+00
	1.000000000000000e+00,0.000000000000000e+00
	-8.058414371162232e-07,-2.050596469209225e-03
	-4.204945534290757e-06,2.984738039995102e-09
	-5.679912763110259e-12,-3.617509338519510e-09
	-5.680129964386958e-12,-3.617509338178462e-09
	-5.680229552960518e-12,-3.617509338022087e-09
	-5.680229552960518e-12,-3.617509338022087e-09
	3.617513797580429e-09,0.0
	-1.688317960752131e+02,0.0
	-1.572366530035282e+00,0.0

 36	2.818382931264460e-03,0.000000000000000e+00
	1.000000000000000e+00,0.000000000000000e+00
	-8.535905363636144e-07,-2.110474947867360e-03
	-4.454104118207506e-06,3.253915069981267e-09
	-6.372966529933282e-12,-3.943752174923790e-09
	-6.373210233748886e-12,-3.943752174529953e-09
	-6.373321973954724e-12,-3.943752174349375e-09
	-6.373321973954724e-12,-3.943752174349375e-09
	3.943757324166690e-09,0.0
	-1.680817963371817e+02,0.0
	-1.572412380782049e+00,0.0

 37	2.900681198693160e-03,0.000000000000000e+00
	1.000000000000000e+00,0.000000000000000e+00
	-9.041689466631442e-07,-2.172101907929056e-03
	-4.718026263794320e-06,3.547367685257331e-09
	-7.150585569015982e-12,-4.299416992929234e-09
	-7.150859009164582e-12,-4.299416992474440e-09
	-7.150984383723913e-12,-4.299416992265911e-09
	-7.150984383723913e-12,-4.299416992265911e-09
	4.299422939181781e-09,0.0
	-1.673317966146726e+02,0.0
	-1.572459570393383e+00,0.0

 38	2.985382618917966e-03,0.000000000000000e+00
	1.000000000000000e+00,0.000000000000000e+00
	-9.577443151179306e-07,-2.235528405815621e-03
	-4.997586765540958e-06,3.867285165841286e-09
	-8.023088389630515e-12,-4.687157189260923e-09
	-8.023395194487866e-12,-4.687157188735735e-09
	-8.023535867040844e-12,-4.687157188494930e-09
	-8.023535867040844e-12,-4.687157188494930e-09
	4.687164055885766e-09,0.0
	-1.665817969086058e+02,0.0
	-1.572508137964707e+00,0.0

 39	3.072557365267454e-03,0.000000000000000e+00
	1.000000000000000e+00,0.000000000000000e+00
	-1.014494222532534e-06,-2.300806988809232e-03
	-5.293712252580798e-06,4.216054230651608e-09
	-9.002052546857363e-12,-5.109865454370270e-09
	-9.002396787526952e-12,-5.109865453763792e-09
	-9.002554624708051e-12,-5.109865453485714e-09
	-9.002554624708051e-12,-5.109865453485714e-09
	5.109873383824352e-09,0.0
	-1.658317972199581e+02,0.0
	-1.572558123733040e+00,0.0

 40	3.162277660168387e-03,0.000000000000000e+00
	1.000000000000000e+00,0.000000000000000e+00
	-1.074606772019746e-06,-2.367991738584679e-03
	-5.607384260067802e-06,4.596276843409358e-09
	-1.010046826790236e-11,-5.570695352788595e-09
	-1.010085451223618e-11,-5.570695352088245e-09
	-1.010103160844314e-11,-5.570695351767126e-09
	-1.010103160844314e-11,-5.570695351767126e-09
	5.570704509578606e-09,0.0
	-1.650817975497591e+02,0.0
	-1.572609569110332e+00,0.0

 41	3.254617834980467e-03,0.000000000000000e+00
	1.000000000000000e+00,0.000000000000000e+00
	-1.138281212485277e-06,-2.437138316014263e-03
	-5.939642482535360e-06,5.010789624341604e-09
	-1.133291082354783e-11,-6.073084849652389e-09
	-1.133334419675860e-11,-6.073084848843638e-09
	-1.133354290194365e-11,-6.073084848472816e-09
	-1.133354290194365e-11,-6.073084848472816e-09
	6.073095423747662e-09,0.0
	-1.643317978990983e+02,0.0
	-1.572662516717768e+00,0.0

 42	3.349654391578285e-03,0.000000000000000e+00
	1.000000000000000e+00,0.000000000000000e+00
	-1.205728599053209e-06,-2.508304007276814e-03
	-6.291588220019138e-06,5.462685012507712e-09
	-1.271573393197147e-11,-6.620781958907468e-09
