Title: * sky130 bjt 2-stage ppa sweep ac: ce1 -> ce2 -> output rebias -> ideal opamp follower -> two rc poles
Date: Sat May 23 05:48:59  2026
Command: ngspice-46, Build Mar 29 2026   15:02:07
Plotname: AC Analysis
Flags: complex
No. Variables: 11
No. Points: 721
Variables:
	0	frequency	frequency grid=3
	1	v(vin)	voltage
	2	v(b1_collector)	voltage
	3	v(b2_collector)	voltage
	4	v(vout_drv)	voltage
	5	v(vfilt1)	voltage
	6	v(vout_final)	voltage
	7	gain	notype
	8	gain_vv	notype
	9	gain_db	decibel
	10	phase_deg	phase
Values:
 0	1.000000000000000e-03,0.000000000000000e+00
	1.000000000000000e+00,0.000000000000000e+00
	-2.187755135469838e-07,-1.295606033438578e-03
	-1.678594977372071e-06,4.938124393488911e-10
	-3.208064052718290e-13,-5.273460641421777e-10
	-3.208230703394187e-13,-5.273460641320392e-10
	-3.208306911894151e-13,-5.273460641274028e-10
	-3.208306911894151e-13,-5.273460641274028e-10
	5.273461617220659e-10,0.0
	-1.855580842129045e+02,0.0
	-1.571404714101507e+00,0.0

 1	1.029200527194428e-03,0.000000000000000e+00
	1.000000000000000e+00,0.000000000000000e+00
	-2.317387773110860e-07,-1.333438410399257e-03
	-1.778057975802997e-06,5.383466619980394e-10
	-3.599507036382825e-13,-5.749044924607297e-10
	-3.599694021513745e-13,-5.749044924490216e-10
	-3.599779528855773e-13,-5.749044924436677e-10
	-3.599779528855773e-13,-5.749044924436677e-10
	5.749046051442254e-10,0.0
	-1.848080842504336e+02,0.0
	-1.571422479330790e+00,0.0

 2	1.059253725177289e-03,0.000000000000000e+00
	1.000000000000000e+00,0.000000000000000e+00
	-2.454701626960114e-07,-1.372375512509341e-03
	-1.883414526549763e-06,5.868971806745502e-10
	-4.038713281576927e-13,-6.267519521359560e-10
	-4.038923082341101e-13,-6.267519521224357e-10
	-4.039019023155281e-13,-6.267519521162530e-10
	-4.039019023155281e-13,-6.267519521162530e-10
	6.267520822608255e-10,0.0
	-1.840580842901828e+02,0.0
	-1.571440763314063e+00,0.0

 3	1.090184492385128e-03,0.000000000000000e+00
	1.000000000000000e+00,0.000000000000000e+00
	-2.600151837632200e-07,-1.412449598306807e-03
	-1.995013844435436e-06,6.398262029597885e-10
	-4.531510786456559e-13,-6.832752470726194e-10
	-4.531746186781653e-13,-6.832752470570064e-10
	-4.531853834143836e-13,-6.832752470498666e-10
	-4.531853834143836e-13,-6.832752470498666e-10
	6.832753973384729e-10,0.0
	-1.833080843322901e+02,0.0
	-1.571459581199206e+00,0.0

 4	1.122018454301964e-03,0.000000000000000e+00
	1.000000000000000e+00,0.000000000000000e+00
	-2.754220514513699e-07,-1.453693868295043e-03
	-2.113225836551430e-06,6.975286019371229e-10
	-5.084438672285856e-13,-7.448960648573630e-10
	-5.084702795789959e-13,-7.448960648393334e-10
	-5.084823578114692e-13,-7.448960648310885e-10
	-5.084823578114692e-13,-7.448960648310885e-10
	7.448962383816617e-10,0.0
	-1.825580843768919e+02,0.0
	-1.571478948576430e+00,0.0

 5	1.154781984689459e-03,0.000000000000000e+00
	1.000000000000000e+00,0.000000000000000e+00
	-2.917418333759454e-07,-1.496142492447556e-03
	-2.238442328347239e-06,7.604348621117244e-10
	-5.704833953531017e-13,-8.120741227199123e-10
	-5.705130304971134e-13,-8.120741226990920e-10
	-5.705265824965828e-13,-8.120741226895710e-10
	-5.705265824965828e-13,-8.120741226895710e-10
	8.120743231026441e-10,0.0
	-1.818080844241365e+02,0.0
	-1.571498881491184e+00,0.0

 6	1.188502227437019e-03,0.000000000000000e+00
	1.000000000000000e+00,0.000000000000000e+00
	-3.090286230980254e-07,-1.539830638517223e-03
	-2.371078362373624e-06,8.290142910077123e-10
	-6.400928895506609e-13,-8.853105972114945e-10
	-6.401261407284601e-13,-8.853105971874516e-10
	-6.401413463216476e-13,-8.853105971764569e-10
	-6.401413463216476e-13,-8.853105971764569e-10
	8.853108286098606e-10,0.0
	-1.810580844741810e+02,0.0
	-1.571519396457455e+00,0.0

 7	1.223207119049932e-03,0.000000000000000e+00
	1.000000000000000e+00,0.000000000000000e+00
	-3.273397194225828e-07,-1.584794501171353e-03
	-2.511573573980828e-06,9.037785204013919e-10
	-7.181960251441934e-13,-9.651518631861408e-10
	-7.182333335785057e-13,-9.651518631583767e-10
	-7.182503945343024e-13,-9.651518631456801e-10
	-7.182503945343024e-13,-9.651518631456801e-10
	9.651521304008022e-10,0.0
	-1.803080845271907e+02,0.0
	-1.571540510471445e+00,0.0

 8	1.258925411794168e-03,0.000000000000000e+00
	1.000000000000000e+00,0.000000000000000e+00
	-3.467358163212657e-07,-1.631071331978840e-03
	-2.660393648531092e-06,9.852853233112098e-10
	-8.058291828473220e-13,-1.052193569978824e-09
	-8.058710435981641e-13,-1.052193569946762e-09
	-8.058901863049782e-13,-1.052193569932100e-09
	-8.058901863049782e-13,-1.052193569932100e-09
	1.052193878553496e-09,0.0
	-1.795580845833408e+02,0.0
	-1.571562241025652e+00,0.0

 9	1.295686697517020e-03,0.000000000000000e+00
	1.000000000000000e+00,0.000000000000000e+00
	-3.672812041082347e-07,-1.678699470271041e-03
	-2.818031864955900e-06,1.074142775220144e-09
	-9.041552008932230e-13,-1.147085085190329e-09
	-9.042021694270408e-13,-1.147085085153305e-09
	-9.042236478968312e-13,-1.147085085136374e-09
	-9.042236478968312e-13,-1.147085085136374e-09
	1.147085441526797e-09,0.0
	-1.788080846428183e+02,0.0
	-1.571584606123364e+00,0.0

 10	1.333521432163325e-03,0.000000000000000e+00
	1.000000000000000e+00,0.000000000000000e+00
	-3.890439825369192e-07,-1.727718374905465e-03
	-2.985010730775757e-06,1.171013790576669e-09
	-1.014478805176037e-12,-1.250534339231734e-09
	-1.014531504736400e-12,-1.250534339188980e-09
	-1.014555603975256e-12,-1.250534339169428e-09
	-1.014555603975256e-12,-1.250534339169428e-09
	1.250534750722663e-09,0.0
	-1.780580847058203e+02,0.0
	-1.571607624293576e+00,0.0

 11	1.372460961007563e-03,0.000000000000000e+00
	1.000000000000000e+00,0.000000000000000e+00
	-4.120962865232392e-07,-1.778168656956005e-03
	-3.161883713999876e-06,1.276621068417132e-09
	-1.138263922152181e-12,-1.363313106769795e-09
	-1.138323052029834e-12,-1.363313106720423e-09
	-1.138350091819831e-12,-1.363313106697845e-09
	-1.138350091819831e-12,-1.363313106697845e-09
	1.363313581952098e-09,0.0
	-1.773080847725547e+02,0.0
	-1.571631314606334e+00,0.0

 12	1.412537544622755e-03,0.000000000000000e+00
	1.000000000000000e+00,0.000000000000000e+00
	-4.365145252437254e-07,-1.830092113357866e-03
	-3.349237077645600e-06,1.391752484004879e-09
	-1.277153104232013e-12,-1.486262764474329e-09
	-1.277219449044031e-12,-1.486262764417315e-09
	-1.277249788186534e-12,-1.486262764391243e-09
	-1.277249788186534e-12,-1.486262764391243e-09
	1.486263313206284e-09,0.0
	-1.765580848432446e+02,0.0
	-1.571655696688541e+00,0.0

 13	1.453784385607663e-03,0.000000000000000e+00
	1.000000000000000e+00,0.000000000000000e+00
	-4.623796354013581e-07,-1.883531761535380e-03
	-3.547691822963759e-06,1.517266966714595e-09
	-1.432989325427368e-12,-1.620300568024843e-09
	-1.433063765528528e-12,-1.620300567959004e-09
	-1.433097806605266e-12,-1.620300567928896e-09
	-1.433097806605266e-12,-1.620300567928896e-09
	1.620301201690608e-09,0.0
	-1.758080849181214e+02,0.0
	-1.571680790740215e+00,0.0

 14	1.496235656094435e-03,0.000000000000000e+00
	1.000000000000000e+00,0.000000000000000e+00
	-4.897773494979915e-07,-1.938531875040486e-03
	-3.757905747800532e-06,1.654100908005486e-09
	-1.607840436463827e-12,-1.766426495200548e-09
	-1.607923959628371e-12,-1.766426495124518e-09
	-1.607962154343441e-12,-1.766426495089750e-09
	-1.607962154343441e-12,-1.766426495089750e-09
	1.766427226946343e-09,0.0
	-1.750580849974347e+02,0.0
	-1.571706617551222e+00,0.0

 15	1.539926526059493e-03,0.000000000000000e+00
	1.000000000000000e+00,0.000000000000000e+00
	-5.187984800028741e-07,-1.995138020231298e-03
	-3.980575626928495e-06,1.803275147297220e-09
	-1.804026603866484e-12,-1.925730706109879e-09
	-1.804120318395257e-12,-1.925730706022082e-09
	-1.804163173568956e-12,-1.925730705981932e-09
	-1.804163173568956e-12,-1.925730705981932e-09
	1.925731551116725e-09,0.0
	-1.743080850814508e+02,0.0
	-1.571733198518502e+00,0.0

 16	1.584893192461115e-03,0.000000000000000e+00
	1.000000000000000e+00,0.000000000000000e+00
	-5.495392203599589e-07,-2.053397094024157e-03
	-4.216439521573777e-06,1.965902587864651e-09
	-2.024151097117979e-12,-2.099401676215762e-09
	-2.024256246544887e-12,-2.099401676114375e-09
	-2.024304330838896e-12,-2.099401676068011e-09
	-2.024304330838896e-12,-2.099401676068011e-09
	2.099402652014424e-09,0.0
	-1.735580851704436e+02,0.0
	-1.571760555663797e+00,0.0

 17	1.631172909227840e-03,0.000000000000000e+00
	1.000000000000000e+00,0.000000000000000e+00
	-5.821014638294691e-07,-2.113357362743790e-03
	-4.466279225779602e-06,2.143196499560844e-09
	-2.271134832406885e-12,-2.288735062824497e-09
	-2.271252811999804e-12,-2.288735062707417e-09
	-2.271306763462973e-12,-2.288735062653876e-09
	-2.271306763462973e-12,-2.288735062653876e-09
	2.288736189659187e-09,0.0
	-1.728080852647096e+02,0.0
	-1.571788711651890e+00,0.0

 18	1.678804018122562e-03,0.000000000000000e+00
	1.000000000000000e+00,0.000000000000000e+00
	-6.165931412237110e-07,-2.175068502112596e-03
	-4.730922857736526e-06,2.336479570323828e-09
	-2.548255131350980e-12,-2.495143371195566e-09
	-2.548387506626083e-12,-2.495143371060364e-09
	-2.548448041160934e-12,-2.495143370998537e-09
	-2.548448041160934e-12,-2.495143370998537e-09
	2.495144672443937e-09,0.0
	-1.720580853645589e+02,0.0
	-1.571817689809390e+00,0.0

 19	1.727825980507865e-03,0.000000000000000e+00
	1.000000000000000e+00,0.000000000000000e+00
	-6.531285786531817e-07,-2.238581638402981e-03
	-5.011247604647562e-06,2.547193773980505e-09
	-2.859189208986071e-12,-2.720166492374371e-09
	-2.859337736481230e-12,-2.720166492218242e-09
	-2.859405657343528e-12,-2.720166492146845e-09
	-2.859405657343528e-12,-2.720166492146845e-09
	2.720167995032509e-09,0.0
	-1.713080854703263e+02,0.0
	-1.571847514144049e+00,0.0

 20	1.778279410038925e-03,0.000000000000000e+00
	1.000000000000000e+00,0.000000000000000e+00
	-6.918288764723815e-07,-2.303949390796123e-03
	-5.308182630246948e-06,2.776911127980821e-09
	-3.208062968090499e-12,-2.965483191374021e-09
	-3.208229618673434e-12,-2.965483191193727e-09
	-3.208305827130887e-12,-2.965483191111278e-09
	-3.208305827130887e-12,-2.965483191111278e-09
	2.965484926616524e-09,0.0
	-1.705580855823611e+02,0.0
	-1.571878209364660e+00,0.0

 21	1.830206106311058e-03,0.000000000000000e+00
	1.000000000000000e+00,0.000000000000000e+00
	-7.328223106774645e-07,-2.371225914973026e-03
	-5.622712154591283e-06,3.027345421304526e-09
	-3.599505747301327e-12,-3.232923631402125e-09
	-3.599692732321760e-12,-3.232923631193924e-09
	-3.599778239613262e-12,-3.232923631098713e-09
	-3.599778239613262e-12,-3.232923631098713e-09
	3.232925635228850e-09,0.0
	-1.698080857010333e+02,0.0
	-1.571909800901519e+00,0.0

 22	1.883649089489803e-03,0.000000000000000e+00
	1.000000000000000e+00,0.000000000000000e+00
	-7.762447580896826e-07,-2.440466947981421e-03
	-5.955878716338215e-06,3.300365000044530e-09
	-4.038711749499490e-12,-3.524483027570433e-09
	-4.038921550132352e-12,-3.524483027330006e-09
	-4.039017490886482e-12,-3.524483027220058e-09
	-4.039017490886482e-12,-3.524483027220058e-09
	3.524485341553368e-09,0.0
	-1.690580858267383e+02,0.0
	-1.571942314927499e+00,0.0

 23	1.938652635952210e-03,0.000000000000000e+00
	1.000000000000000e+00,0.000000000000000e+00
	-8.222401467319675e-07,-2.511729854412187e-03
	-6.308786628331335e-06,3.598006706050704e-09
	-4.531508965578762e-12,-3.842336531951426e-09
	-4.531744365747791e-12,-3.842336531673786e-09
	-4.531852013038606e-12,-3.842336531546821e-09
	-4.531852013038606e-12,-3.842336531546821e-09
	3.842339204097150e-09,0.0
	-1.683080859598929e+02,0.0
	-1.571975778379733e+00,0.0

 24	1.995262314968882e-03,0.000000000000000e+00
	1.000000000000000e+00,0.000000000000000e+00
	-8.709609328914236e-07,-2.585073673922676e-03
	-6.682605637937632e-06,3.922491072621422e-09
	-5.084436508168244e-12,-4.188855461024627e-09
	-5.084700631486865e-12,-4.188855460704012e-09
	-5.084821413726776e-12,-4.188855460557395e-09
	-5.084821413726776e-12,-4.188855460557395e-09
	4.188858546770267e-09,0.0
	-1.675580861009368e+02,0.0
	-1.572010218981928e+00,0.0

 25	2.053525026457149e-03,0.000000000000000e+00
	1.000000000000000e+00,0.000000000000000e+00
	-9.225686064502336e-07,-2.660559170149461e-03
	-7.078574804267916e-06,4.276238890606634e-09
	-5.704831381472112e-12,-4.566624986572404e-09
	-5.705127732691784e-12,-4.566624986202166e-09
	-5.705263252585668e-12,-4.566624986032854e-09
	-5.705263252585668e-12,-4.566624986032854e-09
	4.566628549935757e-09,0.0
	-1.668080862503381e+02,0.0
	-1.572045665267333e+00,0.0

 26	2.113489039836650e-03,0.000000000000000e+00
	1.000000000000000e+00,0.000000000000000e+00
	-9.772342261589777e-07,-2.738248881048782e-03
	-7.498006605141948e-06,4.661889268516656e-09
	-6.400925838610269e-12,-4.978463422010638e-09
	-6.401258350126260e-12,-4.978463421583092e-09
	-6.401410405938322e-12,-4.978463421387576e-09
	-6.401410405938322e-12,-4.978463421387576e-09
	4.978467536918291e-09,0.0
	-1.660580864085900e+02,0.0
	-1.572082146602380e+00,0.0

 27	2.175204034019526e-03,0.000000000000000e+00
	1.000000000000000e+00,0.000000000000000e+00
	-1.035138986625928e-06,-2.818207170705187e-03
	-7.942291287394717e-06,5.082319321365866e-09
	-7.181956618314582e-12,-5.427443248024970e-09
	-7.182329702346318e-12,-5.427443247531247e-09
	-7.182500311761885e-12,-5.427443247305468e-09
	-7.182500311761885e-12,-5.427443247305468e-09
	5.427447999846010e-09,0.0
	-1.653080865762203e+02,0.0
	-1.572119693211013e+00,0.0

 28	2.238721138568343e-03,0.000000000000000e+00
	1.000000000000000e+00,0.000000000000000e+00
	-1.096474818903594e-06,-2.900500282655431e-03
	-8.412901474964846e-06,5.540665635147490e-09
	-8.058287510491881e-12,-5.916914034383234e-09
	-8.058706117630216e-12,-5.916914033813092e-09
	-8.058897544529116e-12,-5.916914033552367e-09
	-8.058897544529116e-12,-5.916914033552367e-09
	5.916919521700339e-09,0.0
	-1.645580867537842e+02,0.0
	-1.572158336199724e+00,0.0

 29	2.304092976055850e-03,0.000000000000000e+00
	1.000000000000000e+00,0.000000000000000e+00
	-1.161445026662420e-06,-2.985196394769249e-03
	-8.911397050020122e-06,6.040347667066977e-09
	-9.041546877002757e-12,-6.450527428914368e-09
	-9.042016561901088e-12,-6.450527428255979e-09
	-9.042231346397846e-12,-6.450527427954898e-09
	-9.042231346397846e-12,-6.450527427954898e-09
	6.450533765569028e-09,0.0
	-1.638080869418681e+02,0.0
	-1.572198107583330e+00,0.0

 30	2.371373705661660e-03,0.000000000000000e+00
	1.000000000000000e+00,0.000000000000000e+00
	-1.230264960057552e-06,-3.072365675729129e-03
	-9.439430323298353e-06,6.585093256098799e-09
	-1.014478195245208e-11,-7.032264400076232e-09
	-1.014530894753295e-11,-7.032264399315936e-09
	-1.014554993968245e-11,-7.032264398968253e-09
	-1.014554993968245e-11,-7.032264398968253e-09
	7.032271717530538e-09,0.0
	-1.630580871410966e+02,0.0
	-1.572239040311486e+00,0.0

 31	2.440619068041985e-03,0.000000000000000e+00
	1.000000000000000e+00,0.000000000000000e+00
	-1.303162729527928e-06,-3.162080343164208e-03
	-9.998751510819002e-06,7.178966434209618e-09
	-1.138263197248051e-11,-7.666464936360654e-09
	-1.138322327063574e-11,-7.666464935482680e-09
	-1.138349366825158e-11,-7.666464935081183e-09
	-1.138349366825158e-11,-7.666464935081183e-09
	7.666473386424649e-09,0.0
	-1.623080873521301e+02,0.0
	-1.572281168295994e+00,0.0

 32	2.511886431509585e-03,0.000000000000000e+00
	1.000000000000000e+00,0.000000000000000e+00
	-1.380379961887022e-06,-3.254414723476580e-03
	-1.059121453509491e-05,7.826397745703207e-09
	-1.277152242681548e-11,-8.357860424082819e-09
	-1.277218587419724e-11,-8.357860423068949e-09
	-1.277248926528459e-11,-8.357860422605306e-09
	-1.277248926528459e-11,-8.357860422605306e-09
	8.357870182063978e-09,0.0
	-1.615580875756715e+02,0.0
	-1.572324526438887e+00,0.0

 33	2.585234839562196e-03,0.000000000000000e+00
	1.000000000000000e+00,0.000000000000000e+00
	-1.462172601218545e-06,-3.349445313420608e-03
	-1.121878317010770e-05,8.532217300918602e-09
	-1.432988301472992e-11,-9.111608945126301e-09
	-1.433062741486391e-11,-9.111608943955506e-09
	-1.433096782522996e-11,-9.111608943420100e-09
	-1.433096782522996e-11,-9.111608943420100e-09
	9.111620213466536e-09,0.0
	-1.608080878124536e+02,0.0
	-1.572369150661353e+00,0.0

 34	2.660725059798815e-03,0.000000000000000e+00
	1.000000000000000e+00,0.000000000000000e+00
	-1.548811757222327e-06,-3.447250843471248e-03
	-1.188353755033989e-05,9.301690810801037e-09
	-1.607839219491676e-11,-9.933333757912879e-09
	-1.607922742551915e-11,-9.933333756560864e-09
	-1.607960937219286e-11,-9.933333755942586e-09
	-1.607960937219286e-11,-9.933333755942586e-09
	9.933346770388418e-09,0.0
	-1.600580880632676e+02,0.0
	-1.572415077933487e+00,0.0

 35	2.738419634264367e-03,0.000000000000000e+00
	1.000000000000000e+00,0.000000000000000e+00
	-1.640584603833722e-06,-3.547912343052764e-03
	-1.258768106554672e-05,1.014055887128407e-08
	-1.804025157492917e-11,-1.082916524875663e-08
	-1.804118871897724e-11,-1.082916524719535e-08
	-1.804161727014733e-11,-1.082916524648137e-08
	-1.804161727014733e-11,-1.082916524648137e-08
	1.082918027532803e-08,0.0
	-1.593080883289439e+02,0.0
	-1.572462346304921e+00,0.0

 36	2.818382931264460e-03,0.000000000000000e+00
	1.000000000000000e+00,0.000000000000000e+00
	-1.737795331085370e-06,-3.651513207665060e-03
	-1.333354766402585e-05,1.105507979046575e-08
	-2.024149378100159e-11,-1.180578666649174e-08
	-2.024254527379732e-11,-1.180578666468880e-08
	-2.024302611606366e-11,-1.180578666386432e-08
	-2.024302611606366e-11,-1.180578666386432e-08
	1.180580401890455e-08,0.0
	-1.585580886103615e+02,0.0
	-1.572510994936349e+00,0.0

 37	2.900681198693160e-03,0.000000000000000e+00
	1.000000000000000e+00,0.000000000000000e+00
	-1.840766153369910e-06,-3.758139267970868e-03
	-1.412360958862919e-05,1.205207627812348e-08
	-2.271132789350517e-11,-1.287048398158848e-08
	-2.271250768768330e-11,-1.287048397950648e-08
	-2.271304720151422e-11,-1.287048397855438e-08
	-2.271304720151422e-11,-1.287048397855438e-08
	1.287050401984079e-08,0.0
	-1.578080889084553e+02,0.0
	-1.572561064131966e+00,0.0

 38	2.985382618917966e-03,0.000000000000000e+00
	1.000000000000000e+00,0.000000000000000e+00
	-1.949838377448524e-06,-3.867878860904023e-03
	-1.496048557117267e-05,1.313898634590630e-08
	-2.548252703173717e-11,-1.403120024172626e-08
	-2.548385078240706e-11,-1.403120023932200e-08
	-2.548445612680385e-11,-1.403120023822253e-08
	-2.548445612680385e-11,-1.403120023822253e-08
	1.403122338153734e-08,0.0
	-1.570580892242113e+02,0.0
	-1.572612595372862e+00,0.0

 39	3.072557365267454e-03,0.000000000000000e+00
	1.000000000000000e+00,0.000000000000000e+00
	-2.065373533738256e-06,-3.980822902847791e-03
	-1.584694951236084e-05,1.432391879788583e-08
	-2.859186323091860e-11,-1.529659482928285e-08
	-2.859334850339676e-11,-1.529659482650645e-08
	-2.859402771088862e-11,-1.529659482523681e-08
	-2.859402771088862e-11,-1.529659482523681e-08
	1.529662155071773e-08,0.0
	-1.563080895586782e+02,0.0
	-1.572665631351381e+00,0.0

 40	3.162277660168387e-03,0.000000000000000e+00
	1.000000000000000e+00,0.000000000000000e+00
	-2.187754574636863e-06,-4.097064964956675e-03
	-1.678593967605099e-05,1.561571372552008e-08
	-3.208059538199720e-11,-1.667610806285514e-08
	-3.208226188488685e-11,-1.667610805964900e-08
	-3.208302396811705e-11,-1.667610805818283e-08
	-3.208302396811705e-11,-1.667610805818283e-08
	1.667613892028420e-08,0.0
	-1.555580899129614e+02,0.0
	-1.572720216006496e+00,0.0

 41	3.254617834980467e-03,0.000000000000000e+00
	1.000000000000000e+00,0.000000000000000e+00
	-2.317387143845624e-06,-4.216701350669387e-03
	-1.778056842825664e-05,1.702400845824088e-08
	-3.599501670867388e-11,-1.818003162467223e-08
	-3.599688655538440e-11,-1.818003162096985e-08
	-3.599774162670169e-11,-1.818003161927674e-08
	-3.599774162670169e-11,-1.818003161927674e-08
	1.818006725827230e-08,0.0
	-1.548080902882409e+02,0.0
	-1.572776394560205e+00,0.0

 42	3.349654391578285e-03,0.000000000000000e+00
	1.000000000000000e+00,0.000000000000000e+00
	-2.454700920912452e-06,-4.339831175494705e-03
	-1.883413255328047e-05,1.855930946183430e-08
	-4.038706904649658e-11,-1.981958533939902e-08
