Title: * sky130 bjt 2-stage ppa sweep ac: ce1 -> ce2 -> output rebias -> ideal opamp follower -> two rc poles
Date: Sat May 23 05:48:59  2026
Command: ngspice-46, Build Mar 29 2026   15:02:07
Plotname: AC Analysis
Flags: complex
No. Variables: 11
No. Points: 721
Variables:
	0	frequency	frequency grid=3
	1	v(vin)	voltage
	2	v(b1_collector)	voltage
	3	v(b2_collector)	voltage
	4	v(vout_drv)	voltage
	5	v(vfilt1)	voltage
	6	v(vout_final)	voltage
	7	gain	notype
	8	gain_vv	notype
	9	gain_db	decibel
	10	phase_deg	phase
Values:
 0	1.000000000000000e-03,0.000000000000000e+00
	1.000000000000000e+00,0.000000000000000e+00
	-2.212976336822086e-07,-1.253875565990564e-03
	-1.572203917043267e-06,4.864940430024744e-10
	-3.080068877427174e-13,-4.939223308096051e-10
	-3.080224965612650e-13,-4.939223307998710e-10
	-3.080296343939880e-13,-4.939223307954196e-10
	-3.080296343939880e-13,-4.939223307954196e-10
	4.939224268451833e-10,0.0
	-1.861268250797662e+02,0.0
	-1.571419966535915e+00,0.0

 1	1.029200527194428e-03,0.000000000000000e+00
	1.000000000000000e+00,0.000000000000000e+00
	-2.344103424185241e-07,-1.290489391172557e-03
	-1.665362848594557e-06,5.303682596765818e-10
	-3.455894087871076e-13,-5.384664568894602e-10
	-3.456069221692882e-13,-5.384664568782195e-10
	-3.456149309491992e-13,-5.384664568730791e-10
	-3.456149309491992e-13,-5.384664568730791e-10
	5.384665677896150e-10,0.0
	-1.853768251184516e+02,0.0
	-1.571438177144304e+00,0.0

 2	1.059253725177289e-03,0.000000000000000e+00
	1.000000000000000e+00,0.000000000000000e+00
	-2.483000279420458e-07,-1.328172359138268e-03
	-1.764041792987633e-06,5.781992500565325e-10
	-3.877576903340212e-13,-5.870277710375272e-10
	-3.877773406716923e-13,-5.870277710245464e-10
	-3.877863266703968e-13,-5.870277710186103e-10
	-3.877863266703968e-13,-5.870277710186103e-10
	5.870278991030266e-10,0.0
	-1.846268251594236e+02,0.0
	-1.571456919511983e+00,0.0

 3	1.090184492385128e-03,0.000000000000000e+00
	1.000000000000000e+00,0.000000000000000e+00
	-2.630127290150861e-07,-1.366955689400345e-03
	-1.868567831436084e-06,6.303438537302035e-10
	-4.350712796735475e-13,-6.399685611137951e-10
	-4.350933277146526e-13,-6.399685610988050e-10
	-4.351034101708486e-13,-6.399685610919502e-10
	-4.351034101708486e-13,-6.399685610919502e-10
	6.399687090015251e-10,0.0
	-1.838768252028283e+02,0.0
	-1.571476209166599e+00,0.0

 4	1.122018454301964e-03,0.000000000000000e+00
	1.000000000000000e+00,0.000000000000000e+00
	-2.785972123677335e-07,-1.406871513097238e-03
	-1.979287425924133e-06,6.871910916780455e-10
	-4.881579991699557e-13,-6.976837876942808e-10
	-4.881827374784871e-13,-6.976837876769706e-10
	-4.881940501801888e-13,-6.976837876690547e-10
	-4.881940501801888e-13,-6.976837876690547e-10
	6.976839584723654e-10,0.0
	-1.831268252488025e+02,0.0
	-1.571496062089210e+00,0.0

 5	1.154781984689459e-03,0.000000000000000e+00
	1.000000000000000e+00,0.000000000000000e+00
	-2.951051343395031e-07,-1.447952899611316e-03
	-2.096567567581996e-06,7.491650685320535e-10
	-5.477222770749596e-13,-7.606040306364066e-10
	-5.477500339131017e-13,-7.606040306164170e-10
	-5.477627269729238e-13,-7.606040306072759e-10
	-5.477627269729238e-13,-7.606040306072759e-10
	7.606042278478597e-10,0.0
	-1.823768252975028e+02,0.0
	-1.571516494727530e+00,0.0

 6	1.188502227437019e-03,0.000000000000000e+00
	1.000000000000000e+00,0.000000000000000e+00
	-3.125912120994763e-07,-1.490233883966255e-03
	-2.220796993116185e-06,8.167281365777056e-10
	-6.145544948557718e-13,-8.291987013814091e-10
	-6.145856385397368e-13,-8.291987013583255e-10
	-6.145998803867954e-13,-8.291987013477694e-10
	-6.145998803867954e-13,-8.291987013477694e-10
	8.291989291176396e-10,0.0
	-1.816268253490888e+02,0.0
	-1.571537524009556e+00,0.0

 7	1.223207119049932e-03,0.000000000000000e+00
	1.000000000000000e+00,0.000000000000000e+00
	-3.311134050116475e-07,-1.533749495023873e-03
	-2.352387473312698e-06,8.903843450972969e-10
	-6.895414750673514e-13,-9.039795449540336e-10
	-6.895764188547066e-13,-9.039795449273772e-10
	-6.895923984695690e-13,-9.039795449151873e-10
	-6.895923984695690e-13,-9.039795449151873e-10
	9.039798079397267e-10,0.0
	-1.808768254037293e+02,0.0
	-1.571559167357589e+00,0.0

 8	1.258925411794168e-03,0.000000000000000e+00
	1.000000000000000e+00,0.000000000000000e+00
	-3.507331067471219e-07,-1.578535784505168e-03
	-2.491775177887962e-06,9.706832007902443e-10
	-7.736782489372753e-13,-9.855044577869678e-10
	-7.737174565106136e-13,-9.855044577561855e-10
	-7.737353859329534e-13,-9.855044577421090e-10
	-7.737353859329534e-13,-9.855044577421090e-10
	9.855047614781044e-10,0.0
	-1.801268254616092e+02,0.0
	-1.571581442702669e+00,0.0

 9	1.295686697517020e-03,0.000000000000000e+00
	1.000000000000000e+00,0.000000000000000e+00
	-3.715153487791928e-07,-1.624629856857329e-03
	-2.639422121217213e-06,1.058223767327029e-09
	-8.680812598134704e-13,-1.074381649854678e-09
	-8.681252514331907e-13,-1.074381649819131e-09
	-8.681453685754216e-13,-1.074381649802875e-09
	-8.681453685754216e-13,-1.074381649802875e-09
	1.074382000551726e-09,0.0
	-1.793768255229176e+02,0.0
	-1.571604368499433e+00,0.0

 10	1.333521432163325e-03,0.000000000000000e+00
	1.000000000000000e+00,0.000000000000000e+00
	-3.935290159367380e-07,-1.672069899994339e-03
	-2.795817693720747e-06,1.153659134615925e-09
	-9.740031776724203e-13,-1.171274182163243e-09
	-9.740525370802573e-13,-1.171274182122194e-09
	-9.740751088844826e-13,-1.171274182103423e-09
	-9.740751088844826e-13,-1.171274182103423e-09
	1.171274587141871e-09,0.0
	-1.786268255878598e+02,0.0
	-1.571627963741399e+00,0.0

 11	1.372460961007563e-03,0.000000000000000e+00
	1.000000000000000e+00,0.000000000000000e+00
	-4.168470747295692e-07,-1.720895216934048e-03
	-2.961480283996058e-06,1.257701291131404e-09
	-1.092849521271220e-12,-1.276904913452183e-09
	-1.092904903436133e-12,-1.276904913404781e-09
	-1.092930229416301e-12,-1.276904913383104e-09
	-1.092930229416301e-12,-1.276904913383104e-09
	1.276905381114199e-09,0.0
	-1.778768256566491e+02,0.0
	-1.571652247976707e+00,0.0

 12	1.412537544622755e-03,0.000000000000000e+00
	1.000000000000000e+00,0.000000000000000e+00
	-4.415468152029615e-07,-1.771146258359542e-03
	-3.136958997061599e-06,1.371126435646643e-09
	-1.226197308504126e-12,-1.392061893008072e-09
	-1.226259448313327e-12,-1.392061892953333e-09
	-1.226287864529594e-12,-1.392061892928301e-09
	-1.226287864529594e-12,-1.392061892928301e-09
	1.392062433055735e-09,0.0
	-1.771268257295155e+02,0.0
	-1.571677241324312e+00,0.0

 13	1.453784385607663e-03,0.000000000000000e+00
	1.000000000000000e+00,0.000000000000000e+00
	-4.677101071232092e-07,-1.822864656131646e-03
	-3.322835474417901e-06,1.494780768006160e-09
	-1.375815982447102e-12,-1.517604239826522e-09
	-1.375885704457551e-12,-1.517604239763310e-09
	-1.375917587975587e-12,-1.517604239734403e-09
	-1.375917587975587e-12,-1.517604239734403e-09
	1.517604863463821e-09,0.0
	-1.763768258066984e+02,0.0
	-1.571702964490650e+00,0.0

 14	1.496235656094435e-03,0.000000000000000e+00
	1.000000000000000e+00,0.000000000000000e+00
	-4.954236713427545e-07,-1.876093257779361e-03
	-3.519725821948320e-06,1.629586802131314e-09
	-1.543690890759855e-12,-1.654468551978702e-09
	-1.543769120139608e-12,-1.654468551905706e-09
	-1.543804894034026e-12,-1.654468551872325e-09
	-1.543804894034026e-12,-1.654468551872325e-09
	1.654469272143807e-09,0.0
	-1.756268258884544e+02,0.0
	-1.571729438786795e+00,0.0

 15	1.539926526059493e-03,0.000000000000000e+00
	1.000000000000000e+00,0.000000000000000e+00
	-5.247793672445147e-07,-1.930876161996888e-03
	-3.728282652057631e-06,1.776550248363490e-09
	-1.732049630006377e-12,-1.803675894001867e-09
	-1.732137404810989e-12,-1.803675893917572e-09
	-1.732177543779272e-12,-1.803675893879025e-09
	-1.732177543779272e-12,-1.803675893879025e-09
	1.803676725635540e-09,0.0
	-1.748768259750560e+02,0.0
	-1.571756686146116e+00,0.0

 16	1.584893192461115e-03,0.000000000000000e+00
	1.000000000000000e+00,0.000000000000000e+00
	-5.558744972194088e-07,-1.987258755179825e-03
	-3.949197246814864e-06,1.936767516486811e-09
	-1.943391604464303e-12,-1.966339414441242e-09
	-1.943490089411169e-12,-1.966339414343900e-09
	-1.943535126072613e-12,-1.966339414299385e-09
	-1.943535126072613e-12,-1.966339414299385e-09
	1.966340374796804e-09,0.0
	-1.741268260667900e+02,0.0
	-1.571784729142443e+00,0.0

 17	1.631172909227840e-03,0.000000000000000e+00
	1.000000000000000e+00,0.000000000000000e+00
	-5.888121291835255e-07,-2.045287749023930e-03
	-4.183201849268719e-06,2.111433895406339e-09
	-2.180521191649045e-12,-2.143672650371899e-09
	-2.180631693572466e-12,-2.143672650259491e-09
	-2.180682225535698e-12,-2.143672650208086e-09
	-2.180682225535698e-12,-2.143672650208086e-09
	2.143673759373177e-09,0.0
	-1.733768261639582e+02,0.0
	-1.571813591008775e+00,0.0

 18	1.678804018122562e-03,0.000000000000000e+00
	1.000000000000000e+00,0.000000000000000e+00
	-6.237014382074409e-07,-2.105011219226403e-03
	-4.431072090528995e-06,2.301852470503879e-09
	-2.446584954636191e-12,-2.336998580854313e-09
	-2.446708939828235e-12,-2.336998580724505e-09
	-2.446765637621103e-12,-2.336998580665145e-09
	-2.446765637621103e-12,-2.336998580665145e-09
	2.336999861508979e-09,0.0
	-1.726268262668828e+02,0.0
	-1.571843295656522e+00,0.0

 19	1.727825980507865e-03,0.000000000000000e+00
	1.000000000000000e+00,0.000000000000000e+00
	-6.606580683863544e-07,-2.166478645312359e-03
	-4.693629560662423e-06,2.509443845201222e-09
	-2.745113394967377e-12,-2.547759496866982e-09
	-2.745252508634646e-12,-2.547759496717083e-09
	-2.745316124601698e-12,-2.547759496648534e-09
	-2.745316124601698e-12,-2.547759496648534e-09
	2.547760975743882e-09,0.0
	-1.718768263759077e+02,0.0
	-1.571873867695319e+00,0.0

 20	1.778279410038925e-03,0.000000000000000e+00
	1.000000000000000e+00,0.000000000000000e+00
	-6.998045161546156e-07,-2.229740951629680e-03
	-4.971744531927075e-06,2.735756739259893e-09
	-3.080067800175567e-12,-2.777527761350630e-09
	-3.080223888270044e-12,-2.777527761177530e-09
	-3.080295266555661e-12,-2.777527761098371e-09
	-3.080295266555661e-12,-2.777527761098371e-09
	2.777529469130986e-09,0.0
	-1.711268264913921e+02,0.0
	-1.571905332453413e+00,0.0

 21	1.830206106311058e-03,0.000000000000000e+00
	1.000000000000000e+00,0.000000000000000e+00
	-7.412705363105883e-07,-2.294850549535432e-03
	-5.266338843360221e-06,2.982479542875646e-09
	-3.455892807557031e-12,-3.028017539631069e-09
	-3.456067941270682e-12,-3.028017539431174e-09
	-3.456148029020335e-12,-3.028017539339763e-09
	-3.456148029020335e-12,-3.028017539339763e-09
	3.028019511745001e-09,0.0
	-1.703768266137175e+02,0.0
	-1.571937715998646e+00,0.0

 22	1.883649089489803e-03,0.000000000000000e+00
	1.000000000000000e+00,0.000000000000000e+00
	-7.851935721015789e-07,-2.361861380817748e-03
	-5.578388956288024e-06,3.251452912774097e-09
	-3.877575381682147e-12,-3.301097587736707e-09
	-3.877771884930319e-12,-3.301097587505873e-09
	-3.877861744858583e-12,-3.301097587400312e-09
	-3.877861744858583e-12,-3.301097587400312e-09
	3.301099865098278e-09,0.0
	-1.696268267432933e+02,0.0
	-1.571971045160052e+00,0.0

 23	1.938652635952210e-03,0.000000000000000e+00
	1.000000000000000e+00,0.000000000000000e+00
	-8.317192107925501e-07,-2.430828962384881e-03
	-5.908929190892722e-06,3.544683504281375e-09
	-4.350710988241446e-12,-3.598805194020125e-09
	-4.350931468499728e-12,-3.598805193753562e-09
	-4.351032292991826e-12,-3.598805193631663e-09
	-4.351032292991826e-12,-3.598805193631663e-09
	3.598807823876158e-09,0.0
	-1.688768268805484e+02,0.0
	-1.572005347550084e+00,0.0

 24	1.995262314968882e-03,0.000000000000000e+00
	1.000000000000000e+00,0.000000000000000e+00
	-8.810016662282152e-07,-2.501810432257898e-03
	-6.259055154549717e-06,3.864358941808051e-09
	-4.881577842299626e-12,-3.923361378083529e-09
	-4.881825225203375e-12,-3.923361377775708e-09
	-4.881938352137362e-12,-3.923361377634940e-09
	-4.881938352137362e-12,-3.923361377634940e-09
	3.923364414993795e-09,0.0
	-1.681268270259349e+02,0.0
	-1.572040651587491e+00,0.0

 25	2.053525026457149e-03,0.000000000000000e+00
	1.000000000000000e+00,0.000000000000000e+00
	-9.332042899893744e-07,-2.574864596907733e-03
	-6.629927373300930e-06,4.212864139434448e-09
	-5.477220216182796e-12,-4.277187460397290e-09
	-5.477497784348427e-12,-4.277187460041821e-09
	-5.477624714847967e-12,-4.277187459879266e-09
	-5.477624714847967e-12,-4.277187459879266e-09
	4.277190967366429e-09,0.0
	-1.673768271799375e+02,0.0
	-1.572076986520857e+00,0.0

 26	2.113489039836650e-03,0.000000000000000e+00
	1.000000000000000e+00,0.000000000000000e+00
	-9.885001128366175e-07,-2.650051979973542e-03
	-7.022775138517492e-06,4.592799093365208e-09
	-6.145541912450740e-12,-4.662923126235715e-09
	-6.145853349033922e-12,-4.662923125825228e-09
	-6.145995767387224e-12,-4.662923125637513e-09
	-6.145995767387224e-12,-4.662923125637513e-09
	4.662927176020347e-09,0.0
	-1.666268273430632e+02,0.0
	-1.572114382452840e+00,0.0

 27	2.175204034019526e-03,0.000000000000000e+00
	1.000000000000000e+00,0.000000000000000e+00
	-1.047072418236677e-06,-2.727434872404195e-03
	-7.438900581474018e-06,5.006998278974100e-09
	-6.895411142254411e-12,-5.083446118674256e-09
	-6.895760579823150e-12,-5.083446118200232e-09
	-6.895920375832383e-12,-5.083446117983462e-09
	-6.895920375832383e-12,-5.083446117983462e-09
	5.083450795292402e-09,0.0
	-1.658768275158534e+02,0.0
	-1.572152870365105e+00,0.0

 28	2.238721138568343e-03,0.000000000000000e+00
	1.000000000000000e+00,0.000000000000000e+00
	-1.109115349871248e-06,-2.807077384061882e-03
	-7.879682989360994e-06,5.458551797161336e-09
	-7.736778200757640e-12,-5.541893707575726e-09
	-7.737170276128754e-12,-5.541893707028333e-09
	-7.737349570186484e-12,-5.541893706778010e-09
	-7.737349570186484e-12,-5.541893706778010e-09
	5.541899108049883e-09,0.0
	-1.651268276988854e+02,0.0
	-1.572192482143993e+00,0.0

 29	2.304092976055850e-03,0.000000000000000e+00
	1.000000000000000e+00,0.000000000000000e+00
	-1.174834555145806e-06,-2.889045496837724e-03
	-8.346583377047237e-06,5.950828427795059e-09
	-8.680807501107185e-12,-6.041686094734552e-09
	-8.681247416873827e-12,-6.041686094102432e-09
	-8.681448588099238e-12,-6.041686093813364e-09
	-8.681448588099238e-12,-6.041686093813364e-09
	6.041692331104537e-09,0.0
	-1.643768278927600e+02,0.0
	-1.572233250606940e+00,0.0

 30	2.371373705661660e-03,0.000000000000000e+00
	1.000000000000000e+00,0.000000000000000e+00
	-1.244447866823478e-06,-2.973407119309958e-03
	-8.841149329701423e-06,6.487500762178530e-09
	-9.740025718895311e-12,-6.586551929755588e-09
	-9.740519312461960e-12,-6.586551929025629e-09
	-9.740745030270202e-12,-6.586551928691817e-09
	-9.740745030270202e-12,-6.586551928691817e-09
	6.586559131402955e-09,0.0
	-1.636268280981249e+02,0.0
	-1.572275209529659e+00,0.0

 31	2.440619068041985e-03,0.000000000000000e+00
	1.000000000000000e+00,0.000000000000000e+00
	-1.318186025053881e-06,-3.060232143007286e-03
	-9.365020132392805e-06,7.072572602111090e-09
	-1.092848801297051e-11,-7.180556127069686e-09
	-1.092904183401146e-11,-7.180556126226742e-09
	-1.092929509353502e-11,-7.180556125841265e-09
	-1.092929509353502e-11,-7.180556125841265e-09
	7.180564443401909e-09,0.0
	-1.628768283156557e+02,0.0
	-1.572318393674129e+00,0.0

 32	2.511886431509585e-03,0.000000000000000e+00
	1.000000000000000e+00,0.000000000000000e+00
	-1.396293442178990e-06,-3.149592500306188e-03
	-9.919932203592343e-06,7.710408829869350e-09
	-1.226196452812804e-11,-7.828130191548273e-09
	-1.226258592549723e-11,-7.828130190574858e-09
	-1.226287008732935e-11,-7.828130190129714e-09
	-1.226287008732935e-11,-7.828130190129714e-09
	7.828139795098390e-09,0.0
	-1.621268285460811e+02,0.0
	-1.572362838817388e+00,0.0

 33	2.585234839562196e-03,0.000000000000000e+00
	1.000000000000000e+00,0.000000000000000e+00
	-1.479029012862047e-06,-3.241562224027676e-03
	-1.050772485068238e-05,8.405767972047587e-09
	-1.375814965456483e-11,-8.534105279025128e-09
	-1.375884687381024e-11,-8.534105277901045e-09
	-1.375916570859775e-11,-8.534105277387002e-09
	-1.375916570859775e-11,-8.534105277387002e-09
	8.534116369031166e-09,0.0
	-1.613768287901539e+02,0.0
	-1.572408581781175e+00,0.0

 34	2.660725059798815e-03,0.000000000000000e+00
	1.000000000000000e+00,0.000000000000000e+00
	-1.566666972212776e-06,-3.336217508764030e-03
	-1.113034636641831e-05,9.163837700064632e-09
	-1.543689682064001e-11,-9.303748238259945e-09
	-1.543767911341653e-11,-9.303748236961877e-09
	-1.543803685189379e-11,-9.303748236368269e-09
	-1.543803685189379e-11,-9.303748236368269e-09
	9.303761044798362e-09,0.0
	-1.606268290486923e+02,0.0
	-1.572455660462437e+00,0.0

 35	2.738419634264367e-03,0.000000000000000e+00
	1.000000000000000e+00,0.000000000000000e+00
	-1.659497804766549e-06,-3.433636774006772e-03
	-1.178986048670634e-05,9.990273532342970e-09
	-1.732048193468958e-11,-1.014280090334517e-08
	-1.732135968152222e-11,-1.014280090184618e-08
	-1.732176107065012e-11,-1.014280090116069e-08
	-1.732176107065012e-11,-1.014280090116069e-08
	1.014281569210408e-08,0.0
	-1.598768293225489e+02,0.0
	-1.572504113864720e+00,0.0

 36	2.818382931264460e-03,0.000000000000000e+00
	1.000000000000000e+00,0.000000000000000e+00
	-1.757829207317304e-06,-3.533900729108995e-03
	-1.248845323096277e-05,1.089124102674867e-08
	-1.943389897137292e-11,-1.105752292957315e-08
	-1.943488381939935e-11,-1.105752292784214e-08
	-1.943533418535426e-11,-1.105752292705055e-08
	-1.943533418535426e-11,-1.105752292705055e-08
	1.105754000736436e-08,0.0
	-1.591268296126311e+02,0.0
	-1.572553982130488e+00,0.0

 37	2.900681198693160e-03,0.000000000000000e+00
	1.000000000000000e+00,0.000000000000000e+00
	-1.861987108804842e-06,-3.637092440148633e-03
	-1.322844014780004e-05,1.187346177814385e-08
	-2.180519162486851e-11,-1.205473849238113e-08
	-2.180629664238863e-11,-1.205473849038220e-08
	-2.180680196123710e-11,-1.205473848946808e-08
	-2.180680196123710e-11,-1.205473848946808e-08
	1.205475821350536e-08,0.0
	-1.583768299199047e+02,0.0
	-1.572605306574372e+00,0.0

 38	2.985382618917966e-03,0.000000000000000e+00
	1.000000000000000e+00,0.000000000000000e+00
	-1.972316750635233e-06,-3.743297398746447e-03
	-1.401227399006379e-05,1.294426356421434e-08
	-2.446582542972480e-11,-1.314188719776337e-08
	-2.446706527960804e-11,-1.314188719545504e-08
	-2.446763225660511e-11,-1.314188719439944e-08
	-2.446763225660511e-11,-1.314188719439944e-08
	1.314190997136064e-08,0.0
	-1.576268302453834e+02,0.0
	-1.572658129717404e+00,0.0

 39	3.072557365267454e-03,0.000000000000000e+00
	1.000000000000000e+00,0.000000000000000e+00
	-2.089183831007360e-06,-3.852603592884695e-03
	-1.484255284458538e-05,1.411163501360192e-08
	-2.745110528699589e-11,-1.432707958387904e-08
	-2.745249642124738e-11,-1.432707958121342e-08
	-2.745313257981067e-11,-1.432707957999443e-08
	-2.745313257981067e-11,-1.432707957999443e-08
	1.432710588241679e-08,0.0
	-1.568768305901501e+02,0.0
	-1.572712495322238e+00,0.0

 40	3.162277660168387e-03,0.000000000000000e+00
	1.000000000000000e+00,0.000000000000000e+00
	-2.212975717053899e-06,-3.965101579805247e-03
	-1.572202874370391e-05,1.538428520430838e-08
	-3.080064393611262e-11,-1.561915762799944e-08
	-3.080220481417977e-11,-1.561915762492122e-08
	-3.080291859572000e-11,-1.561915762351356e-08
	-3.080291859572000e-11,-1.561915762351356e-08
	1.561918799707449e-08,0.0
	-1.561268309553413e+02,0.0
	-1.572768448429406e+00,0.0

 41	3.254617834980467e-03,0.000000000000000e+00
	1.000000000000000e+00,0.000000000000000e+00
	-2.344102728793910e-06,-4.080884561022419e-03
	-1.665361678696282e-05,1.677170863682460e-08
	-3.455888758846047e-11,-1.702776071004969e-08
	-3.456063892217695e-11,-1.702776070649504e-08
	-3.456143979810947e-11,-1.702776070486949e-08
	-3.456143979810947e-11,-1.702776070486949e-08
	1.702779577970732e-08,0.0
	-1.553768313421767e+02,0.0
	-1.572826035394636e+00,0.0

 42	3.349654391578285e-03,0.000000000000000e+00
	1.000000000000000e+00,0.000000000000000e+00
	-2.482999499177645e-06,-4.200048459541797e-03
	-1.764040480339691e-05,1.828425606695028e-08
	-3.877570569781151e-11,-1.856339752501010e-08
