Title: * sky130 bjt 2-stage ppa sweep ac: ce1 -> ce2 -> output rebias -> ideal opamp follower -> two rc poles
Date: Sat May 23 05:49:00  2026
Command: ngspice-46, Build Mar 29 2026   15:02:07
Plotname: AC Analysis
Flags: complex
No. Variables: 11
No. Points: 721
Variables:
	0	frequency	frequency grid=3
	1	v(vin)	voltage
	2	v(b1_collector)	voltage
	3	v(b2_collector)	voltage
	4	v(vout_drv)	voltage
	5	v(vfilt1)	voltage
	6	v(vout_final)	voltage
	7	gain	notype
	8	gain_vv	notype
	9	gain_db	decibel
	10	phase_deg	phase
Values:
 0	1.000000000000000e-03,0.000000000000000e+00
	1.000000000000000e+00,0.000000000000000e+00
	-1.681825097679059e-07,-1.140454694529039e-03
	-1.300636899450784e-06,3.364018779090234e-10
	-2.340514603997134e-13,-4.086070593008040e-10
	-2.340658032296137e-13,-4.086070592925878e-10
	-2.340717081435179e-13,-4.086070592892052e-10
	-2.340717081435179e-13,-4.086070592892052e-10
	4.086071263335193e-10,0.0
	-1.877738812660472e+02,0.0
	-1.571369179557025e+00,0.0

 1	1.029200527194428e-03,0.000000000000000e+00
	1.000000000000000e+00,0.000000000000000e+00
	-1.781479497519143e-07,-1.173756571338506e-03
	-1.377704476617149e-06,3.667401096894825e-10
	-2.626100555830061e-13,-4.454570734115926e-10
	-2.626261485026201e-13,-4.454570734021045e-10
	-2.626327739249005e-13,-4.454570733981984e-10
	-2.626327739249005e-13,-4.454570733981984e-10
	4.454571508197639e-10,0.0
	-1.870238813008934e+02,0.0
	-1.571385907158927e+00,0.0

 2	1.059253725177289e-03,0.000000000000000e+00
	1.000000000000000e+00,0.000000000000000e+00
	-1.887038791500733e-07,-1.208030880371220e-03
	-1.459338594305589e-06,3.998143793768406e-10
	-2.946533259851651e-13,-4.856303863927140e-10
	-2.946713825376930e-13,-4.856303863817575e-10
	-2.946788163836511e-13,-4.856303863772467e-10
	-2.946788163836511e-13,-4.856303863772467e-10
	4.856304757822750e-10,0.0
	-1.862738813378006e+02,0.0
	-1.571403123215555e+00,0.0

 3	1.090184492385128e-03,0.000000000000000e+00
	1.000000000000000e+00,0.000000000000000e+00
	-1.998852866563325e-07,-1.243306017148081e-03
	-1.545809836989211e-06,4.358714351409246e-10
	-3.306064662102373e-13,-5.294267081189369e-10
	-3.306267259950825e-13,-5.294267081062847e-10
	-3.306350669073053e-13,-5.294267081010756e-10
	-3.306350669073053e-13,-5.294267081010756e-10
	5.294268113443907e-10,0.0
	-1.855238813768975e+02,0.0
	-1.571420841990038e+00,0.0

 4	1.122018454301964e-03,0.000000000000000e+00
	1.000000000000000e+00,0.000000000000000e+00
	-2.117292341748374e-07,-1.279611206353657e-03
	-1.637404822273283e-06,4.751802780076791e-10
	-3.709465524360602e-13,-5.771727776258838e-10
	-3.709692842881656e-13,-5.771727776112730e-10
	-3.709786429454526e-13,-5.771727776052577e-10
	-3.709786429454526e-13,-5.771727776052577e-10
	5.771728968287768e-10,0.0
	-1.847738814183092e+02,0.0
	-1.571439078161996e+00,0.0

 5	1.154781984689459e-03,0.000000000000000e+00
	1.000000000000000e+00,0.000000000000000e+00
	-2.242749796650679e-07,-1.316976526047188e-03
	-1.734427150913840e-06,5.180341687200030e-10
	-4.162088729200768e-13,-6.292248007165576e-10
	-4.162343784771986e-13,-6.292248006996855e-10
	-4.162448790632005e-13,-6.292248006927391e-10
	-4.162448790632005e-13,-6.292248006927391e-10
	6.292249383699096e-10,0.0
	-1.840238814621762e+02,0.0
	-1.571457846839700e+00,0.0

 6	1.188502227437019e-03,0.000000000000000e+00
	1.000000000000000e+00,0.000000000000000e+00
	-2.375641072663760e-07,-1.355432932581994e-03
	-1.837198413133917e-06,5.647528155883218e-10
	-4.669940309445276e-13,-6.859711074035633e-10
	-4.670226486497815e-13,-6.859711073840796e-10
	-4.670344305008408e-13,-6.859711073760581e-10
	-4.670344305008408e-13,-6.859711073760581e-10
	6.859712663631727e-10,0.0
	-1.832738815086425e+02,0.0
	-1.571477163572592e+00,0.0

 7	1.223207119049932e-03,0.000000000000000e+00
	1.000000000000000e+00,0.000000000000000e+00
	-2.516406651326445e-07,-1.395012286251629e-03
	-1.946059254564204e-06,6.156847596500407e-10
	-5.239759144505562e-13,-7.478350490095738e-10
	-5.240080240433478e-13,-7.478350489870744e-10
	-5.240212434974058e-13,-7.478350489778112e-10
	-5.240212434974058e-13,-7.478350489778112e-10
	7.478352325732647e-10,0.0
	-1.825238815578616e+02,0.0
	-1.571497044364163e+00,0.0

 8	1.258925411794168e-03,0.000000000000000e+00
	1.000000000000000e+00,0.000000000000000e+00
	-2.665513114343277e-07,-1.435747377685526e-03
	-2.061370505345702e-06,6.712099749336500e-10
	-5.879106381142604e-13,-8.152781565410261e-10
	-5.879466656691923e-13,-8.152781565150441e-10
	-5.879614981402964e-13,-8.152781565043472e-10
	-5.879614981402964e-13,-8.152781565043472e-10
	8.152783685170668e-10,0.0
	-1.817738816099968e+02,0.0
	-1.571517505685214e+00,0.0

 9	1.295686697517020e-03,0.000000000000000e+00
	1.000000000000000e+00,0.000000000000000e+00
	-2.823454690115216e-07,-1.477671955015026e-03
	-2.183514376135629e-06,7.317427032262613e-10
	-6.596465765201440e-13,-8.888035838972582e-10
	-6.596870001007613e-13,-8.888035838672549e-10
	-6.597036424067007e-13,-8.888035838549023e-10
	-6.597036424067007e-13,-8.888035838549023e-10
	8.888038286833681e-10,0.0
	-1.810238816652214e+02,0.0
	-1.571538564487502e+00,0.0

 10	1.333521432163325e-03,0.000000000000000e+00
	1.000000000000000e+00,0.000000000000000e+00
	-2.990754891909029e-07,-1.520820751832889e-03
	-2.312895724981183e-06,7.977345444931582e-10
	-7.401356215658894e-13,-9.689598616028429e-10
	-7.401809775682853e-13,-9.689598615681954e-10
	-7.401996505422409e-13,-9.689598615539309e-10
	-7.401996505422409e-13,-9.689598615539309e-10
	9.689601442774286e-10,0.0
	-1.802738817237187e+02,0.0
	-1.571560238217782e+00,0.0

 11	1.372460961007563e-03,0.000000000000000e+00
	1.000000000000000e+00,0.000000000000000e+00
	-3.167968253093414e-07,-1.565229515969064e-03
	-2.449943399260574e-06,8.696778260052564e-10
	-8.304458134771615e-13,-1.056344989067471e-09
	-8.304967037476200e-13,-1.056344989027461e-09
	-8.305176551684832e-13,-1.056344989010989e-09
	-8.305176551684832e-13,-1.056344989010989e-09
	1.056345315494986e-09,0.0
	-1.795238817856802e+02,0.0
	-1.571582544832264e+00,0.0

 12	1.412537544622755e-03,0.000000000000000e+00
	1.000000000000000e+00,0.000000000000000e+00
	-3.355682165193488e-07,-1.610935039106555e-03
	-2.595111657135427e-06,9.481092753080469e-10
	-9.317755130365736e-13,-1.151610895901460e-09
	-9.318326128576956e-13,-1.151610895855257e-09
	-9.318561207379398e-13,-1.151610895836235e-09
	-9.318561207379398e-13,-1.151610895836235e-09
	1.151611272854068e-09,0.0
	-1.787738818513158e+02,0.0
	-1.571605502811487e+00,0.0

 13	1.453784385607663e-03,0.000000000000000e+00
	1.000000000000000e+00,0.000000000000000e+00
	-3.554518824860298e-07,-1.657975187262886e-03
	-2.748881673236340e-06,1.033614024438298e-09
	-1.045469303087006e-12,-1.255468305574296e-09
	-1.045533370138286e-12,-1.255468305520942e-09
	-1.045559746413019e-12,-1.255468305498975e-09
	-1.045559746413019e-12,-1.255468305498975e-09
	1.255468740872369e-09,0.0
	-1.780238819208395e+02,0.0
	-1.571629131175631e+00,0.0

 14	1.496235656094435e-03,0.000000000000000e+00
	1.000000000000000e+00,0.000000000000000e+00
	-3.765137296199866e-07,-1.706388932160339e-03
	-2.911763133557766e-06,1.126829975255161e-09
	-1.173035830306600e-12,-1.368692037694622e-09
	-1.173107714718363e-12,-1.368692037633009e-09
	-1.173137309384510e-12,-1.368692037607643e-09
	-1.173137309384510e-12,-1.368692037607643e-09
	1.368692540368986e-09,0.0
	-1.772738819944821e+02,0.0
	-1.571653449500271e+00,0.0

 15	1.539926526059493e-03,0.000000000000000e+00
	1.000000000000000e+00,0.000000000000000e+00
	-3.988235695306963e-07,-1.756216383513218e-03
	-3.084295924859933e-06,1.228452558458021e-09
	-1.316167824008515e-12,-1.492126788473316e-09
	-1.316248479642609e-12,-1.492126788402167e-09
	-1.316281685403154e-12,-1.492126788372874e-09
	-1.316281685403154e-12,-1.492126788372874e-09
	1.492127368952605e-09,0.0
	-1.765238820724905e+02,0.0
	-1.571678477932602e+00,0.0

 16	1.584893192461115e-03,0.000000000000000e+00
	1.000000000000000e+00,0.000000000000000e+00
	-4.224553504239884e-07,-1.807498822257707e-03
	-3.267051924176502e-06,1.339239921795038e-09
	-1.476764557602083e-12,-1.626693432493806e-09
	-1.476855054709033e-12,-1.626693432411644e-09
	-1.476892312183940e-12,-1.626693432377818e-09
	-1.476892312183940e-12,-1.626693432377818e-09
	1.626694102820819e-09,0.0
	-1.757738821551193e+02,0.0
	-1.571704237208123e+00,0.0

 17	1.631172909227840e-03,0.000000000000000e+00
	1.000000000000000e+00,0.000000000000000e+00
	-4.474874022103459e-07,-1.860278734751248e-03
	-3.460636894349311e-06,1.460018586163429e-09
	-1.656957050759552e-12,-1.773395892798055e-09
	-1.657058590180109e-12,-1.773395892703176e-09
	-1.657100393753073e-12,-1.773395892664114e-09
	-1.657100393753073e-12,-1.773395892664114e-09
	1.773396666879597e-09,0.0
	-1.750238822426445e+02,0.0
	-1.571730748667820e+00,0.0

 18	1.678804018122562e-03,0.000000000000000e+00
	1.000000000000000e+00,0.000000000000000e+00
	-4.740026961373745e-07,-1.914599847972246e-03
	-3.665692491887891e-06,1.591689611805948e-09
	-1.859136346711845e-12,-1.933328630548488e-09
	-1.859250275811386e-12,-1.933328630438923e-09
	-1.859297180189993e-12,-1.933328630393815e-09
	-1.859297180189993e-12,-1.933328630393815e-09
	1.933329524443888e-09,0.0
	-1.742738823353548e+02,0.0
	-1.571758034275844e+00,0.0

 19	1.727825980507865e-03,0.000000000000000e+00
	1.000000000000000e+00,0.000000000000000e+00
	-5.020891198055468e-07,-1.970507165745143e-03
	-3.882898393795954e-06,1.735235320599142e-09
	-2.085985239888246e-12,-2.107684810134892e-09
	-2.086113070435465e-12,-2.107684810008369e-09
	-2.086165698011813e-12,-2.107684809956279e-09
	-2.086165698011813e-12,-2.107684809956279e-09
	2.107685842389173e-09,0.0
	-1.735238824335590e+02,0.0
	-1.571786116637712e+00,0.0

 20	1.778279410038925e-03,0.000000000000000e+00
	1.000000000000000e+00,0.000000000000000e+00
	-5.318397684806752e-07,-2.028047006025840e-03
	-4.112974550423551e-06,1.891726624589490e-09
	-2.340513874909842e-12,-2.297765200645259e-09
	-2.340657303136964e-12,-2.297765200499153e-09
	-2.340716352246411e-12,-2.297765200439000e-09
	-2.340716352246411e-12,-2.297765200439000e-09
	2.297766392673876e-09,0.0
	-1.727738825375829e+02,0.0
	-1.571815019019028e+00,0.0

 21	1.830206106311058e-03,0.000000000000000e+00
	1.000000000000000e+00,0.000000000000000e+00
	-5.633532536667289e-07,-2.087267039273914e-03
	-4.356683571806669e-06,2.062331015447479e-09
	-2.626099689308624e-12,-2.504987880105620e-09
	-2.626260618419332e-12,-2.504987879936898e-09
	-2.626326872606964e-12,-2.504987879867435e-09
	-2.626326872606964e-12,-2.504987879867435e-09
	2.504989256638756e-09,0.0
	-1.720238826477711e+02,0.0
	-1.571844765364763e+00,0.0

 22	1.883649089489803e-03,0.000000000000000e+00
	1.000000000000000e+00,0.000000000000000e+00
	-5.967340299635108e-07,-2.148216327946524e-03
	-4.614833255406565e-06,2.248321274447820e-09
	-2.946532229988388e-12,-2.730898814886934e-09
	-2.946712795412132e-12,-2.730898814692097e-09
	-2.946787133829909e-12,-2.730898814611882e-09
	-2.946787133829909e-12,-2.730898814611882e-09
	2.730900404482557e-09,0.0
	-1.712738827644874e+02,0.0
	-1.571875380319091e+00,0.0

 23	1.938652635952210e-03,0.000000000000000e+00
	1.000000000000000e+00,0.000000000000000e+00
	-6.320927412912131e-07,-2.210945367144664e-03
	-4.888279263623356e-06,2.451084967950813e-09
	-3.306063438108065e-12,-2.977183393202422e-09
	-3.306266035835842e-12,-2.977183392977428e-09
	-3.306349444908388e-12,-2.977183392884797e-09
	-3.306349444908388e-12,-2.977183392884797e-09
	2.977185228838757e-09,0.0
	-1.705238828881199e+02,0.0
	-1.571906889245808e+00,0.0

 24	1.995262314968882e-03,0.000000000000000e+00
	1.000000000000000e+00,0.000000000000000e+00
	-6.695465876300640e-07,-2.275506126446124e-03
	-5.177927959965423e-06,2.672134799230866e-09
	-3.709464069639903e-12,-3.245678998742625e-09
	-3.709691388017536e-12,-3.245678998482807e-09
	-3.709784974531357e-12,-3.245678998375838e-09
	-3.709784974531357e-12,-3.245678998375838e-09
	3.245681118502330e-09,0.0
	-1.697738830190787e+02,0.0
	-1.571939318249339e+00,0.0

 25	2.053525026457149e-03,0.000000000000000e+00
	1.000000000000000e+00,0.000000000000000e+00
	-7.092197134913250e-07,-2.341952092961655e-03
	-5.484739413269263e-06,2.913119893877454e-09
	-4.162087000261568e-12,-3.538388718247753e-09
	-4.162342055662329e-12,-3.538388717947720e-09
	-4.162447061452169e-12,-3.538388717824194e-09
	-4.162447061452169e-12,-3.538388717824194e-09
	3.538391166107993e-09,0.0
	-1.690238831577981e+02,0.0
	-1.571972694196372e+00,0.0

 26	2.113489039836650e-03,0.000000000000000e+00
	1.000000000000000e+00,0.000000000000000e+00
	-7.512436194058812e-07,-2.410338315646551e-03
	-5.809730579932154e-06,3.175838102963937e-09
	-4.669938254598362e-12,-3.857496285282636e-09
	-4.670224431448312e-12,-3.857496284936162e-09
	-4.670342249875498e-12,-3.857496284793517e-09
	-4.670342249875498e-12,-3.857496284793517e-09
	3.857499112027444e-09,0.0
	-1.682738833047344e+02,0.0
	-1.572007044738112e+00,0.0

 27	2.175204034019526e-03,0.000000000000000e+00
	1.000000000000000e+00,0.000000000000000e+00
	-7.957575977945951e-07,-2.480721450905677e-03
	-6.153978674693009e-06,3.462249415764420e-09
	-5.239756702315851e-12,-4.205382371690885e-09
	-5.240077798002990e-12,-4.205382371290784e-09
	-5.240209992444440e-12,-4.205382371126060e-09
	-5.240209992444440e-12,-4.205382371126060e-09
	4.205385635964746e-09,0.0
	-1.675238834603782e+02,0.0
	-1.572042398333189e+00,0.0

 28	2.238721138568343e-03,0.000000000000000e+00
	1.000000000000000e+00,0.000000000000000e+00
	-8.429091946667596e-07,-2.553159809532496e-03
	-6.518624741157506e-06,3.774490582095890e-09
	-5.879103478594046e-12,-4.584642348282117e-09
	-5.879463753857203e-12,-4.584642347820087e-09
	-5.879612078450427e-12,-4.584642347629866e-09
	-5.879612078450427e-12,-4.584642347629866e-09
	4.584646117806618e-09,0.0
	-1.667738836252454e+02,0.0
	-1.572078784271235e+00,0.0

 29	2.304092976055850e-03,0.000000000000000e+00
	1.000000000000000e+00,0.000000000000000e+00
	-8.928546986751864e-07,-2.627713405017072e-03
	-6.904877433880328e-06,4.114891053364720e-09
	-6.596462315516748e-12,-4.998105647237630e-09
	-6.596866550982815e-12,-4.998105646704088e-09
	-6.597032973902184e-12,-4.998105646484425e-09
	-6.597032973902184e-12,-4.998105646484425e-09
	4.998110000216437e-09,0.0
	-1.660238837998804e+02,0.0
	-1.572116232697152e+00,0.0

 30	2.371373705661660e-03,0.000000000000000e+00
	1.000000000000000e+00,0.000000000000000e+00
	-9.457596591488215e-07,-2.704444003263809e-03
	-7.314017024545364e-06,4.485990361239283e-09
	-7.401352115701825e-12,-5.448856870685544e-09
	-7.401805675321566e-12,-5.448856870069418e-09
	-7.401992404894702e-12,-5.448856869815756e-09
	-7.401992404894702e-12,-5.448856869815756e-09
	5.448861897426830e-09,0.0
	-1.652738839848634e+02,0.0
	-1.572154774636082e+00,0.0

 31	2.440619068041985e-03,0.000000000000000e+00
	1.000000000000000e+00,0.000000000000000e+00
	-1.001799434822098e-06,-2.783415173763400e-03
	-7.747399645532036e-06,4.890557063616664e-09
	-8.304453261962418e-12,-5.940258802927213e-09
	-8.304962164186592e-12,-5.940258802215721e-09
	-8.305171678197435e-12,-5.940258801922797e-09
	-8.305171678197435e-12,-5.940258801922797e-09
	5.940264607717224e-09,0.0
	-1.645238841808073e+02,0.0
	-1.572194442019113e+00,0.0

 32	2.511886431509585e-03,0.000000000000000e+00
	1.000000000000000e+00,0.000000000000000e+00
	-1.061159775076828e-06,-2.864692342255980e-03
	-8.206461784920026e-06,5.331609399210056e-09
	-9.317749339020511e-12,-6.475977497982003e-09
	-9.318320336660757e-12,-6.475977497160386e-09
	-9.318555415228128e-12,-6.475977496822122e-09
	-9.318555415228128e-12,-6.475977496822122e-09
	6.475984201248606e-09,0.0
	-1.637738843883638e+02,0.0
	-1.572235267709729e+00,0.0

 33	2.585234839562196e-03,0.000000000000000e+00
	1.000000000000000e+00,0.000000000000000e+00
	-1.124037435626702e-06,-2.948342844935494e-03
	-8.692725047848826e-06,5.812437804868626e-09
	-1.045468614784518e-11,-7.060009629622134e-09
	-1.045532681767939e-11,-7.060009628673346e-09
	-1.045559058014733e-11,-7.060009628282725e-09
	-1.045559058014733e-11,-7.060009628282725e-09
	7.060017370433246e-09,0.0
	-1.630238846082160e+02,0.0
	-1.572277285531042e+00,0.0

 34	2.660725059798815e-03,0.000000000000000e+00
	1.000000000000000e+00,0.000000000000000e+00
	-1.190640830680269e-06,-3.034435984232055e-03
	-9.207801199980374e-06,6.336629463584138e-09
	-1.173035012257591e-11,-7.696712307908343e-09
	-1.173106896588703e-11,-7.696712306812701e-09
	-1.173136491221645e-11,-7.696712306361618e-09
	-1.173136491221645e-11,-7.696712306361618e-09
	7.696721246857072e-09,0.0
	-1.622738848410957e+02,0.0
	-1.572320530293807e+00,0.0

 35	2.738419634264367e-03,0.000000000000000e+00
	1.000000000000000e+00,0.000000000000000e+00
	-1.261190723749806e-06,-3.123043086227450e-03
	-9.753397509825976e-06,6.908095066366442e-09
	-1.316166851755709e-11,-8.390835584697982e-09
	-1.316247507293948e-11,-8.390835583432753e-09
	-1.316280713015029e-11,-8.390835582911851e-09
	-1.316280713015029e-11,-8.390835582911851e-09
	8.390845907234336e-09,0.0
	-1.615238850877753e+02,0.0
	-1.572365037825262e+00,0.0

 36	2.818382931264460e-03,0.000000000000000e+00
	1.000000000000000e+00,0.000000000000000e+00
	-1.335920959391913e-06,-3.214237559745791e-03
	-1.033132240761251e-05,7.531097987608104e-09
	-1.476763402077528e-11,-9.147557890597574e-09
	-1.476853899070554e-11,-9.147557889136511e-09
	-1.476891156498558e-11,-9.147557888534981e-09
	-1.476891156498558e-11,-9.147557888534981e-09
	9.147569810875857e-09,0.0
	-1.607738853490710e+02,0.0
	-1.572410844998814e+00,0.0

 37	2.900681198693160e-03,0.000000000000000e+00
	1.000000000000000e+00,0.000000000000000e+00
	-1.415079238305150e-06,-3.308094957167735e-03
	-1.094349147944822e-05,8.210286091604597e-09
	-1.656955677416055e-11,-9.972524667727057e-09
	-1.657057216701214e-11,-9.972524666039847e-09
	-1.657099020218433e-11,-9.972524665345214e-09
	-1.657099020218433e-11,-9.972524665345214e-09
	9.972538433048777e-09,0.0
	-1.600238856258499e+02,0.0
	-1.572457989764581e+00,0.0

 38	2.985382618917966e-03,0.000000000000000e+00
	1.000000000000000e+00,0.000000000000000e+00
	-1.498927938356916e-06,-3.404693037023056e-03
	-1.159193381667200e-05,8.950726407533459e-09
	-1.859134714490007e-11,-1.087189048651598e-08
	-1.859248643428626e-11,-1.087189048456762e-08
	-1.859295547740981e-11,-1.087189048376546e-08
	-1.859295547740981e-11,-1.087189048376546e-08
	1.087190638246041e-08,0.0
	-1.592738859190283e+02,0.0
	-1.572506511180833e+00,0.0

 39	3.072557365267454e-03,0.000000000000000e+00
	1.000000000000000e+00,0.000000000000000e+00
	-1.587744984256136e-06,-3.504111828407395e-03
	-1.227879874140582e-05,9.757942931553738e-09
	-2.085983299988383e-11,-1.185236496070566e-08
	-2.086111130344346e-11,-1.185236495845574e-08
	-2.086163757841952e-11,-1.185236495752943e-08
	-2.086163757841952e-11,-1.185236495752943e-08
	1.185238331705459e-08,0.0
	-1.585238862295811e+02,0.0
	-1.572556449446353e+00,0.0

 40	3.162277660168387e-03,0.000000000000000e+00
	1.000000000000000e+00,0.000000000000000e+00
	-1.681824768761458e-06,-3.606433697285689e-03
	-1.300636293064304e-05,1.063795783809172e-08
	-2.340511569335477e-11,-1.292126280312643e-08
	-2.340654997335291e-11,-1.292126280052825e-08
	-2.340714046351153e-11,-1.292126279945856e-08
	-2.340714046351153e-11,-1.292126279945856e-08
	1.292128400070583e-08,0.0
	-1.577738865585307e+02,0.0
	-1.572607845933737e+00,0.0

 41	3.254617834980467e-03,0.000000000000000e+00
	1.000000000000000e+00,0.000000000000000e+00
	-1.781479128467631e-06,-3.711743414722702e-03
	-1.377703796240564e-05,1.159733640767292e-08
	-2.626096949128675e-11,-1.408655839559406e-08
	-2.626257877969230e-11,-1.408655839259374e-08
	-2.626324132045636e-11,-1.408655839135848e-08
	-2.626324132045636e-11,-1.408655839135848e-08
	1.408658287417487e-08,0.0
	-1.570238869069747e+02,0.0
	-1.572660743223667e+00,0.0

 42	3.349654391578285e-03,0.000000000000000e+00
	1.000000000000000e+00,0.000000000000000e+00
	-1.887038377417643e-06,-3.820128227115353e-03
	-1.459337830910126e-05,1.264323600661390e-08
	-2.946528973278408e-11,-1.535694528013577e-08
