Title: * sky130 bjt 2-stage ppa sweep ac: ce1 -> ce2 -> output rebias -> ideal opamp follower -> two rc poles
Date: Sat May 23 05:48:59  2026
Command: ngspice-46, Build Mar 29 2026   15:02:07
Plotname: AC Analysis
Flags: complex
No. Variables: 11
No. Points: 721
Variables:
	0	frequency	frequency grid=3
	1	v(vin)	voltage
	2	v(b1_collector)	voltage
	3	v(b2_collector)	voltage
	4	v(vout_drv)	voltage
	5	v(vfilt1)	voltage
	6	v(vout_final)	voltage
	7	gain	notype
	8	gain_vv	notype
	9	gain_db	decibel
	10	phase_deg	phase
Values:
 0	1.000000000000000e-03,0.000000000000000e+00
	1.000000000000000e+00,0.000000000000000e+00
	-1.707171602314257e-07,-1.114299835754098e-03
	-1.241664112309791e-06,3.353865861936896e-10
	-2.279121169111154e-13,-3.900802137451499e-10
	-2.279244441352468e-13,-3.900802137379470e-10
	-2.279300813116622e-13,-3.900802137346532e-10
	-2.279300813116622e-13,-3.900802137346532e-10
	3.900802803262358e-10,0.0
	-1.881769200792278e+02,0.0
	-1.571380642654420e+00,0.0

 1	1.029200527194428e-03,0.000000000000000e+00
	1.000000000000000e+00,0.000000000000000e+00
	-1.808327876755143e-07,-1.146837976816211e-03
	-1.315237331994331e-06,3.656332543464385e-10
	-2.557215988957804e-13,-4.252593937669805e-10
	-2.557354302685495e-13,-4.252593937586628e-10
	-2.557417552844278e-13,-4.252593937548591e-10
	-2.557417552844278e-13,-4.252593937548591e-10
	4.252594706536183e-10,0.0
	-1.874269201148343e+02,0.0
	-1.571397704984797e+00,0.0

 2	1.059253725177289e-03,0.000000000000000e+00
	1.000000000000000e+00,0.000000000000000e+00
	-1.915478036975594e-07,-1.180326248607633e-03
	-1.393170038483454e-06,3.986077027775219e-10
	-2.869243504655013e-13,-4.636111893462288e-10
	-2.869398695207629e-13,-4.636111893366235e-10
	-2.869469663051952e-13,-4.636111893322310e-10
	-2.869469663051952e-13,-4.636111893322310e-10
	4.636112781335321e-10,0.0
	-1.866769201525475e+02,0.0
	-1.571415265544146e+00,0.0

 3	1.090184492385128e-03,0.000000000000000e+00
	1.000000000000000e+00,0.000000000000000e+00
	-2.028977242998094e-07,-1.214792395433326e-03
	-1.475720547543941e-06,4.345559349453168e-10
	-3.219344130503450e-13,-5.054217210613659e-10
	-3.219518257164640e-13,-5.054217210502739e-10
	-3.219597884394364e-13,-5.054217210452015e-10
	-3.219597884394364e-13,-5.054217210452015e-10
	5.054218235913432e-10,0.0
	-1.859269201924982e+02,0.0
	-1.571433338881011e+00,0.0

 4	1.122018454301964e-03,0.000000000000000e+00
	1.000000000000000e+00,0.000000000000000e+00
	-2.149201699396072e-07,-1.250264971745775e-03
	-1.563162481107678e-06,4.737461400026369e-10
	-3.612163487611121e-13,-5.510029131081271e-10
	-3.612358860935062e-13,-5.510029130953182e-10
	-3.612448204154767e-13,-5.510029130894606e-10
	-3.612448204154767e-13,-5.510029130894606e-10
	5.510030315078965e-10,0.0
	-1.851769202348144e+02,0.0
	-1.571451939968759e+00,0.0

 5	1.154781984689459e-03,0.000000000000000e+00
	1.000000000000000e+00,0.000000000000000e+00
	-2.276549902259855e-07,-1.286773365801151e-03
	-1.655785674215219e-06,5.164706936007073e-10
	-4.052914048411898e-13,-6.006948203812276e-10
	-4.053133260882916e-13,-6.006948203664361e-10
	-4.053233505622397e-13,-6.006948203596721e-10
	-4.053233505622397e-13,-6.006948203596721e-10
	6.006949571071470e-10,0.0
	-1.844269202796389e+02,0.0
	-1.571471084217984e+00,0.0

 6	1.188502227437019e-03,0.000000000000000e+00
	1.000000000000000e+00,0.000000000000000e+00
	-2.411443960052120e-07,-1.324347824006889e-03
	-1.753897135703578e-06,5.630483391363630e-10
	-4.547444302959133e-13,-6.548681654237892e-10
	-4.547690263392365e-13,-6.548681654067083e-10
	-4.547802739837879e-13,-6.548681653988972e-10
	-4.547802739837879e-13,-6.548681653988972e-10
	6.548683233124160e-10,0.0
	-1.836769203271191e+02,0.0
	-1.571490787489282e+00,0.0

 7	1.223207119049932e-03,0.000000000000000e+00
	1.000000000000000e+00,0.000000000000000e+00
	-2.554330992727555e-07,-1.363019475979824e-03
	-1.857822065815287e-06,6.138265657126916e-10
	-5.102316364769537e-13,-7.139271041686118e-10
	-5.102592336909111e-13,-7.139271041488870e-10
	-5.102718537554117e-13,-7.139271041398670e-10
	-5.102718537554117e-13,-7.139271041398670e-10
	7.139272864955515e-10,0.0
	-1.829269203774135e+02,0.0
	-1.571511066106383e+00,0.0

 8	1.258925411794168e-03,0.000000000000000e+00
	1.000000000000000e+00,0.000000000000000e+00
	-2.705684613756827e-07,-1.402820360336447e-03
	-1.967904934106531e-06,6.691842005555739e-10
	-5.724893046010501e-13,-7.783122411064669e-10
	-5.725202691837390e-13,-7.783122410836892e-10
	-5.725344291287020e-13,-7.783122410732732e-10
	-5.725344291287020e-13,-7.783122410732732e-10
	7.783124516543298e-10,0.0
	-1.821769204306877e+02,0.0
	-1.571531936869677e+00,0.0

 9	1.295686697517020e-03,0.000000000000000e+00
	1.000000000000000e+00,0.000000000000000e+00
	-2.866006499964606e-07,-1.443783451235882e-03
	-2.084510621223647e-06,7.295342352252779e-10
	-6.423435557453929e-13,-8.485039163744188e-10
	-6.423782985778171e-13,-8.485039163481157e-10
	-6.423941862970196e-13,-8.485039163360872e-10
	-6.423941862970196e-13,-8.485039163360872e-10
	8.485041595112945e-10,0.0
	-1.814269204871176e+02,0.0
	-1.571553417070135e+00,0.0

 10	1.333521432163325e-03,0.000000000000000e+00
	1.000000000000000e+00,0.000000000000000e+00
	-3.035828054387608e-07,-1.485942685698231e-03
	-2.208025628333972e-06,7.953269067082961e-10
	-7.207213129616104e-13,-9.250257892875543e-10
	-7.207602950598148e-13,-9.250257892571798e-10
	-7.207781213735314e-13,-9.250257892432896e-10
	-7.207781213735314e-13,-9.250257892432896e-10
	9.250260700576343e-10,0.0
	-1.806769205468923e+02,0.0
	-1.571575524503633e+00,0.0

 11	1.372460961007563e-03,0.000000000000000e+00
	1.000000000000000e+00,0.000000000000000e+00
	-3.215712167661728e-07,-1.529332991720285e-03
	-2.338859358222179e-06,8.670530563768572e-10
	-8.086626009695925e-13,-1.008448745049615e-09
	-8.087063396020595e-13,-1.008448745014539e-09
	-8.087263410545161e-13,-1.008448744998499e-09
	-8.087263410545161e-13,-1.008448744998499e-09
	1.008449069277840e-09,0.0
	-1.799269206102069e+02,0.0
	-1.571598277485692e+00,0.0

 12	1.412537544622755e-03,0.000000000000000e+00
	1.000000000000000e+00,0.000000000000000e+00
	-3.406255083777084e-07,-1.573990317212082e-03
	-2.477445472291011e-06,9.452477918720081e-10
	-9.073343466375637e-13,-1.099395153784916e-09
	-9.073834221890439e-13,-1.099395153744411e-09
	-9.074058641872121e-13,-1.099395153725888e-09
	-9.074058641872121e-13,-1.099395153725888e-09
	1.099395528197824e-09,0.0
	-1.791769206772759e+02,0.0
	-1.571621694866659e+00,0.0

 13	1.453784385607663e-03,0.000000000000000e+00
	1.000000000000000e+00,0.000000000000000e+00
	-3.608088376391065e-07,-1.619951659779734e-03
	-2.624243327976635e-06,1.030494479235002e-09
	-1.018045863376499e-12,-1.198543513670678e-09
	-1.018100927049353e-12,-1.198543513623904e-09
	-1.018126107384735e-12,-1.198543513602514e-09
	-1.018126107384735e-12,-1.198543513602514e-09
	1.198543946035951e-09,0.0
	-1.784269207483176e+02,0.0
	-1.571645796047316e+00,0.0

 14	1.496235656094435e-03,0.000000000000000e+00
	1.000000000000000e+00,0.000000000000000e+00
	-3.821881042236604e-07,-1.667255097375658e-03
	-2.779739501328014e-06,1.123429095063100e-09
	-1.142266224911194e-12,-1.306633512802745e-09
	-1.142328007366442e-12,-1.306633512748731e-09
	-1.142356260166577e-12,-1.306633512724030e-09
	-1.142356260166577e-12,-1.306633512724030e-09
	1.306634012090365e-09,0.0
	-1.776769208235684e+02,0.0
	-1.571670600994959e+00,0.0

 15	1.539926526059493e-03,0.000000000000000e+00
	1.000000000000000e+00,0.000000000000000e+00
	-4.048341718578727e-07,-1.715939819845464e-03
	-2.944449399809005e-06,1.224744971164177e-09
	-1.281643758971280e-12,-1.424471547563111e-09
	-1.281713080024014e-12,-1.424471547500736e-09
	-1.281744780186143e-12,-1.424471547472212e-09
	-1.281744780186143e-12,-1.424471547472212e-09
	1.424472124131449e-09,0.0
	-1.769269209032791e+02,0.0
	-1.571696130259936e+00,0.0

 16	1.584893192461115e-03,0.000000000000000e+00
	1.000000000000000e+00,0.000000000000000e+00
	-4.288221032064064e-07,-1.766046161396176e-03
	-3.118918970664652e-06,1.335197967105331e-09
	-1.438027919569407e-12,-1.552936738656437e-09
	-1.438105699067224e-12,-1.552936738584408e-09
	-1.438141267232938e-12,-1.552936738551469e-09
	-1.438141267232938e-12,-1.552936738551469e-09
	1.552937404467153e-09,0.0
	-1.761769209877132e+02,0.0
	-1.571722404992678e+00,0.0

 17	1.631172909227840e-03,0.000000000000000e+00
	1.000000000000000e+00,0.000000000000000e+00
	-4.542314086741793e-07,-1.817615634010735e-03
	-3.303726510512602e-06,1.455612109244105e-09
	-1.613493828096816e-12,-1.692987489696442e-09
	-1.613581098125618e-12,-1.692987489613264e-09
	-1.613621006262510e-12,-1.692987489575227e-09
	-1.613621006262510e-12,-1.692987489575227e-09
	1.692988258562646e-09,0.0
	-1.754269210771495e+02,0.0
	-1.571749446961214e+00,0.0

 18	1.678804018122562e-03,0.000000000000000e+00
	1.000000000000000e+00,0.000000000000000e+00
	-4.811463099517344e-07,-1.870690961840581e-03
	-3.499484582159040e-06,1.586885738312203e-09
	-1.810369808881042e-12,-1.845668637272006e-09
	-1.810467727460162e-12,-1.845668637175954e-09
	-1.810512505124537e-12,-1.845668637132029e-09
	-1.810512505124537e-12,-1.845668637132029e-09
	1.845669525144827e-09,0.0
	-1.746769211718844e+02,0.0
	-1.571777278569212e+00,0.0

 19	1.727825980507865e-03,0.000000000000000e+00
	1.000000000000000e+00,0.000000000000000e+00
	-5.096560191755949e-07,-1.925316116599752e-03
	-3.706842044992756e-06,1.729998211415703e-09
	-2.031268284584907e-12,-2.012119245834918e-09
	-2.031378151033298e-12,-2.012119245723999e-09
	-2.031428392397055e-12,-2.012119245673276e-09
	-2.031428392397055e-12,-2.012119245673276e-09
	2.012120271134433e-09,0.0
	-1.739269212722336e+02,0.0
	-1.571805922874535e+00,0.0

 20	1.778279410038925e-03,0.000000000000000e+00
	1.000000000000000e+00,0.000000000000000e+00
	-5.398550346312073e-07,-1.981536353995701e-03
	-3.926486205689317e-06,1.886017208452506e-09
	-2.279120441409789e-12,-2.193581105562843e-09
	-2.279243713587161e-12,-2.193581105434755e-09
	-2.279300085322073e-12,-2.193581105376180e-09
	-2.279300085322073e-12,-2.193581105376180e-09
	2.193582289560221e-09,0.0
	-1.731769213785285e+02,0.0
	-1.571835403608346e+00,0.0

 21	1.830206106311058e-03,0.000000000000000e+00
	1.000000000000000e+00,0.000000000000000e+00
	-5.718434539759117e-07,-2.039398251220769e-03
	-4.159145096348017e-06,2.056106697451802e-09
	-2.557215124083673e-12,-2.391407996591069e-09
	-2.557353437735368e-12,-2.391407996443154e-09
	-2.557416687859398e-12,-2.391407996375513e-09
	-2.557416687859398e-12,-2.391407996375513e-09
	2.391409363849875e-09,0.0
	-1.724269214911219e+02,0.0
	-1.571865745194768e+00,0.0

 22	1.883649089489803e-03,0.000000000000000e+00
	1.000000000000000e+00,0.000000000000000e+00
	-6.057273060227126e-07,-2.098949745540641e-03
	-4.405589887618825e-06,2.241535618265747e-09
	-2.869242476749419e-12,-2.607075788730339e-09
	-2.869397667211713e-12,-2.607075788559531e-09
	-2.869468635014733e-12,-2.607075788481420e-09
	-2.869468635014733e-12,-2.607075788481420e-09
	2.607077367616133e-09,0.0
	-1.716769216103872e+02,0.0
	-1.571896972771121e+00,0.0

 23	1.938652635952210e-03,0.000000000000000e+00
	1.000000000000000e+00,0.000000000000000e+00
	-6.416189021826318e-07,-2.160240174008327e-03
	-4.666637444814337e-06,2.443687349392837e-09
	-3.219342908835507e-12,-2.842193452015906e-09
	-3.219517035389351e-12,-2.842193451818660e-09
	-3.219596662569984e-12,-2.842193451728459e-09
	-3.219596662569984e-12,-2.842193451728459e-09
	2.842195275284723e-09,0.0
	-1.709269217367201e+02,0.0
	-1.571929112208740e+00,0.0

 24	1.995262314968882e-03,0.000000000000000e+00
	1.000000000000000e+00,0.000000000000000e+00
	-6.796372087315359e-07,-2.223320314338130e-03
	-4.943153035480980e-06,2.664070028561814e-09
	-3.612162035655661e-12,-3.098515060230858e-09
	-3.612357408852021e-12,-3.098515060003081e-09
	-3.612446752013382e-12,-3.098515059898919e-09
	-3.612446752013382e-12,-3.098515059898919e-09
	3.098517165708775e-09,0.0
	-1.701769218705381e+02,0.0
	-1.571962190134417e+00,0.0

 25	2.053525026457149e-03,0.000000000000000e+00
	1.000000000000000e+00,0.000000000000000e+00
	-7.199082411351919e-07,-2.288242426973136e-03
	-5.236053197399330e-06,2.904327804069172e-09
	-4.052912322758815e-12,-3.377952876950624e-09
	-4.053131535078201e-12,-3.377952876687592e-09
	-4.053231779748343e-12,-3.377952876567307e-09
	-4.053231779748343e-12,-3.377952876567307e-09
	3.377955308318511e-09,0.0
	-1.694269220122869e+02,0.0
	-1.571996233952458e+00,0.0

 26	2.113489039836650e-03,0.000000000000000e+00
	1.000000000000000e+00,0.000000000000000e+00
	-7.625654817397084e-07,-2.355060298381712e-03
	-5.546308776531965e-06,3.166253100817217e-09
	-4.547442252017964e-12,-3.682591621741999e-09
	-4.547688212270984e-12,-3.682591621438255e-09
	-4.547800688634084e-12,-3.682591621299353e-09
	-4.547800688634084e-12,-3.682591621299353e-09
	3.682594429441735e-09,0.0
	-1.686769221624307e+02,0.0
	-1.572031271867382e+00,0.0

 27	2.175204034019526e-03,0.000000000000000e+00
	1.000000000000000e+00,0.000000000000000e+00
	-8.077503222106203e-07,-2.423829285616297e-03
	-5.874948144961268e-06,3.451799992543867e-09
	-5.102313927221867e-12,-4.014704022929025e-09
	-5.102589899147258e-12,-4.014704022578267e-09
	-5.102716099694316e-12,-4.014704022417864e-09
	-5.102716099694316e-12,-4.014704022417864e-09
	4.014707265209977e-09,0.0
	-1.679269223214736e+02,0.0
	-1.572067332907293e+00,0.0

 28	2.238721138568343e-03,0.000000000000000e+00
	1.000000000000000e+00,0.000000000000000e+00
	-8.556125321889781e-07,-2.494606362174833e-03
	-6.223060609525589e-06,3.763098780036286e-09
	-5.724890148979917e-12,-4.376767772980904e-09
	-5.725199794552249e-12,-4.376767772575855e-09
	-5.725341393885470e-12,-4.376767772390625e-09
	-5.725341393885470e-12,-4.376767772390625e-09
	4.376771517108389e-09,0.0
	-1.671769224899403e+02,0.0
	-1.572104446947926e+00,0.0

 29	2.304092976055850e-03,0.000000000000000e+00
	1.000000000000000e+00,0.000000000000000e+00
	-9.063107557175049e-07,-2.567450165202483e-03
	-6.591800022408044e-06,4.102471884057624e-09
	-6.423432114326366e-12,-4.771484012985007e-09
	-6.423779542348064e-12,-4.771484012517263e-09
	-6.423938419401735e-12,-4.771484012303364e-09
	-6.423938419401735e-12,-4.771484012303364e-09
	4.771488336635795e-09,0.0
	-1.664269226683891e+02,0.0
	-1.572142644737397e+00,0.0

 30	2.371373705661660e-03,0.000000000000000e+00
	1.000000000000000e+00,0.000000000000000e+00
	-9.600130370797127e-07,-2.642421044067825e-03
	-6.982388605672916e-06,4.472451171571101e-09
	-7.207209037452214e-12,-5.201797484121468e-09
	-7.207598858074685e-12,-5.201797483581325e-09
	-7.207777121047417e-12,-5.201797483334319e-09
	-7.207777121047417e-12,-5.201797483334319e-09
	5.201802476995285e-09,0.0
	-1.656769228574113e+02,0.0
	-1.572181957921680e+00,0.0

 31	2.440619068041985e-03,0.000000000000000e+00
	1.000000000000000e+00,0.000000000000000e+00
	-1.016897377798940e-06,-2.719581110361221e-03
	-7.396121002415871e-06,4.875796844518966e-09
	-8.086621146149150e-12,-5.670918496467178e-09
	-8.087058532046469e-12,-5.670918495843433e-09
	-8.087258546375605e-12,-5.670918495558194e-09
	-8.087258546375605e-12,-5.670918495558194e-09
	5.670924262147645e-09,0.0
	-1.649269230576339e+02,0.0
	-1.572222419070822e+00,0.0

 32	2.511886431509585e-03,0.000000000000000e+00
	1.000000000000000e+00,0.000000000000000e+00
	-1.077152326640241e-06,-2.798994289350897e-03
	-7.834368567955611e-06,5.315518032068750e-09
	-9.073337686037403e-12,-6.182346879021055e-09
	-9.073828441044294e-12,-6.182346878300765e-09
	-9.074052860793706e-12,-6.182346877971376e-09
	-9.074052860793706e-12,-6.182346877971376e-09
	6.182353537124656e-09,0.0
	-1.641769232697240e+02,0.0
	-1.572264061705924e+00,0.0

 33	2.585234839562196e-03,0.000000000000000e+00
	1.000000000000000e+00,0.000000000000000e+00
	-1.140977604573237e-06,-2.880726372943339e-03
	-8.298583915308399e-06,5.794895239973844e-09
	-1.018045176382337e-11,-6.739898089637042e-09
	-1.018100239994826e-11,-6.739898088805264e-09
	-1.018125420302603e-11,-6.739898088424892e-09
	-1.018125420302603e-11,-6.739898088424892e-09
	6.739905778294728e-09,0.0
	-1.634269234943758e+02,0.0
	-1.572306920326916e+00,0.0

 34	2.660725059798815e-03,0.000000000000000e+00
	1.000000000000000e+00,0.000000000000000e+00
	-1.208584766763472e-06,-2.964845074186223e-03
	-8.790305729957256e-06,6.317504824477657e-09
	-1.142265408417215e-11,-7.347731679607328e-09
	-1.142327190800719e-11,-7.347731678646807e-09
	-1.142355443568045e-11,-7.347731678207560e-09
	-1.142355443568045e-11,-7.347731678207560e-09
	7.347740558330216e-09,0.0
	-1.626769237323402e+02,0.0
	-1.572351030441137e+00,0.0

 35	2.738419634264367e-03,0.000000000000000e+00
	1.000000000000000e+00,0.000000000000000e+00
	-1.280197903792303e-06,-3.051420083367349e-03
	-9.311163869953966e-06,6.887245673419474e-09
	-1.281642788566388e-11,-8.010382325308878e-09
	-1.281712109533854e-11,-8.010382324199685e-09
	-1.281743809656990e-11,-8.010382323692451e-09
	-1.281743809656990e-11,-8.010382323692451e-09
	8.010392578297510e-09,0.0
	-1.619269239844066e+02,0.0
	-1.572396428592749e+00,0.0

 36	2.818382931264460e-03,0.000000000000000e+00
	1.000000000000000e+00,0.000000000000000e+00
	-1.356054384425196e-06,-3.140523125750056e-03
	-9.862884768197493e-06,7.508368293537613e-09
	-1.438026766241303e-11,-8.732793658367575e-09
	-1.438104545637779e-11,-8.732793657086697e-09
	-1.438140113757149e-11,-8.732793656500952e-09
	-1.438140113757149e-11,-8.732793656500952e-09
	8.732805498333394e-09,0.0
	-1.611769242514079e+02,0.0
	-1.572443152393016e+00,0.0

 37	2.900681198693160e-03,0.000000000000000e+00
	1.000000000000000e+00,0.000000000000000e+00
	-1.436405642389952e-06,-3.232228020991740e-03
	-1.044729715480747e-05,8.185506520984415e-09
	-1.613492457363918e-11,-9.520355146726635e-09
	-1.613579727272276e-11,-9.520355145247503e-09
	-1.613619635354088e-11,-9.520355144571096e-09
	-1.613619635354088e-11,-9.520355144571096e-09
	9.520368819304958e-09,0.0
	-1.604269245342300e+02,0.0
	-1.572491240551458e+00,0.0

 38	2.985382618917966e-03,0.000000000000000e+00
	1.000000000000000e+00,0.000000000000000e+00
	-1.521518009777413e-06,-3.326610744301832e-03
	-1.106633811857654e-05,8.923712091641168e-09
	-1.810368179761857e-11,-1.037894230177169e-08
	-1.810466098197828e-11,-1.037894230006362e-08
	-1.810510875796742e-11,-1.037894229928252e-08
	-1.810510875796742e-11,-1.037894229928252e-08
	1.037895809061772e-08,0.0
	-1.596769248338107e+02,0.0
	-1.572540732907925e+00,0.0

 39	3.072557365267454e-03,0.000000000000000e+00
	1.000000000000000e+00,0.000000000000000e+00
	-1.611673599820245e-06,-3.423749489380685e-03
	-1.172205952757476e-05,9.728492329122936e-09
	-2.031266348372868e-11,-1.131496051144755e-08
	-2.031376214651127e-11,-1.131496050947510e-08
	-2.031426455937083e-11,-1.131496050857309e-08
	-2.031426455937083e-11,-1.131496050857309e-08
	1.131497874412114e-08,0.0
	-1.589269251511441e+02,0.0
	-1.572591670465600e+00,0.0

 40	3.162277660168387e-03,0.000000000000000e+00
	1.000000000000000e+00,0.000000000000000e+00
	-1.707171241983572e-06,-3.523724733201304e-03
	-1.241663483020427e-05,1.060585123166249e-08
	-2.279118140218133e-11,-1.233539282638195e-08
	-2.279241412193301e-11,-1.233539282410419e-08
	-2.279297783835747e-11,-1.233539282306257e-08
	-2.279297783835747e-11,-1.233539282306257e-08
	1.233541388114328e-08,0.0
	-1.581769254872770e+02,0.0
	-1.572644095424967e+00,0.0

 41	3.254617834980467e-03,0.000000000000000e+00
	1.000000000000000e+00,0.000000000000000e+00
	-1.808327472457264e-06,-3.626619302675918e-03
	-1.315236625920014e-05,1.156233426433782e-08
	-2.557212389111836e-11,-1.344785205545948e-08
	-2.557350702523213e-11,-1.344785205282917e-08
	-2.557413952537346e-11,-1.344785205162633e-08
	-2.557413952537346e-11,-1.344785205162633e-08
	1.344787636911654e-08,0.0
	-1.574269258433308e+02,0.0
	-1.572698051218774e+00,0.0

 42	3.349654391578285e-03,0.000000000000000e+00
	1.000000000000000e+00,0.000000000000000e+00
	-1.915477583345800e-06,-3.732518443277986e-03
	-1.393169246254814e-05,1.260507719092526e-08
	-2.869239226229789e-11,-1.466063755957295e-08
