Title: * sky130 bjt 2-stage ppa sweep ac: ce1 -> ce2 -> output rebias -> ideal opamp follower -> two rc poles
Date: Sat May 23 05:48:59  2026
Command: ngspice-46, Build Mar 29 2026   15:02:07
Plotname: AC Analysis
Flags: complex
No. Variables: 11
No. Points: 721
Variables:
	0	frequency	frequency grid=3
	1	v(vin)	voltage
	2	v(b1_collector)	voltage
	3	v(b2_collector)	voltage
	4	v(vout_drv)	voltage
	5	v(vfilt1)	voltage
	6	v(vout_final)	voltage
	7	gain	notype
	8	gain_vv	notype
	9	gain_db	decibel
	10	phase_deg	phase
Values:
 0	1.000000000000000e-03,0.000000000000000e+00
	1.000000000000000e+00,0.000000000000000e+00
	-2.157734148579273e-07,-1.335111190970011e-03
	-1.782521877199996e-06,4.985745876357607e-10
	-3.325596509984962e-13,-5.599956589507638e-10
	-3.325793078357888e-13,-5.599956589390897e-10
	-3.325874005157303e-13,-5.599956589342835e-10
	-3.325874005157303e-13,-5.599956589342835e-10
	5.599957576978788e-10,0.0
	-1.850363052604253e+02,0.0
	-1.571390237401354e+00,0.0

 1	1.029200527194428e-03,0.000000000000000e+00
	1.000000000000000e+00,0.000000000000000e+00
	-2.285587931290700e-07,-1.374097139483582e-03
	-1.888142931846883e-06,5.435382823229335e-10
	-3.731380622273386e-13,-6.104985742476484e-10
	-3.731601175612109e-13,-6.104985742341672e-10
	-3.731691976973170e-13,-6.104985742286169e-10
	-3.731691976973170e-13,-6.104985742286169e-10
	6.104986882790365e-10,0.0
	-1.842863052969139e+02,0.0
	-1.571407579903379e+00,0.0

 2	1.059253725177289e-03,0.000000000000000e+00
	1.000000000000000e+00,0.000000000000000e+00
	-2.421017526475438e-07,-1.414221498055510e-03
	-2.000022426611218e-06,5.925570047724983e-10
	-4.186677878411827e-13,-6.655560679404756e-10
	-4.186925343324191e-13,-6.655560679249076e-10
	-4.187027224125396e-13,-6.655560679184983e-10
	-4.187027224125396e-13,-6.655560679184983e-10
	6.655561996218671e-10,0.0
	-1.835363053355619e+02,0.0
	-1.571425428815535e+00,0.0

 3	1.090184492385128e-03,0.000000000000000e+00
	1.000000000000000e+00,0.000000000000000e+00
	-2.564471829189402e-07,-1.455517508841722e-03
	-2.118531197281531e-06,6.459964555704456e-10
	-4.697529794487560e-13,-7.255788921552575e-10
	-4.697807454681460e-13,-7.255788921372799e-10
	-4.697921766818671e-13,-7.255788921298786e-10
	-4.697921766818671e-13,-7.255788921298786e-10
	7.255790442185547e-10,0.0
	-1.827863053765025e+02,0.0
	-1.571443798925259e+00,0.0

 4	1.122018454301964e-03,0.000000000000000e+00
	1.000000000000000e+00,0.000000000000000e+00
	-2.716426333189434e-07,-1.498019384686226e-03
	-2.244062053037867e-06,7.042553158199688e-10
	-5.270715062822782e-13,-7.910148424574756e-10
	-5.271026602678939e-13,-7.910148424367155e-10
	-5.271154863004207e-13,-7.910148424281686e-10
	-5.271154863004207e-13,-7.910148424281686e-10
	7.910150180574300e-10,0.0
	-1.820363054198681e+02,0.0
	-1.571462705451786e+00,0.0

 5	1.154781984689459e-03,0.000000000000000e+00
	1.000000000000000e+00,0.000000000000000e+00
	-2.877384706999609e-07,-1.541762337463645e-03
	-2.377031078452632e-06,7.677682214708153e-10
	-5.913839501030237e-13,-8.623520985897371e-10
	-5.914189054491648e-13,-8.623520985657636e-10
	-5.914332964940899e-13,-8.623520985558937e-10
	-5.914332964940899e-13,-8.623520985558937e-10
	8.623523013693985e-10,0.0
	-1.812863054658034e+02,0.0
	-1.571482164058763e+00,0.0

 6	1.188502227437019e-03,0.000000000000000e+00
	1.000000000000000e+00,0.000000000000000e+00
	-3.047880463373275e-07,-1.586782607252450e-03
	-2.517879012643533e-06,8.370090058881353e-10
	-6.635436976514051e-13,-9.401228664926670e-10
	-6.635829181940858e-13,-9.401228664649829e-10
	-6.635990652117532e-13,-9.401228664535854e-10
	-6.635990652117532e-13,-9.401228664535854e-10
	9.401231006589643e-10,0.0
	-1.805363055144619e+02,0.0
	-1.571502190867221e+00,0.0

 7	1.223207119049932e-03,0.000000000000000e+00
	1.000000000000000e+00,0.000000000000000e+00
	-3.228478727671973e-07,-1.633117492358205e-03
	-2.667072710146360e-06,9.124942348508553e-10
	-7.445082645614204e-13,-1.024907348778772e-09
	-7.445522707331851e-13,-1.024907348746803e-09
	-7.445703879846148e-13,-1.024907348733641e-09
	-7.445703879846148e-13,-1.024907348733641e-09
	1.024907619189790e-09,0.0
	-1.797863055660025e+02,0.0
	-1.571522802468935e+00,0.0

 8	1.258925411794168e-03,0.000000000000000e+00
	1.000000000000000e+00,0.000000000000000e+00
	-3.419778111030978e-07,-1.680805380214820e-03
	-2.825106688347170e-06,9.947870603510546e-10
	-8.353520009998455e-13,-1.117338073279475e-09
	-8.354013767355863e-13,-1.117338073242558e-09
	-8.354217046255861e-13,-1.117338073227359e-09
	-8.354217046255861e-13,-1.117338073227359e-09
	1.117338385545243e-09,0.0
	-1.790363056205962e+02,0.0
	-1.571544015940165e+00,0.0

 9	1.295686697517020e-03,0.000000000000000e+00
	1.000000000000000e+00,0.000000000000000e+00
	-3.622412694512689e-07,-1.729885779186733e-03
	-2.992504766606623e-06,1.084501421946040e-09
	-9.372803476266510e-13,-1.218104611959189e-09
	-9.373357481120605e-13,-1.218104611916558e-09
	-9.373585563792477e-13,-1.218104611899006e-09
	-9.373585563792477e-13,-1.218104611899006e-09
	1.218104972558068e-09,0.0
	-1.782863056784257e+02,0.0
	-1.571565848855809e+00,0.0

 10	1.333521432163325e-03,0.000000000000000e+00
	1.000000000000000e+00,0.000000000000000e+00
	-3.837054130832126e-07,-1.780399351300933e-03
	-3.169821802510595e-06,1.182306627008797e-09
	-1.051645831045202e-12,-1.327958725401806e-09
	-1.051707991410680e-12,-1.327958725352576e-09
	-1.051733582706745e-12,-1.327958725332308e-09
	-1.051733582706745e-12,-1.327958725332308e-09
	1.327959141814890e-09,0.0
	-1.775363057396810e+02,0.0
	-1.571588319303958e+00,0.0

 11	1.372460961007563e-03,0.000000000000000e+00
	1.000000000000000e+00,0.000000000000000e+00
	-4.064413870616201e-07,-1.832387945934483e-03
	-3.357645530995153e-06,1.288932344043063e-09
	-1.179966010988851e-12,-1.447719971246604e-09
	-1.180035756064227e-12,-1.447719971189754e-09
	-1.180064469969933e-12,-1.447719971166349e-09
	-1.180064469969933e-12,-1.447719971166349e-09
	1.447720452112923e-09,0.0
	-1.767863058045661e+02,0.0
	-1.571611445900884e+00,0.0

 12	1.412537544622755e-03,0.000000000000000e+00
	1.000000000000000e+00,0.000000000000000e+00
	-4.305245520573211e-07,-1.885894634484524e-03
	-3.556598512449650e-06,1.405174046319463e-09
	-1.323943617394516e-12,-1.578281818417594e-09
	-1.324021872654024e-12,-1.578281818351946e-09
	-1.324054090185233e-12,-1.578281818324917e-09
	-1.324054090185233e-12,-1.578281818324917e-09
	1.578282373713348e-09,0.0
	-1.760363058732975e+02,0.0
	-1.571635247806464e+00,0.0

 13	1.453784385607663e-03,0.000000000000000e+00
	1.000000000000000e+00,0.000000000000000e+00
	-4.560347341401287e-07,-1.940963746053126e-03
	-3.767340196252464e-06,1.531898946443480e-09
	-1.485489144568666e-12,-1.720618312759749e-09
	-1.485576948411414e-12,-1.720618312683939e-09
	-1.485613097074925e-12,-1.720618312652727e-09
	-1.485613097074925e-12,-1.720618312652727e-09
	1.720618954005271e-09,0.0
	-1.752863059461006e+02,0.0
	-1.571659744740050e+00,0.0

 14	1.496235656094435e-03,0.000000000000000e+00
	1.000000000000000e+00,0.000000000000000e+00
	-4.830564893696624e-07,-1.997640904171420e-03
	-3.990569106574470e-06,1.670052466126602e-09
	-1.666746202253522e-12,-1.875791343807966e-09
	-1.666844719782393e-12,-1.875791343720422e-09
	-1.666885279248695e-12,-1.875791343684380e-09
	-1.666885279248695e-12,-1.875791343684380e-09
	1.875792084306729e-09,0.0
	-1.745363060232160e+02,0.0
	-1.571684956996812e+00,0.0

 15	1.539926526059493e-03,0.000000000000000e+00
	1.000000000000000e+00,0.000000000000000e+00
	-5.116793840646959e-07,-2.055973064597413e-03
	-4.227025157700091e-06,1.820665289430901e-09
	-1.870119959987814e-12,-2.044958566903388e-09
	-1.870230498469654e-12,-2.044958566802293e-09
	-1.870276006937849e-12,-2.044958566760672e-09
	-1.870276006937849e-12,-2.044958566760672e-09
	2.044959422018002e-09,0.0
	-1.737863061049031e+02,0.0
	-1.571710905464544e+00,0.0

 16	1.584893192461115e-03,0.000000000000000e+00
	1.000000000000000e+00,0.000000000000000e+00
	-5.419982916797014e-07,-2.116008554218165e-03
	-4.477492106545217e-06,1.984861052109582e-09
	-2.098309062202983e-12,-2.229382039761325e-09
	-2.098433088415210e-12,-2.229382039644583e-09
	-2.098484149754578e-12,-2.229382039596519e-09
	-2.098484149754578e-12,-2.229382039596519e-09
	2.229383027232257e-09,0.0
	-1.730363061914300e+02,0.0
	-1.571737611640974e+00,0.0

 17	1.631172909227840e-03,0.000000000000000e+00
	1.000000000000000e+00,0.000000000000000e+00
	-5.741137072716379e-07,-2.177797111085873e-03
	-4.742800150486270e-06,2.163864724400914e-09
	-2.354341437540209e-12,-2.430437637915536e-09
	-2.354480597234024e-12,-2.430437637780725e-09
	-2.354537888996987e-12,-2.430437637725222e-09
	-2.354537888996987e-12,-2.430437637725222e-09
	2.430438778229155e-09,0.0
	-1.722863062830838e+02,0.0
	-1.571765097651576e+00,0.0

 18	1.678804018122562e-03,0.000000000000000e+00
	1.000000000000000e+00,0.000000000000000e+00
	-6.081320806011240e-07,-2.241389925625897e-03
	-5.023828679125421e-06,2.359011749823234e-09
	-2.641614477561748e-12,-2.649625319287871e-09
	-2.641770617300216e-12,-2.649625319132193e-09
	-2.641834899713034e-12,-2.649625319068099e-09
	-2.641834899713034e-12,-2.649625319068099e-09
	2.649626636101465e-09,0.0
	-1.715363063801677e+02,0.0
	-1.571793386267895e+00,0.0

 19	1.727825980507865e-03,0.000000000000000e+00
	1.000000000000000e+00,0.000000000000000e+00
	-6.441661689694665e-07,-2.306839683043923e-03
	-5.321509189105478e-06,2.571758008145344e-09
	-2.963940117997907e-12,-2.888580314456872e-09
	-2.964115309658683e-12,-2.888580314277098e-09
	-2.964187435709175e-12,-2.888580314203084e-09
	-2.964187435709175e-12,-2.888580314203084e-09
	2.888581835089451e-09,0.0
	-1.707863064830030e+02,0.0
	-1.571822500926414e+00,0.0

 20	1.778279410038925e-03,0.000000000000000e+00
	1.000000000000000e+00,0.000000000000000e+00
	-6.823354109646356e-07,-2.374200606976487e-03
	-5.636828371635566e-06,2.803690676860502e-09
	-3.325595420728028e-12,-3.149085326108024e-09
	-3.325791988995862e-12,-3.149085325900425e-09
	-3.325872915752010e-12,-3.149085325814954e-09
	-3.325872915752010e-12,-3.149085325814954e-09
	3.149087082107087e-09,0.0
	-1.700363065919331e+02,0.0
	-1.571852465747975e+00,0.0

 21	1.830206106311058e-03,0.000000000000000e+00
	1.000000000000000e+00,0.000000000000000e+00
	-7.227663223507310e-07,-2.443528504410891e-03
	-5.970831382970036e-06,3.056540072199210e-09
	-3.731379327689905e-12,-3.433083828682136e-09
	-3.731599880903725e-12,-3.433083828442403e-09
	-3.731690682213363e-12,-3.433083828343703e-09
	-3.731690682213363e-12,-3.433083828343703e-09
	3.433085856478164e-09,0.0
	-1.692863067073169e+02,0.0
	-1.571883305557755e+00,0.0

 22	1.883649089489803e-03,0.000000000000000e+00
	1.000000000000000e+00,0.000000000000000e+00
	-7.655929154175273e-07,-2.514880811921432e-03
	-6.324625308663966e-06,3.332192558011542e-09
	-4.186676339794954e-12,-3.742694567432079e-09
	-4.186923804558871e-12,-3.742694567155239e-09
	-4.187025685298959e-12,-3.742694567041263e-09
	-4.187025685298959e-12,-3.742694567041263e-09
	3.742696909094334e-09,0.0
	-1.685363068295393e+02,0.0
	-1.571915045905838e+00,0.0

 23	1.938652635952210e-03,0.000000000000000e+00
	1.000000000000000e+00,0.000000000000000e+00
	-8.109571431766036e-07,-2.588316643253019e-03
	-6.699382833109087e-06,3.632704618835192e-09
	-4.697527965838501e-12,-4.080227365067092e-09
	-4.697805625855973e-12,-4.080227364747403e-09
	-4.697919937920548e-12,-4.080227364615786e-09
	-4.697919937920548e-12,-4.080227364615786e-09
	4.080230069176397e-09,0.0
	-1.677863069590028e+02,0.0
	-1.571947713088383e+00,0.0

 24	1.995262314968882e-03,0.000000000000000e+00
	1.000000000000000e+00,0.000000000000000e+00
	-8.590093698771377e-07,-2.663896838292657e-03
	-7.096346126489813e-06,3.960318202126499e-09
	-5.270712889469104e-12,-4.448200353893611e-09
	-5.271024429115575e-12,-4.448200353524441e-09
	-5.271152689354515e-12,-4.448200353372451e-09
	-5.271152689354515e-12,-4.448200353372451e-09
	4.448203476550221e-09,0.0
	-1.670363070961379e+02,0.0
	-1.571981334169403e+00,0.0

 25	2.053525026457149e-03,0.000000000000000e+00
	1.000000000000000e+00,0.000000000000000e+00
	-9.099088694035355e-07,-2.741684013475782e-03
	-7.516830962062007e-06,4.317477444127115e-09
	-5.913836917992532e-12,-4.849358762020202e-09
	-5.914186471204732e-12,-4.849358761593890e-09
	-5.914330381551381e-12,-4.849358761418375e-09
	-5.914330381551381e-12,-4.849358761418375e-09
	4.849362368007676e-09,0.0
	-1.662863072414012e+02,0.0
	-1.572015937003195e+00,0.0

 26	2.113489039836650e-03,0.000000000000000e+00
	1.000000000000000e+00,0.000000000000000e+00
	-9.638243532033736e-07,-2.821742613660781e-03
	-7.962231077400715e-06,4.706846904145966e-09
	-6.635433906570392e-12,-5.286695393777334e-09
	-6.635826111701010e-12,-5.286695393285036e-09
	-6.635987581755740e-12,-5.286695393082356e-09
	-6.635987581755740e-12,-5.286695393082356e-09
	5.286699557906557e-09,0.0
	-1.655363073952677e+02,0.0
	-1.572051550257412e+00,0.0

 27	2.175204034019526e-03,0.000000000000000e+00
	1.000000000000000e+00,0.000000000000000e+00
	-1.020934529496430e-06,-2.904138965517710e-03
	-8.434022794039758e-06,5.131331443269258e-09
	-7.445078996979978e-12,-5.763472957119944e-09
	-7.445519058345605e-12,-5.763472956551449e-09
	-7.445700230714972e-12,-5.763472956317396e-09
	-7.445700230714972e-12,-5.763472956317396e-09
	5.763477765781170e-09,0.0
	-1.647863075582526e+02,0.0
	-1.572088203436809e+00,0.0

 28	2.238721138568343e-03,0.000000000000000e+00
	1.000000000000000e+00,0.000000000000000e+00
	-1.081428695619702e-06,-2.988941332477228e-03
	-8.933769910873127e-06,5.594097895843367e-09
	-8.353515673587053e-12,-6.283248404618307e-09
	-8.354009430526086e-12,-6.283248403961819e-09
	-8.354212709253830e-12,-6.283248403691539e-09
	-8.354212709253830e-12,-6.283248403691539e-09
	6.283253957573437e-09,0.0
	-1.640363077308958e+02,0.0
	-1.572125926907696e+00,0.0

 29	2.304092976055850e-03,0.000000000000000e+00
	1.000000000000000e+00,0.000000000000000e+00
	-1.145507365472095e-06,-3.076219971286387e-03
	-9.463128887486962e-06,6.098598695373234e-09
	-9.372798322433648e-12,-6.849899469594751e-09
	-9.373352326790503e-12,-6.849899468836649e-09
	-9.373580409257655e-12,-6.849899468524536e-09
	-9.373580409257655e-12,-6.849899468524536e-09
	6.849905882047022e-09,0.0
	-1.632863079137674e+02,0.0
	-1.572164751923087e+00,0.0

 30	2.371373705661660e-03,0.000000000000000e+00
	1.000000000000000e+00,0.000000000000000e+00
	-1.213382934134504e-06,-3.166047190210445e-03
	-1.002385433461861e-05,6.648597631101394e-09
	-1.051645218510988e-11,-7.467653595381632e-09
	-1.051707378817368e-11,-7.467653594506192e-09
	-1.051732970089102e-11,-7.467653594145768e-09
	-1.051732970089102e-11,-7.467653594145768e-09
	7.467661000365659e-09,0.0
	-1.625363081074753e+02,0.0
	-1.572204710648597e+00,0.0

 31	2.440619068041985e-03,0.000000000000000e+00
	1.000000000000000e+00,0.000000000000000e+00
	-1.285280381873413e-06,-3.258497408938393e-03
	-1.061780482995421e-05,7.248197927440082e-09
	-1.179965282990583e-11,-8.141119473529082e-09
	-1.180035027995721e-11,-8.141119472518142e-09
	-1.180063741872510e-11,-8.141119472101931e-09
	-1.180063741872510e-11,-8.141119472101931e-09
	8.141128024670827e-09,0.0
	-1.617863083126612e+02,0.0
	-1.572245836189087e+00,0.0

 32	2.511886431509585e-03,0.000000000000000e+00
	1.000000000000000e+00,0.000000000000000e+00
	-1.361438019857661e-06,-3.353647220235258e-03
	-1.124694907851762e-05,7.901872855713011e-09
	-1.323942752166764e-11,-8.875321426227169e-09
	-1.324021007342796e-11,-8.875321425059753e-09
	-1.324053224839636e-11,-8.875321424579119e-09
	-1.324053224839636e-11,-8.875321424579119e-09
	8.875331300931101e-09,0.0
	-1.610363085300078e+02,0.0
	-1.572288162616091e+00,0.0

 33	2.585234839562196e-03,0.000000000000000e+00
	1.000000000000000e+00,0.000000000000000e+00
	-1.442108280063728e-06,-3.451575453397991e-03
	-1.191337243810238e-05,8.614499106617968e-09
	-1.485488116243803e-11,-9.675736889467164e-09
	-1.485575919987338e-11,-9.675736888119052e-09
	-1.485612068610003e-11,-9.675736887564025e-09
	-1.485612068610003e-11,-9.675736887564025e-09
	9.675748292596754e-09,0.0
	-1.602863087602299e+02,0.0
	-1.572331724996042e+00,0.0

 34	2.660725059798815e-03,0.000000000000000e+00
	1.000000000000000e+00,0.000000000000000e+00
	-1.527558551981215e-06,-3.552363239557526e-03
	-1.261928383131935e-05,9.391393172322584e-09
	-1.666744980087157e-11,-1.054833727652970e-08
	-1.666843497498114e-11,-1.054833727497292e-08
	-1.666884056915870e-11,-1.054833727433199e-08
	-1.666884056915870e-11,-1.054833727433199e-08
	1.054835044465757e-08,0.0
	-1.595363090040931e+02,0.0
	-1.572376559419325e+00,0.0

 35	2.738419634264367e-03,0.000000000000000e+00
	1.000000000000000e+00,0.000000000000000e+00
	-1.618072068901075e-06,-3.656094078895072e-03
	-1.336702306723329e-05,1.023835100968747e-08
	-1.870118507440270e-11,-1.149963252669718e-08
	-1.870229045781969e-11,-1.149963252489944e-08
	-1.870274554192466e-11,-1.149963252415930e-08
	-1.870274554192466e-11,-1.149963252415930e-08
	1.149964773301310e-08,0.0
	-1.587863092624091e+02,0.0
	-1.572422703030174e+00,0.0

 36	2.818382931264460e-03,0.000000000000000e+00
	1.000000000000000e+00,0.000000000000000e+00
	-1.713948846716491e-06,-3.762853909816658e-03
	-1.415906859683665e-05,1.116169128049019e-08
	-2.098307335847776e-11,-1.253671967151844e-08
	-2.098431361893444e-11,-1.253671966944244e-08
	-2.098482423164238e-11,-1.253671966858774e-08
	-2.098482423164238e-11,-1.253671966858774e-08
	1.253673723149699e-08,0.0
	-1.580363095360274e+02,0.0
	-1.572470194057445e+00,0.0

 37	2.900681198693160e-03,0.000000000000000e+00
	1.000000000000000e+00,0.000000000000000e+00
	-1.815506678350097e-06,-3.872731180146556e-03
	-1.499804572800483e-05,1.216830249118732e-08
	-2.354339385763223e-11,-1.366733578088262e-08
	-2.354478545259082e-11,-1.366733577848530e-08
	-2.354535836940545e-11,-1.366733577749831e-08
	-2.354535836940545e-11,-1.366733577749831e-08
	1.366735605882813e-08,0.0
	-1.572863098258612e+02,0.0
	-1.572519071846286e+00,0.0

 38	2.985382618917966e-03,0.000000000000000e+00
	1.000000000000000e+00,0.000000000000000e+00
	-1.923082187108834e-06,-3.985816920405542e-03
	-1.588673532728323e-05,1.326569438401170e-08
	-2.641612039020611e-11,-1.489991568399169e-08
	-2.641768178523808e-11,-1.489991568122331e-08
	-2.641832460839764e-11,-1.489991568008355e-08
	-2.641832460839764e-11,-1.489991568008355e-08
	1.489993910059617e-08,0.0
	-1.565363101328674e+02,0.0
	-1.572569376890736e+00,0.0

 39	3.072557365267454e-03,0.000000000000000e+00
	1.000000000000000e+00,0.000000000000000e+00
	-2.037031942446362e-06,-4.102204819218730e-03
	-1.682808303721392e-05,1.446205396266410e-08
	-2.963937219785575e-11,-1.624365489571954e-08
	-2.964112411166732e-11,-1.624365489252266e-08
	-2.964184537102103e-11,-1.624365489120648e-08
	-2.964184537102103e-11,-1.624365489120648e-08
	1.624368193679048e-08,0.0
	-1.557863104580665e+02,0.0
	-1.572621150867266e+00,0.0

 40	3.162277660168387e-03,0.000000000000000e+00
	1.000000000000000e+00,0.000000000000000e+00
	-2.157733641845995e-06,-4.221991300935685e-03
	-1.782520903986911e-05,1.576630657070553e-08
	-3.325591976197343e-11,-1.770857821789764e-08
	-3.325788544132849e-11,-1.770857821420594e-08
	-3.325869470752174e-11,-1.770857821268605e-08
	-3.325869470752174e-11,-1.770857821268605e-08
	1.770860944443670e-08,0.0
	-1.550363108025318e+02,0.0
	-1.572674436669311e+00,0.0

 41	3.254617834980467e-03,0.000000000000000e+00
	1.000000000000000e+00,0.000000000000000e+00
	-2.285587362726423e-06,-4.345275605507472e-03
	-1.888141839883572e-05,1.718818247816659e-08
	-3.731375233856432e-11,-1.930561452718855e-08
	-3.731595786675282e-11,-1.930561452292545e-08
	-3.731686587822305e-11,-1.930561452117031e-08
	-3.731686587822305e-11,-1.930561452117031e-08
	1.930565058703023e-08,0.0
	-1.542863111674121e+02,0.0
	-1.572729278442802e+00,0.0

 42	3.349654391578285e-03,0.000000000000000e+00
	1.000000000000000e+00,0.000000000000000e+00
	-2.421016888535269e-06,-4.472159870705443e-03
	-2.000021201407870e-05,1.873828947333318e-08
	-4.186671474265771e-11,-2.104667830761272e-08
