Title: * sky130 bjt 2-stage ppa sweep ac: ce1 -> ce2 -> output rebias -> ideal opamp follower -> two rc poles
Date: Sat May 23 05:49:00  2026
Command: ngspice-46, Build Mar 29 2026   15:02:07
Plotname: AC Analysis
Flags: complex
No. Variables: 11
No. Points: 721
Variables:
	0	frequency	frequency grid=3
	1	v(vin)	voltage
	2	v(b1_collector)	voltage
	3	v(b2_collector)	voltage
	4	v(vout_drv)	voltage
	5	v(vfilt1)	voltage
	6	v(vout_final)	voltage
	7	gain	notype
	8	gain_vv	notype
	9	gain_db	decibel
	10	phase_deg	phase
Values:
 0	1.000000000000000e-03,0.000000000000000e+00
	1.000000000000000e+00,0.000000000000000e+00
	-1.052765356875692e-08,-5.174106198729022e-05
	-2.677137415318627e-09,1.031396197037983e-12
	-5.882454856634927e-16,-8.410473388587669e-13
	-5.882639261830840e-16,-8.410473388458687e-13
	-5.882723813131355e-16,-8.410473388399548e-13
	-5.882723813131355e-16,-8.410473388399548e-13
	8.410475445741247e-13,0.0
	-2.415035890552059e+02,0.0
	-1.571495778844992e+00,0.0

 1	1.029200527194428e-03,0.000000000000000e+00
	1.000000000000000e+00,0.000000000000000e+00
	-1.115145623273393e-08,-5.325192814430692e-05
	-2.835767761040800e-09,1.124412134353354e-12
	-6.600222830643954e-16,-9.168967481216404e-13
	-6.600429736672760e-16,-9.168967481067459e-13
	-6.600524604790402e-16,-9.168967480999167e-13
	-6.600524604790402e-16,-9.168967480999167e-13
	9.168969856780274e-13,0.0
	-2.407535891004427e+02,0.0
	-1.571516203212638e+00,0.0

 2	1.059253725177289e-03,0.000000000000000e+00
	1.000000000000000e+00,0.000000000000000e+00
	-1.181222152498081e-08,-5.480691237782501e-05
	-3.003797543357546e-09,1.225816665958018e-12
	-7.405571729221396e-16,-9.995865950593755e-13
	-7.405803881599177e-16,-9.995865950421755e-13
	-7.405910325375674e-16,-9.995865950342892e-13
	-7.405910325375674e-16,-9.995865950342892e-13
	9.995868693852083e-13,0.0
	-2.400035891483708e+02,0.0
	-1.571537223982500e+00,0.0

 3	1.090184492385128e-03,0.000000000000000e+00
	1.000000000000000e+00,0.000000000000000e+00
	-1.251213961852311e-08,-5.640730295791701e-05
	-3.181783713626248e-09,1.336366312849936e-12
	-8.309188038760995e-16,-1.089733780640817e-12
	-8.309448518007319e-16,-1.089733780620955e-12
	-8.309567949886254e-16,-1.089733780611848e-12
	-8.309567949886254e-16,-1.089733780611848e-12
	1.089734097427343e-12,0.0
	-2.392535891991296e+02,0.0
	-1.571558858569829e+00,0.0

 4	1.122018454301964e-03,0.000000000000000e+00
	1.000000000000000e+00,0.000000000000000e+00
	-1.325353046222659e-08,-5.805442577266608e-05
	-3.370316224602908e-09,1.456885822464522e-12
	-9.323062193676006e-16,-1.188010840665360e-12
	-9.323354456190500e-16,-1.188010840642423e-12
	-9.323488460959560e-16,-1.188010840631907e-12
	-9.323488460959560e-16,-1.188010840631907e-12
	1.188011206484729e-12,0.0
	-2.385035892528958e+02,0.0
	-1.571581124898411e+00,0.0

 5	1.154781984689459e-03,0.000000000000000e+00
	1.000000000000000e+00,0.000000000000000e+00
	-1.403885147050816e-08,-5.974964542667453e-05
	-3.570019985903732e-09,1.588274321644062e-12
	-1.046064768205529e-15,-1.295150963154763e-12
	-1.046097560598192e-15,-1.295150963128277e-12
	-1.046112596180204e-15,-1.295150963116132e-12
	-1.046112596180204e-15,-1.295150963116132e-12
	1.295151385596375e-12,0.0
	-2.377535893098539e+02,0.0
	-1.571604041415413e+00,0.0

 6	1.188502227437019e-03,0.000000000000000e+00
	1.000000000000000e+00,0.000000000000000e+00
	-1.487070566871068e-08,-6.149436637167161e-05
	-3.781556935330040e-09,1.731512024506845e-12
	-1.173703956511943e-15,-1.411953458233105e-12
	-1.173740750180704e-15,-1.411953458202518e-12
	-1.173757620380750e-15,-1.411953458188494e-12
	-1.173757620380750e-15,-1.411953458188494e-12
	1.411953946061060e-12,0.0
	-2.370035893701848e+02,0.0
	-1.571627627106670e+00,0.0

 7	1.223207119049932e-03,0.000000000000000e+00
	1.000000000000000e+00,0.000000000000000e+00
	-1.575185032101336e-08,-6.329003406990362e-05
	-4.005628232909251e-09,1.887667545250237e-12
	-1.316917477925918e-15,-1.539289721296966e-12
	-1.316958761100121e-15,-1.539289721261645e-12
	-1.316977689775372e-15,-1.539289721245451e-12
	-1.316977689775372e-15,-1.539289721245451e-12
	1.539290284631893e-12,0.0
	-2.362535894340942e+02,0.0
	-1.571651901512412e+00,0.0

 8	1.258925411794168e-03,0.000000000000000e+00
	1.000000000000000e+00,0.000000000000000e+00
	-1.668520606974187e-08,-6.513813619184648e-05
	-4.242976584966697e-09,2.057905870473044e-12
	-1.477605687869904e-15,-1.678109733978747e-12
	-1.477652008351846e-15,-1.678109733937960e-12
	-1.477673246674168e-15,-1.678109733919258e-12
	-1.477673246674168e-15,-1.678109733919258e-12
	1.678110384507762e-12,0.0
	-2.355035895017808e+02,0.0
	-1.571676884743454e+00,0.0

 9	1.295686697517020e-03,0.000000000000000e+00
	1.000000000000000e+00,0.000000000000000e+00
	-1.767386661601960e-08,-6.704020384848309e-05
	-4.494388705868471e-09,2.243497050449378e-12
	-1.657900820072015e-15,-1.829449151378892e-12
	-1.657952792505943e-15,-1.829449151331791e-12
	-1.657976622294783e-15,-1.829449151310195e-12
	-1.657976622294783e-15,-1.829449151310195e-12
	1.829449902598066e-12,0.0
	-2.347535895734858e+02,0.0
	-1.571702597497853e+00,0.0

 10	1.333521432163325e-03,0.000000000000000e+00
	1.000000000000000e+00,0.000000000000000e+00
	-1.872110897421789e-08,-6.899781285995337e-05
	-4.760697925681131e-09,2.445825674255955e-12
	-1.860195279987677e-15,-1.994437028473382e-12
	-1.860253594015731e-15,-1.994437028418990e-12
	-1.860280331477687e-15,-1.994437028394051e-12
	-1.860280331477687e-15,-1.994437028394051e-12
	1.994437895967735e-12,0.0
	-2.340035896494387e+02,0.0
	-1.571729061078063e+00,0.0

 11	1.372460961007563e-03,0.000000000000000e+00
	1.000000000000000e+00,0.000000000000000e+00
	-1.983040433390019e-08,-7.101258506098038e-05
	-5.042786952303584e-09,2.666401199379528e-12
	-2.087173390519276e-15,-2.174304243304215e-12
	-2.087238819932605e-15,-2.174304243241405e-12
	-2.087268819857290e-15,-2.174304243212607e-12
	-2.087268819857290e-15,-2.174304243212607e-12
	2.174305245071049e-12,0.0
	-2.332535897298865e+02,0.0
	-1.571756297408578e+00,0.0

 12	1.412537544622755e-03,0.000000000000000e+00
	1.000000000000000e+00,0.000000000000000e+00
	-2.100542956540518e-08,-7.308618964450659e-05
	-5.341590797271897e-09,2.906869212897519e-12
	-2.341847011296337e-15,-2.370392679809688e-12
	-2.341920424302822e-15,-2.370392679737157e-12
	-2.341954084770696e-15,-2.370392679703901e-12
	-2.341954084770696e-15,-2.370392679703901e-12
	2.370393836631958e-12,0.0
	-2.325035898151046e+02,0.0
	-1.571784329054097e+00,0.0

 13	1.453784385607663e-03,0.000000000000000e+00
	1.000000000000000e+00,0.000000000000000e+00
	-2.225007940721687e-08,-7.522034454461691e-05
	-5.658099874948719e-09,3.169023708258120e-12
	-2.627595504170577e-15,-2.584165238808306e-12
	-2.627677874915400e-15,-2.584165238724549e-12
	-2.627715642580051e-15,-2.584165238686145e-12
	-2.627715642580051e-15,-2.584165238686145e-12
	2.584166574685796e-12,0.0
	-2.317535899053717e+02,0.0
	-1.571813179238218e+00,0.0

 14	1.496235656094435e-03,0.000000000000000e+00
	1.000000000000000e+00,0.000000000000000e+00
	-2.356847937540011e-08,-7.741681785970831e-05
	-5.993363285322783e-09,3.454820469212233e-12
	-2.948210575217065e-15,-2.817216751801314e-12
	-2.948302996709003e-15,-2.817216751704591e-12
	-2.948345372723952e-15,-2.817216751660242e-12
	-2.948345372723952e-15,-2.817216751660242e-12
	2.817218294448537e-12,0.0
	-2.310035900009920e+02,0.0
	-1.571842871862680e+00,0.0

 15	1.539926526059493e-03,0.000000000000000e+00
	1.000000000000000e+00,0.000000000000000e+00
	-2.496499943808355e-08,-7.967742931740642e-05
	-6.348492291354981e-09,3.766391660793283e-12
	-3.307946588296932e-15,-3.071285879038741e-12
	-3.308050286911886e-15,-3.071285878927047e-12
	-3.308097833580581e-15,-3.071285878875834e-12
	-3.308097833580581e-15,-3.071285878875834e-12
	3.071287660459922e-12,0.0
	-2.302535901022705e+02,0.0
	-1.571873431527163e+00,0.0

 16	1.584893192461115e-03,0.000000000000000e+00
	1.000000000000000e+00,0.000000000000000e+00
	-2.644426850001794e-08,-8.200405178195589e-05
	-6.724664002318149e-09,4.106061736129846e-12
	-3.711577017760375e-15,-3.348268080575856e-12
	-3.711693369514602e-15,-3.348268080446875e-12
	-3.711746717751826e-15,-3.348268080387735e-12
	-3.711746717751826e-15,-3.348268080387735e-12
	3.348270137728894e-12,0.0
	-2.295035902095598e+02,0.0
	-1.571904883549668e+00,0.0

 17	1.631172909227840e-03,0.000000000000000e+00
	1.000000000000000e+00,0.000000000000000e+00
	-2.801118974565064e-08,-8.439861280604490e-05
	-7.123125275465841e-09,4.476364777872894e-12
	-4.164457789461027e-15,-3.650229757148185e-12
	-4.164588338270000e-15,-3.650229756999238e-12
	-4.164648195973707e-15,-3.650229756930945e-12
	-4.164648195973707e-15,-3.650229756930945e-12
	3.650232132711390e-12,0.0
	-2.287535903231994e+02,0.0
	-1.571937253987494e+00,0.0

 18	1.678804018122562e-03,0.000000000000000e+00
	1.000000000000000e+00,0.000000000000000e+00
	-2.967095689109589e-08,-8.686309622755567e-05
	-7.545196848796612e-09,4.880063403470592e-12
	-4.672598350468877e-15,-3.979423666280586e-12
	-4.672744828634052e-15,-3.979423666108585e-12
	-4.672811990078723e-15,-3.979423666029721e-12
	-4.672811990078723e-15,-3.979423666029721e-12
	3.979426409538103e-12,0.0
	-2.280035904435747e+02,0.0
	-1.571970569658825e+00,0.0

 19	1.727825980507865e-03,0.000000000000000e+00
	1.000000000000000e+00,0.000000000000000e+00
	-3.142907139920572e-08,-8.939954381310013e-05
	-7.992277718771372e-09,5.320169375466737e-12
	-5.242741410632976e-15,-4.338305728716543e-12
	-5.242905761828329e-15,-4.338305728517920e-12
	-5.242981118204483e-15,-4.338305728426848e-12
	-5.242981118204483e-15,-4.338305728426848e-12
	4.338308896580811e-12,0.0
	-2.272535905710817e+02,0.0
	-1.572004858164944e+00,0.0

 20	1.778279410038925e-03,0.000000000000000e+00
	1.000000000000000e+00,0.000000000000000e+00
	-3.329136071469534e-08,-9.201005694960189e-05
	-8.465849777381520e-09,5.799966070484681e-12
	-5.882452414034772e-15,-4.729553350493075e-12
	-5.882636819098097e-15,-4.729553350263709e-12
	-5.882721370337817e-15,-4.729553350158543e-12
	-5.882721370337817e-15,-4.729553350158543e-12
	4.729557008685550e-12,0.0
	-2.265035907061448e+02,0.0
	-1.572040147913108e+00,0.0

 21	1.830206106311058e-03,0.000000000000000e+00
	1.000000000000000e+00,0.000000000000000e+00
	-3.526399757974735e-08,-9.469679838518479e-05
	-8.967482723999445e-09,6.323032974585599e-12
	-6.600219927604960e-15,-5.156085397380176e-12
	-6.600426833476187e-15,-5.156085397115309e-12
	-6.600521701521577e-15,-5.156085396993864e-12
	-6.600521701521577e-15,-5.156085396993864e-12
	5.156089621794806e-12,0.0
	-2.257535908492095e+02,0.0
	-1.572076468140075e+00,0.0

 22	1.883649089489803e-03,0.000000000000000e+00
	1.000000000000000e+00,0.000000000000000e+00
	-3.735352049409470e-08,-9.746199402086592e-05
	-9.498839268253294e-09,6.893272387702077e-12
	-7.405568278958367e-15,-5.621083970678916e-12
	-7.405800431148866e-15,-5.621083970373052e-12
	-7.405906874839492e-15,-5.621083970232810e-12
	-7.405906874839492e-15,-5.621083970232810e-12
	5.621088848956658e-12,0.0
	-2.250035910007534e+02,0.0
	-1.572113848936327e+00,0.0

 23	1.938652635952210e-03,0.000000000000000e+00
	1.000000000000000e+00,0.000000000000000e+00
	-3.956685538752088e-08,-1.003079347546959e-04
	-1.006168064121330e-08,7.514938536421211e-12
	-8.309183938114856e-15,-6.128018146854985e-12
	-8.309444417138592e-15,-6.128018146501779e-12
	-8.309563848915469e-15,-6.128018146339830e-12
	-8.309563848915469e-15,-6.128018146339830e-12
	6.128023780202032e-12,0.0
	-2.242535911612738e+02,0.0
	-1.572152321271004e+00,0.0

 24	1.995262314968882e-03,0.000000000000000e+00
	1.000000000000000e+00,0.000000000000000e+00
	-4.191133857642635e-08,-1.032369783795770e-04
	-1.065787243309774e-08,8.192669312243243e-12
	-9.323057320046997e-15,-6.680669858077316e-12
	-9.323349582296946e-15,-6.680669857669440e-12
	-9.323483586944706e-15,-6.680669857482424e-12
	-9.323483586944706e-15,-6.680669857482424e-12
	6.680676363364748e-12,0.0
	-2.235035913313060e+02,0.0
	-1.572191917017556e+00,0.0

 25	2.053525026457149e-03,0.000000000000000e+00
	1.000000000000000e+00,0.000000000000000e+00
	-4.439474108073828e-08,-1.062515515366403e-04
	-1.128939077690424e-08,8.931520872162342e-12
	-1.046064188973340e-14,-7.283162106769027e-12
	-1.046096981334562e-14,-7.283162106298019e-12
	-1.046112016902158e-14,-7.283162106082055e-12
	-1.046112016902158e-14,-7.283162106082055e-12
	7.283169618957449e-12,0.0
	-2.227535915114200e+02,0.0
	-1.572232668980147e+00,0.0

 26	2.113489039836650e-03,0.000000000000000e+00
	1.000000000000000e+00,0.000000000000000e+00
	-4.702529438164372e-08,-1.093541517255710e-04
	-1.195832889845877e-08,9.737005359691565e-12
	-1.173703268092913e-14,-7.939989724658315e-12
	-1.173740061724306e-14,-7.939989724114403e-12
	-1.173756931907218e-14,-7.939989723865015e-12
	-1.173756931907218e-14,-7.939989723865015e-12
	7.939998399597796e-12,0.0
	-2.220035917022034e+02,0.0
	-1.572274610920840e+00,0.0

 27	2.175204034019526e-03,0.000000000000000e+00
	1.000000000000000e+00,0.000000000000000e+00
	-4.981171770559058e-08,-1.125473493737273e-04
	-1.266690405452354e-08,1.061513202768075e-11
	-1.316916659740169e-14,-8.656052905753789e-12
	-1.316957942869961e-14,-8.656052905125688e-12
	-1.316976871524849e-14,-8.656052904837700e-12
	-1.316976871524849e-14,-8.656052904837700e-12
	8.656062923417158e-12,0.0
	-2.212535919042845e+02,0.0
	-1.572317777587560e+00,0.0

 28	2.238721138568343e-03,0.000000000000000e+00
	1.000000000000000e+00,0.000000000000000e+00
	-5.276324692479743e-08,-1.158337899654149e-04
	-1.341746488201249e-08,1.157245206975918e-11
	-1.477604715452832e-14,-9.436693763437458e-12
	-1.477651035881992e-14,-9.436693762712140e-12
	-1.477672274180112e-14,-9.436693762379575e-12
	-1.477672274180112e-14,-9.436693762379575e-12
	9.436705331654082e-12,0.0
	-2.205035921183460e+02,0.0
	-1.572362204742884e+00,0.0

 29	2.304092976055850e-03,0.000000000000000e+00
	1.000000000000000e+00,0.000000000000000e+00
	-5.588966517048557e-08,-1.192161962337199e-04
	-1.421249918274522e-08,1.261610749496962e-11
	-1.657899664352945e-14,-1.028773618445050e-11
	-1.657951636724140e-14,-1.028773618361292e-11
	-1.657975466484215e-14,-1.028773618322888e-11
	-1.657975466484215e-14,-1.028773618322888e-11
	1.028774954321797e-11,0.0
	-2.197535923450892e+02,0.0
	-1.572407929193671e+00,0.0

 30	2.371373705661660e-03,0.000000000000000e+00
	1.000000000000000e+00,0.000000000000000e+00
	-5.920133525986776e-08,-1.226973704160787e-04
	-1.505464216936148e-08,1.375388440998304e-11
	-1.860193906413276e-14,-1.121552927696590e-11
	-1.860252220366771e-14,-1.121552927599867e-11
	-1.860278957794541e-14,-1.121552927555519e-11
	-1.860278957794541e-14,-1.121552927555519e-11
	1.121554470342905e-11,0.0
	-2.190035925852692e+02,0.0
	-1.572454988821551e+00,0.0

 31	2.440619068041985e-03,0.000000000000000e+00
	1.000000000000000e+00,0.000000000000000e+00
	-6.270923404453549e-08,-1.262801965757154e-04
	-1.594668519990493e-08,1.499427110662823e-11
	-2.087171758021863e-14,-1.222699473699881e-11
	-2.087237187346579e-14,-1.222699473588187e-11
	-2.087267187230633e-14,-1.222699473536975e-11
	-2.087267187230633e-14,-1.222699473536975e-11
	1.222701255119952e-11,0.0
	-2.182535928396801e+02,0.0
	-1.572503422614311e+00,0.0

 32	2.511886431509585e-03,0.000000000000000e+00
	1.000000000000000e+00,0.000000000000000e+00
	-6.642498879421470e-08,-1.299676429909843e-04
	-1.689158502991497e-08,1.634652138794494e-11
	-2.341845071069751e-14,-1.332967848643776e-11
	-2.341918483970919e-14,-1.332967848514794e-11
	-2.341952144390504e-14,-1.332967848455655e-11
	-2.341952144390504e-14,-1.332967848455655e-11
	1.332969905795455e-11,0.0
	-2.175035931091648e+02,0.0
	-1.572553270698195e+00,0.0

 33	2.585234839562196e-03,0.000000000000000e+00
	1.000000000000000e+00,0.000000000000000e+00
	-7.036091573623998e-08,-1.337627646143219e-04
	-1.789247361273464e-08,1.782072360524782e-11
	-2.627593198206318e-14,-1.453180696795134e-11
	-2.627675568825973e-14,-1.453180696646188e-11
	-2.627713336433232e-14,-1.453180696577895e-11
	-2.627713336433232e-14,-1.453180696577895e-11
	1.453183072356678e-11,0.0
	-2.167535933946189e+02,0.0
	-1.572604574371144e+00,0.0

 34	2.660725059798815e-03,0.000000000000000e+00
	1.000000000000000e+00,0.000000000000000e+00
	-7.453006087872169e-08,-1.376687056031072e-04
	-1.895266848053369e-08,1.942787592128038e-11
	-2.948207834575836e-14,-1.584234851675128e-11
	-2.948300255919010e-14,-1.584234851503129e-11
	-2.948342631865749e-14,-1.584234851424265e-11
	-2.948342631865749e-14,-1.584234851424265e-11
	1.584237594930614e-11,0.0
	-2.160035936969851e+02,0.0
	-1.572657376137012e+00,0.0

 35	2.738419634264367e-03,0.000000000000000e+00
	1.000000000000000e+00,0.000000000000000e+00
	-7.894624325265058e-08,-1.416887019244434e-04
	-2.007568374038406e-08,2.117996836082440e-11
	-3.307943331036699e-14,-1.727108026699408e-11
	-3.308047029474847e-14,-1.727108026500786e-11
	-3.308094576062474e-14,-1.727108026409715e-11
	-3.308094576062474e-14,-1.727108026409715e-11
	1.727111194561192e-11,0.0
	-2.152535940172696e+02,0.0
	-1.572711719740777e+00,0.0

 36	2.818382931264460e-03,0.000000000000000e+00
	1.000000000000000e+00,0.000000000000000e+00
	-8.362410071599401e-08,-1.458260840357529e-04
	-2.126524172193284e-08,2.309007226106533e-11
	-3.711573146501888e-14,-1.882866109202747e-11
	-3.711689498045982e-14,-1.882866108973381e-11
	-3.711742846186856e-14,-1.882866108868214e-11
	-3.711742846186856e-14,-1.882866108868214e-11
	1.882869767392181e-11,0.0
	-2.145035943565325e+02,0.0
	-1.572767650204785e+00,0.0

 37	2.900681198693160e-03,0.000000000000000e+00
	1.000000000000000e+00,0.000000000000000e+00
	-8.857913847220229e-08,-1.500842796440026e-04
	-2.252528531518379e-08,2.517243778888155e-11
	-4.164453188460171e-14,-2.052671112254299e-11
	-4.164583737019399e-14,-2.052671111989432e-11
	-4.164643594608594e-14,-2.052671111867987e-11
	-4.164643594608594e-14,-2.052671111867987e-11
	2.052675336665209e-11,0.0
	-2.137535947158989e+02,0.0
	-1.572825213866043e+00,0.0

 38	2.985382618917966e-03,0.000000000000000e+00
	1.000000000000000e+00,0.000000000000000e+00
	-9.382778046333109e-08,-1.544668165452310e-04
	-2.385999103934975e-08,2.744260025268271e-11
	-4.672592882171499e-14,-2.237789843589995e-11
	-4.672739360039852e-14,-2.237789843284132e-11
	-4.672806521348425e-14,-2.237789843143890e-11
	-4.672806521348425e-14,-2.237789843143890e-11
	2.237794721863187e-11,0.0
	-2.130035950965552e+02,0.0
	-1.572884458414611e+00,0.0

 39	3.072557365267454e-03,0.000000000000000e+00
	1.000000000000000e+00,0.000000000000000e+00
	-9.938742380823883e-08,-1.589773255468805e-04
	-2.527378288599026e-08,2.991749600176898e-11
	-5.242734911546478e-14,-2.439603356323171e-11
	-5.242899262389056e-14,-2.439603355969966e-11
	-5.242974618603457e-14,-2.439603355808017e-11
	-5.242974618603457e-14,-2.439603355808017e-11
	2.439608989664653e-11,0.0
	-2.122535954997729e+02,0.0
	-1.572945432933107e+00,0.0

 40	3.162277660168387e-03,0.000000000000000e+00
	1.000000000000000e+00,0.000000000000000e+00
	-1.052764964669274e-07,-1.636195434758915e-04
	-2.677134698253348e-08,3.261558877820782e-11
	-5.882444689858992e-14,-2.659617251955737e-11
	-5.882629094503045e-14,-2.659617251547862e-11
	-5.882713645550522e-14,-2.659617251360845e-11
	-5.882713645550522e-14,-2.659617251360845e-11
	2.659623757236360e-11,0.0
	-2.115035959268766e+02,0.0
	-1.573008187937377e+00,0.0

 41	3.254617834980467e-03,0.000000000000000e+00
	1.000000000000000e+00,0.000000000000000e+00
	-1.115145183209786e-07,-1.683973162740261e-04
	-2.835764712441698e-08,3.555700746323028e-11
	-6.600210747403827e-14,-2.899472912515331e-11
	-6.600417652776746e-14,-2.899472912044324e-11
	-6.600512520593656e-14,-2.899472911828362e-11
	-6.600512520593656e-14,-2.899472911828362e-11
	2.899480424695427e-11,0.0
	-2.107535963792910e+02,0.0
	-1.573072775418333e+00,0.0

 42	3.349654391578285e-03,0.000000000000000e+00
	1.000000000000000e+00,0.000000000000000e+00
	-1.181221658739117e-07,-1.733146021841944e-04
	-3.003794122775860e-08,3.876369624654161e-11
	-7.405557368272573e-14,-3.160959745650468e-11
