Title: * sky130 bjt 1-stage ac sanity check
Date: Fri May 22 17:23:20  2026
Command: ngspice-46, Build Mar 29 2026   15:02:07
Plotname: AC Analysis
Flags: complex
No. Variables: 10
No. Points: 301
Variables:
	0	frequency	frequency grid=3
	1	v(vin)	voltage
	2	v(b1_base)	voltage
	3	v(b1_emitter)	voltage
	4	v(b1_collector)	voltage
	5	v(b1_out)	voltage
	6	gain	notype
	7	gain_vv	notype
	8	gain_db	decibel
	9	phase_deg	phase
Values:
 0	1.000000000000000e+00,0.000000000000000e+00
	1.000000000000000e+00,0.000000000000000e+00
	1.624129478287415e-01,3.688291915217680e-01
	1.496308723421935e-01,3.398019331882611e-01
	-7.279683538718148e-01,-1.653168491002065e+00
	-7.279683538718148e-01,-1.653168491002065e+00
	-7.279683538718148e-01,-1.653168491002065e+00
	1.806351013474647e+00,0.0
	5.136042941727251e+00,0.0
	-1.985594169312277e+00,0.0

 1	1.047128548050900e+00,0.000000000000000e+00
	1.000000000000000e+00,0.000000000000000e+00
	1.753348796281243e-01,3.802532697498078e-01
	1.615358340668388e-01,3.503269240378845e-01
	-7.858871192572195e-01,-1.704373564180841e+00
	-7.858871192572195e-01,-1.704373564180841e+00
	-7.858871192572195e-01,-1.704373564180841e+00
	1.876834518675772e+00,0.0
	5.468519647480976e+00,0.0
	-2.002842805490301e+00,0.0

 2	1.096478196143185e+00,0.000000000000000e+00
	1.000000000000000e+00,0.000000000000000e+00
	1.890528555807197e-01,3.915505868987308e-01
	1.741741904047860e-01,3.607351300427165e-01
	-8.473739188391960e-01,-1.755010467882034e+00
	-8.473739188391960e-01,-1.755010467882034e+00
	-8.473739188391960e-01,-1.755010467882034e+00
	1.948872571694828e+00,0.0
	5.795668868355484e+00,0.0
	-2.020614849713121e+00,0.0

 3	1.148153621496883e+00,0.000000000000000e+00
	1.000000000000000e+00,0.000000000000000e+00
	2.035791562024158e-01,4.026594978627711e-01
	1.875572553819780e-01,3.709697576337875e-01
	-9.124837964246924e-01,-1.804802896010876e+00
	-9.124837964246924e-01,-1.804802896010876e+00
	-9.124837964246924e-01,-1.804802896010876e+00
	2.022360050086746e+00,0.0
	6.117169551762545e+00,0.0
	-2.038903060895658e+00,0.0

 4	1.202264434617413e+00,0.000000000000000e+00
	1.000000000000000e+00,0.000000000000000e+00
	2.189203030347341e-01,4.135144385575983e-01
	2.016910372875315e-01,3.809704026914348e-01
	-9.812459829087631e-01,-1.853456976801169e+00
	-9.812459829087631e-01,-1.853456976801169e+00
	-9.812459829087631e-01,-1.853456976801169e+00
	2.097175825682605e+00,0.0
	6.432696858449979e+00,0.0
	-2.057697267041179e+00,0.0

 5	1.258925411794168e+00,0.000000000000000e+00
	1.000000000000000e+00,0.000000000000000e+00
	2.350762840317746e-01,4.240464723300919e-01
	2.165755250235719e-01,3.906735539520327e-01
	-1.053660424299253e+00,-1.900663721937202e+00
	-1.053660424299253e+00,-1.900663721937202e+00
	-1.053660424299253e+00,-1.900663721937202e+00
	2.173182659976529e+00,0.0
	6.741924622001257e+00,0.0
	-2.076984196773509e+00,0.0

 6	1.318256738556407e+00,0.000000000000000e+00
	1.000000000000000e+00,0.000000000000000e+00
	2.520398229252848e-01,4.341839881331777e-01
	2.322040149720652e-01,4.000132362357119e-01
	-1.129694506860055e+00,-1.946102155917090e+00
	-1.129694506860055e+00,-1.946102155917090e+00
	-1.129694506860055e+00,-1.946102155917090e+00
	2.250227384086979e+00,0.0
	7.044528110357762e+00,0.0
	-2.096747339512224e+00,0.0

 7	1.380384264602885e+00,0.000000000000000e+00
	1.000000000000000e+00,0.000000000000000e+00
	2.697957234481874e-01,4.438535512579527e-01
	2.485625068286668e-01,4.089217942249408e-01
	-1.209280117785586e+00,-1.989443129209709e+00
	-1.209280117785586e+00,-1.989443129209709e+00
	-1.209280117785586e+00,-1.989443129209709e+00
	2.328141397688560e+00,0.0
	7.340187065700223e+00,0.0
	-2.116966841321854e+00,0.0

 8	1.445439770745928e+00,0.000000000000000e+00
	1.000000000000000e+00,0.000000000000000e+00
	2.883203213899466e-01,4.529809007735492e-01
	2.656291987819257e-01,4.173308114047887e-01
	-1.292311189200064e+00,-2.030353788986392e+00
	-1.292311189200064e+00,-2.030353788986392e+00
	-1.292311189200064e+00,-2.030353788986392e+00
	2.406741514617447e+00,0.0
	7.628588986195181e+00,0.0
	-2.137619443353268e+00,0.0

 9	1.513561248436209e+00,0.000000000000000e+00
	1.000000000000000e+00,0.000000000000000e+00
	3.075810780416536e-01,4.614920802414495e-01
	2.833741129546836e-01,4.251721517887953e-01
	-1.378641875894106e+00,-2.068502647215241e+00
	-1.378641875894106e+00,-2.068502647215241e+00
	-1.378641875894106e+00,-2.068502647215241e+00
	2.485831173572590e+00,0.0
	7.909432599744362e+00,0.0
	-2.158678469354429e+00,0.0

 10	1.584893192461114e+00,0.000000000000000e+00
	1.000000000000000e+00,0.000000000000000e+00
	3.275363473060864e-01,4.693146801053215e-01
	3.017588808428264e-01,4.323791045313756e-01
	-1.468085511464442e+00,-2.103565149309563e+00
	-1.468085511464442e+00,-2.103565149309563e+00
	-1.468085511464442e+00,-2.103565149309563e+00
	2.565202020574905e+00,0.0
	8.182431466664408e+00,0.0
	-2.180113867922958e+00,0.0

 11	1.659586907437562e+00,0.000000000000000e+00
	1.000000000000000e+00,0.000000000000000e+00
	3.481353453273779e-01,4.763791619029417e-01
	3.207367153351298e-01,4.388876039228258e-01
	-1.560414472187325e+00,-2.135229609518233e+00
	-1.560414472187325e+00,-2.135229609518233e+00
	-1.560414472187325e+00,-2.135229609518233e+00
	2.644635855911932e+00,0.0
	8.447317635891114e+00,0.0
	-2.201892313986763e+00,0.0

 12	1.737800828749376e+00,0.000000000000000e+00
	1.000000000000000e+00,0.000000000000000e+00
	3.693183458096763e-01,4.826202267090828e-01
	3.402525906601295e-01,4.446374901342685e-01
	-1.655361052477395e+00,-2.163203344569612e+00
	-1.655361052477395e+00,-2.163203344569612e+00
	-1.655361052477395e+00,-2.163203344569612e+00
	2.723906922788704e+00,0.0
	8.703845268853980e+00,0.0
	-2.223977372443331e+00,0.0

 13	1.819700858609985e+00,0.000000000000000e+00
	1.000000000000000e+00,0.000000000000000e+00
	3.910171162989455e-01,4.879781836686400e-01
	3.602436443320697e-01,4.495737700457354e-01
	-1.752619420392585e+00,-2.187218807719218e+00
	-1.752619420392585e+00,-2.187218807719218e+00
	-1.752619420392585e+00,-2.187218807719218e+00
	2.802784498597407e+00,0.0
	8.951794137382487e+00,0.0
	-2.246329725000057e+00,0.0

 14	1.905460717963249e+00,0.000000000000000e+00
	1.000000000000000e+00,0.000000000000000e+00
	4.131556008710227e-01,4.924002697965731e-01
	3.806398061106682e-01,4.536478331764180e-01
	-1.851848677583005e+00,-2.207039504365591e+00
	-1.851848677583005e+00,-2.207039504365591e+00
	-1.851848677583005e+00,-2.207039504365591e+00
	2.881035733637513e+00,0.0
	9.190972897821718e+00,0.0
	-2.268907459109375e+00,0.0

 15	1.995262314968881e+00,0.000000000000000e+00
	1.000000000000000e+00,0.000000000000000e+00
	4.356508433979645e-01,4.958418700136225e-01
	4.013646486053986e-01,4.568185757022486e-01
	-1.952676997561251e+00,-2.222465460502133e+00
	-1.952676997561251e+00,-2.222465460502133e+00
	-1.952676997561251e+00,-2.222465460502133e+00
	2.958428667372222e+00,0.0
	9.421222043562944e+00,0.0
	-2.291666415582312e+00,0.0

 16	2.089296130854041e+00,0.000000000000000e+00
	1.000000000000000e+00,0.000000000000000e+00
	4.584141335563451e-01,4.982675871139216e-01
	4.223364430916889e-01,4.590533862158980e-01
	-2.054706762348088e+00,-2.233338018532705e+00
	-2.054706762348088e+00,-2.233338018532705e+00
	-2.054706762348088e+00,-2.233338018532705e+00
	3.034735340068809e+00,0.0
	9.642416442923796e+00,0.0
	-2.314560589119222e+00,0.0

 17	2.187761623949555e+00,0.000000000000000e+00
	1.000000000000000e+00,0.000000000000000e+00
	4.813523458488585e-01,4.996521152588310e-01
	4.434693931500697e-01,4.603289504756957e-01
	-2.157520564243625e+00,-2.239543752451238e+00
	-2.157520564243625e+00,-2.239543752451238e+00
	-2.157520564243625e+00,-2.239543752451238e+00
	3.109734909003901e+00,0.0
	9.854467378840781e+00,0.0
	-2.337542573757033e+00,0.0

 18	2.290867652767775e+00,0.000000000000000e+00
	1.000000000000000e+00,0.000000000000000e+00
	5.043694310650608e-01,4.999808776215279e-01
	4.646750087473348e-01,4.606318388668973e-01
	-2.260687890862576e+00,-2.241017325896741e+00
	-2.260687890862576e+00,-2.241017325896741e+00
	-2.260687890862576e+00,-2.241017325896741e+00
	3.183216674193270e+00,0.0
	1.005732402095187e+01,0.0
	-2.360564043245808e+00,0.0

 19	2.398832919019493e+00,0.000000000000000e+00
	1.000000000000000e+00,0.000000000000000e+00
	5.273680107139270e-01,4.992503986305400e-01
	4.858635751855228e-01,4.599588493492479e-01
	-2.363772271708925e+00,-2.237743160624486e+00
	-2.363772271708925e+00,-2.237743160624486e+00
	-2.363772271708925e+00,-2.237743160624486e+00
	3.254982919374791e+00,0.0
	1.025097427872484e+01,0.0
	-2.383576254770564e+00,0.0

 20	2.511886431509583e+00,0.000000000000000e+00
	1.000000000000000e+00,0.000000000000000e+00
	5.502510187991647e-01,4.974683932551851e-01
	5.069456656677305e-01,4.583170897155598e-01
	-2.466338636953450e+00,-2.229755836703430e+00
	-2.466338636953450e+00,-2.229755836703430e+00
	-2.466338636953450e+00,-2.229755836703430e+00
	3.324851479907398e+00,0.0
	1.043544500543042e+01,0.0
	-2.406530563342501e+00,0.0

 21	2.630267991895385e+00,0.000000000000000e+00
	1.000000000000000e+00,0.000000000000000e+00
	5.729233324355594e-01,4.946535690888814e-01
	5.278336435831782e-01,4.557237952512822e-01
	-2.567960626191436e+00,-2.217139205411437e+00
	-2.567960626191436e+00,-2.217139205411437e+00
	-2.567960626191436e+00,-2.217139205411437e+00
	3.392657960042829e+00,0.0
	1.061080154566525e+01,0.0
	-2.429378933678925e+00,0.0

 22	2.754228703338170e+00,0.000000000000000e+00
	1.000000000000000e+00,0.000000000000000e+00
	5.952933334839212e-01,4.908351506209152e-01
	5.484431012397913e-01,4.522058904465968e-01
	-2.668227588013041e+00,-2.200024256923366e+00
	-2.668227588013041e+00,-2.200024256923366e+00
	-2.668227588013041e+00,-2.200024256923366e+00
	3.458257537038718e+00,0.0
	1.077714664255257e+01,0.0
	-2.452074436510306e+00,0.0

 23	2.884031503126609e+00,0.000000000000000e+00
	1.000000000000000e+00,0.000000000000000e+00
	6.172743475512200e-01,4.860521480117452e-01
	5.686941856134593e-01,4.477993153199008e-01
	-2.766751029899464e+00,-2.178585842811496e+00
	-2.766751029899464e+00,-2.178585842811496e+00
	-2.766751029899464e+00,-2.178585842811496e+00
	3.521526307717781e+00,0.0
	1.093461874313146e+01,0.0
	-2.474571716987388e+00,0.0

 24	3.019951720402020e+00,0.000000000000000e+00
	1.000000000000000e+00,0.000000000000000e+00
	6.387859139805314e-01,4.803524039471935e-01
	5.885127683883929e-01,4.425481472856082e-01
	-2.863170310579392e+00,-2.153038403848713e+00
	-2.863170310579392e+00,-2.153038403848713e+00
	-2.863170310579392e+00,-2.153038403848713e+00
	3.582362153081498e+00,0.0
	1.108338976054832e+01,0.0
	-2.496827424156573e+00,0.0

 25	3.162277660168384e+00,0.000000000000000e+00
	1.000000000000000e+00,0.000000000000000e+00
	6.597548501902961e-01,4.737914609690278e-01
	6.078314265317287e-01,4.365035576270469e-01
	-2.957157410617585e+00,-2.123630893150653e+00
	-2.957157410617585e+00,-2.123630893150653e+00
	-2.957157410617585e+00,-2.123630893150653e+00
	3.640685117050682e+00,0.0
	1.122366236834654e+01,0.0
	-2.518800592231471e+00,0.0

 26	3.311311214825916e+00,0.000000000000000e+00
	1.000000000000000e+00,0.000000000000000e+00
	6.801160850755115e-01,4.664312975444936e-01
	6.265902101051399e-01,4.297226470386912e-01
	-3.048420667890606e+00,-2.090641110978119e+00
	-3.048420667890606e+00,-2.090641110978119e+00
	-3.048420667890606e+00,-2.090641110978119e+00
	3.696437314947249e+00,0.0
	1.135566691456176e+01,0.0
	-2.540452966488044e+00,0.0

 27	3.467368504525322e+00,0.000000000000000e+00
	1.000000000000000e+00,0.000000000000000e+00
	6.998132482272971e-01,4.583389838208347e-01
	6.447371851121820e-01,4.222672071742622e-01
	-3.136707418591557e+00,-2.054369679552065e+00
	-3.136707418591557e+00,-2.054369679552065e+00
	-3.136707418591557e+00,-2.054369679552065e+00
	3.749582404763251e+00,0.0
	1.147965805105726e+01,0.0
	-2.561749268907526e+00,0.0

 28	3.630780547701019e+00,0.000000000000000e+00
	1.000000000000000e+00,0.000000000000000e+00
	7.187990135494838e-01,4.495853075828387e-01
	6.622287500718831e-01,4.142024547429080e-01
	-3.221805537389244e+00,-2.015133884310745e+00
	-3.221805537389244e+00,-2.015133884310745e+00
	-3.221805537389244e+00,-2.015133884310745e+00
	3.800104668617604e+00,0.0
	1.159591117642580e+01,0.0
	-2.582657401038876e+00,0.0

 29	3.801893963205618e+00,0.000000000000000e+00
	1.000000000000000e+00,0.000000000000000e+00
	7.370352066478790e-01,4.402434177204870e-01
	6.790297349563572e-01,4.055957817374239e-01
	-3.303543918769346e+00,-1.973261593651966e+00
	-3.303543918769346e+00,-1.973261593651966e+00
	-3.303543918769346e+00,-1.973261593651966e+00
	3.848007762494747e+00,0.0
	1.170471878917223e+01,0.0
	-2.603148583815066e+00,0.0

 30	3.981071705534979e+00,0.000000000000000e+00
	1.000000000000000e+00,0.000000000000000e+00
	7.544926945104987e-01,4.303875270454381e-01
	6.951132995533219e-01,3.965155603404873e-01
	-3.381791982559816e+00,-1.929085444689598e+00
	-3.381791982559816e+00,-1.929085444689598e+00
	-3.381791982559816e+00,-1.929085444689598e+00
	3.893313199091374e+00,0.0
	1.180638684223304e+01,0.0
	-2.623197436117369e+00,0.0

 31	4.168693834703362e+00,0.000000000000000e+00
	1.000000000000000e+00,0.000000000000000e+00
	7.711510830737065e-01,4.200917092133652e-01
	7.104606548341111e-01,3.870300345305143e-01
	-3.456458318357827e+00,-1.882937450809838e+00
	-3.456458318357827e+00,-1.882937450809838e+00
	-3.456458318357827e+00,-1.882937450809838e+00
	3.936058631449393e+00,0.0
	1.190123118098530e+01,0.0
	-2.642781995650630e+00,0.0

 32	4.365158322401668e+00,0.000000000000000e+00
	1.000000000000000e+00,0.000000000000000e+00
	7.869982530905225e-01,4.094288164987614e-01
	7.250606353496524e-01,3.772063230287653e-01
	-3.527488605196866e+00,-1.835144150915190e+00
	-3.527488605196866e+00,-1.835144150915190e+00
	-3.527488605196866e+00,-1.835144150915190e+00
	3.976296004377940e+00,0.0
	1.198957413564712e+01,0.0
	-2.661883687110681e+00,0.0

 33	4.570881896148760e+00,0.000000000000000e+00
	1.000000000000000e+00,0.000000000000000e+00
	8.020297673027822e-01,3.984695368820622e-01
	7.389091530588201e-01,3.671095505947334e-01
	-3.594862954370318e+00,-1.786022383094408e+00
	-3.594862954370318e+00,-1.786022383094408e+00
	-3.594862954370318e+00,-1.786022383094408e+00
	4.014089636968552e+00,0.0
	1.207174132618908e+01,0.0
	-2.680487243666245e+00,0.0

 34	4.786300923226394e+00,0.000000000000000e+00
	1.000000000000000e+00,0.000000000000000e+00
	8.162481824550335e-01,3.872816009130250e-01
	7.520085634875887e-01,3.568021173102393e-01
	-3.658592825734768e+00,-1.735875729619875e+00
	-3.658592825734768e+00,-1.735875729619875e+00
	-3.658592825734768e+00,-1.735875729619875e+00
	4.049514293492646e+00,0.0
	1.214805872451206e+01,0.0
	-2.698580588441108e+00,0.0

 35	5.011872336272734e+00,0.000000000000000e+00
	1.000000000000000e+00,0.000000000000000e+00
	8.296622984857185e-01,3.759291415530946e-01
	7.643669740096811e-01,3.463431088028973e-01
	-3.718717662430896e+00,-1.684991647629393e+00
	-3.718717662430896e+00,-1.684991647629393e+00
	-3.718717662430896e+00,-1.684991647629393e+00
	4.082653292340206e+00,0.0
	1.221885000543128e+01,0.0
	-2.716154682993969e+00,0.0

 36	5.248074602497739e+00,0.000000000000000e+00
	1.000000000000000e+00,0.000000000000000e+00
	8.422863746686268e-01,3.644722039812259e-01
	7.759975216785452e-01,3.357878446307526e-01
	-3.775301377466364e+00,-1.633639271974022e+00
	-3.775301377466364e+00,-1.633639271974022e+00
	-3.775301377466364e+00,-1.633639271974022e+00
	4.113596694090858e+00,0.0
	1.228443420552708e+01,0.0
	-2.733203349793101e+00,0.0

 37	5.495408738576259e+00,0.000000000000000e+00
	1.000000000000000e+00,0.000000000000000e+00
	8.541393389577795e-01,3.529663973443607e-01
	7.869176447976511e-01,3.251875574403735e-01
	-3.828428809837980e+00,-1.582067854292496e+00
	-3.828428809837980e+00,-1.582067854292496e+00
	-3.828428809837980e+00,-1.582067854292496e+00
	4.142439600957764e+00,0.0
	1.234512369771410e+01,0.0
	-2.749723075423860e+00,0.0

 38	5.754399373371584e+00,0.000000000000000e+00
	1.000000000000000e+00,0.000000000000000e+00
	8.652440126990234e-01,3.414626766966583e-01
	7.971483686481280e-01,3.145891920677016e-01
	-3.878202249528406e+00,-1.530505785617454e+00
	-3.878202249528406e+00,-1.530505785617454e+00
	-3.878202249528406e+00,-1.530505785617454e+00
	4.169280591187848e+00,0.0
	1.240122247966156e+01,0.0
	-2.765712800807271e+00,0.0

 39	6.025595860743593e+00,0.000000000000000e+00
	1.000000000000000e+00,0.000000000000000e+00
	8.756263685536453e-01,3.300072408557700e-01
	8.067136218145954e-01,3.040353114331488e-01
	-3.924738111366126e+00,-1.479160138545900e+00
	-3.924738111366126e+00,-1.479160138545900e+00
	-3.924738111366126e+00,-1.479160138545900e+00
	4.194220303974610e+00,0.0
	1.245302476620944e+01,0.0
	-2.781173704103799e+00,0.0

 40	6.309573444801949e+00,0.000000000000000e+00
	1.000000000000000e+00,0.000000000000000e+00
	8.853148352160582e-01,3.186415304924247e-01
	8.156395956223224e-01,2.935640947815336e-01
	-3.968163818626893e+00,-1.428216658676380e+00
	-3.968163818626893e+00,-1.428216658676380e+00
	-3.968163818626893e+00,-1.428216658676380e+00
	4.217360183287679e+00,0.0
	1.250081386964213e+01,0.0
	-2.796108981282854e+00,0.0

 41	6.606934480075978e+00,0.000000000000000e+00
	1.000000000000000e+00,0.000000000000000e+00
	8.943396585125715e-01,3.074023103003658e-01
	8.239541555182205e-01,2.832094133851547e-01
	-4.008614939347062e+00,-1.377840132911710e+00
	-4.008614939347062e+00,-1.377840132911710e+00
	-4.008614939347062e+00,-1.377840132911710e+00
	4.238801382916946e+00,0.0
	1.254486134705657e+01,0.0
	-2.810523628602287e+00,0.0

 42	6.918309709189384e+00,0.000000000000000e+00
	1.000000000000000e+00,0.000000000000000e+00
	9.027323248882101e-01,2.963218193844991e-01
	8.316863099298749e-01,2.730009690962284e-01
	-4.046232602271983e+00,-1.328175063529386e+00
	-4.046232602271983e+00,-1.328175063529386e+00
	-4.046232602271983e+00,-1.328175063529386e+00
	4.258643830032043e+00,0.0
	1.258542639095639e+01,0.0
	-2.824424230502268e+00,0.0

 43	7.244359600749922e+00,0.000000000000000e+00
	1.000000000000000e+00,0.000000000000000e+00
	9.105250502096994e-01,2.854279748705449e-01
	8.388657393002910e-01,2.629644819322390e-01
	-4.081161205565587e+00,-1.279346580802023e+00
	-4.081161205565587e+00,-1.279346580802023e+00
	-4.081161205565587e+00,-1.279346580802023e+00
	4.276985440660674e+00,0.0
	1.262275543744162e+01,0.0
	-2.837818755705610e+00,0.0

 44	7.585775750291861e+00,0.000000000000000e+00
	1.000000000000000e+00,0.000000000000000e+00
	9.177503342699386e-01,2.747446150059220e-01
	8.455223856533498e-01,2.531219140445196e-01
	-4.113546420007743e+00,-1.231461532625681e+00
	-4.113546420007743e+00,-1.231461532625681e+00
	-4.113546420007743e+00,-1.231461532625681e+00
	4.293921477611731e+00,0.0
	1.265708196571332e+01,0.0
	-2.850716363653899e+00,0.0

 45	7.943282347242840e+00,0.000000000000000e+00
	1.000000000000000e+00,0.000000000000000e+00
	9.244405793678310e-01,2.642917695355523e-01
	8.516861011918196e-01,2.434917188151864e-01
	-4.143533479389553e+00,-1.184609696399676e+00
	-4.143533479389553e+00,-1.184609696399676e+00
	-4.143533479389553e+00,-1.184609696399676e+00
	4.309544039411388e+00,0.0
	1.268862646287682e+01,0.0
	-2.863127222810660e+00,0.0

 46	8.317637711026737e+00,0.000000000000000e+00
	1.000000000000000e+00,0.000000000000000e+00
	9.306277698238855e-01,2.540859467695575e-01
	8.573863530354288e-01,2.340891053322949e-01
	-4.171265744037103e+00,-1.138865065723438e+00
	-4.171265744037103e+00,-1.138865065723438e+00
	-4.171265744037103e+00,-1.138865065723438e+00
	4.323941667657262e+00,0.0
	1.271759652900451e+01,0.0
	-2.875062341837524e+00,0.0

 47	8.709635899560835e+00,0.000000000000000e+00
	1.000000000000000e+00,0.000000000000000e+00
	9.363432082246171e-01,2.441404284107936e-01
	8.626519802231166e-01,2.249263100141282e-01
	-4.196883518604117e+00,-1.094287171874159e+00
	-4.196883518604117e+00,-1.094287171874159e+00
	-4.196883518604117e+00,-1.094287171874159e+00
	4.337199059676558e+00,0.0
	1.274418709889041e+01,0.0
	-2.886533414200290e+00,0.0

