Title: * sky130 bjt 2-stage ppa sweep ac: ce1 -> ce2 -> output rebias -> ideal opamp follower -> two rc poles
Date: Sat May 23 01:13:31  2026
Command: ngspice-46, Build Mar 29 2026   15:02:07
Plotname: AC Analysis
Flags: complex
No. Variables: 11
No. Points: 721
Variables:
	0	frequency	frequency grid=3
	1	v(vin)	voltage
	2	v(b1_collector)	voltage
	3	v(b2_collector)	voltage
	4	v(vout_drv)	voltage
	5	v(vfilt1)	voltage
	6	v(vout_final)	voltage
	7	gain	notype
	8	gain_vv	notype
	9	gain_db	decibel
	10	phase_deg	phase
Values:
 0	1.000000000000000e-03,0.000000000000000e+00
	1.000000000000000e+00,0.000000000000000e+00
	-1.734794914810778e-07,-1.081244141190909e-03
	-1.169088876262338e-06,3.363595049437540e-10
	-4.181205957685761e-13,-5.509199567242074e-10
	-4.181437880341646e-13,-5.509199567066045e-10
	-4.181555572435676e-13,-5.509199566976716e-10
	-4.181555572435676e-13,-5.509199566976716e-10
	5.509201153904570e-10,0.0
	-1.851782274044635e+02,0.0
	-1.571555339918056e+00,0.0

 1	1.029200527194428e-03,0.000000000000000e+00
	1.000000000000000e+00,0.000000000000000e+00
	-1.837587973131119e-07,-1.112817038442620e-03
	-1.238361742425780e-06,3.666939150231363e-10
	-4.691390167201699e-13,-6.006043783013370e-10
	-4.691650388695044e-13,-6.006043782810092e-10
	-4.691782441393159e-13,-6.006043782706936e-10
	-4.691782441393159e-13,-6.006043782706936e-10
	6.006045615262601e-10,0.0
	-1.844282274741040e+02,0.0
	-1.571577503499025e+00,0.0

 2	1.059253725177289e-03,0.000000000000000e+00
	1.000000000000000e+00,0.000000000000000e+00
	-1.946471902738213e-07,-1.145311880786313e-03
	-1.311739283375470e-06,3.997640183021134e-10
	-5.263826250564893e-13,-6.547695618862247e-10
	-5.264118223874875e-13,-6.547695618627506e-10
	-5.264266389435163e-13,-6.547695618508382e-10
	-5.264266389435163e-13,-6.547695618508382e-10
	6.547697734710612e-10,0.0
	-1.836782275478690e+02,0.0
	-1.571600314268030e+00,0.0

 3	1.090184492385128e-03,0.000000000000000e+00
	1.000000000000000e+00,0.000000000000000e+00
	-2.061807610402668e-07,-1.178755589490591e-03
	-1.389464716310928e-06,4.358165318558586e-10
	-5.906110082405931e-13,-7.138196023648898e-10
	-5.906437681838672e-13,-7.138196023377824e-10
	-5.906603926326928e-13,-7.138196023240263e-10
	-5.906603926326928e-13,-7.138196023240263e-10
	7.138198466992428e-10,0.0
	-1.829282276260062e+02,0.0
	-1.571623791123281e+00,0.0

 4	1.122018454301964e-03,0.000000000000000e+00
	1.000000000000000e+00,0.000000000000000e+00
	-2.183977387961976e-07,-1.213175871938475e-03
	-1.471795669948633e-06,4.751204228098266e-10
	-6.626764373713697e-13,-7.781950376599661e-10
	-6.627131946311893e-13,-7.781950376286629e-10
	-6.627318475690081e-13,-7.781950376127776e-10
	-6.627318475690081e-13,-7.781950376127776e-10
	7.781953198128694e-10,0.0
	-1.821782277087734e+02,0.0
	-1.571647953514829e+00,0.0

 5	1.154781984689459e-03,0.000000000000000e+00
	1.000000000000000e+00,0.000000000000000e+00
	-2.313386179463044e-07,-1.248601244581744e-03
	-1.559005038456505e-06,5.179689149482935e-10
	-7.435351762873369e-13,-8.483761353185638e-10
	-7.435764186098815e-13,-8.483761352824155e-10
	-7.435973475496803e-13,-8.483761352640714e-10
	-7.435973475496803e-13,-8.483761352640714e-10
	8.483764611436465e-10,0.0
	-1.814282277964439e+02,0.0
	-1.571672821460670e+00,0.0

 6	1.188502227437019e-03,0.000000000000000e+00
	1.000000000000000e+00,0.000000000000000e+00
	-2.450462923389763e-07,-1.285061056566125e-03
	-1.651381885986942e-06,5.646816762879195e-10
	-8.342601705879319e-13,-9.248864754979609e-10
	-8.343064452333775e-13,-9.248864754562174e-10
	-8.343299278892748e-13,-9.248864754350339e-10
	-8.343299278892748e-13,-9.248864754350339e-10
	9.248868517548880e-10,0.0
	-1.806782278893096e+02,0.0
	-1.571698415563338e+00,0.0

 7	1.223207119049932e-03,0.000000000000000e+00
	1.000000000000000e+00,0.000000000000000e+00
	-2.595661974421556e-07,-1.322585514046175e-03
	-1.749232404808127e-06,6.156072039367488e-10
	-9.360552849479514e-13,-1.008296857080277e-09
	-9.361072059522678e-13,-1.008296857032072e-09
	-9.361335539246071e-13,-1.008296857007610e-09
	-9.361335539246071e-13,-1.008296857007610e-09
	1.008297291574988e-09,0.0
	-1.799282279876784e+02,0.0
	-1.571724757026967e+00,0.0

 8	1.258925411794168e-03,0.000000000000000e+00
	1.000000000000000e+00,0.000000000000000e+00
	-2.749464609437659e-07,-1.361205705210508e-03
	-1.852880930207179e-06,6.711254240303288e-10
	-1.050271277644227e-12,-1.099229556055909e-09
	-1.050329533967049e-12,-1.099229556000243e-09
	-1.050359096877138e-12,-1.099229555971994e-09
	-1.050359096877138e-12,-1.099229555971994e-09
	1.099230057802561e-09,0.0
	-1.791782280918748e+02,0.0
	-1.571751867674862e+00,0.0

 9	1.295686697517020e-03,0.000000000000000e+00
	1.000000000000000e+00,0.000000000000000e+00
	-2.912380622755244e-07,-1.400953626037021e-03
	-1.962671015528694e-06,7.316505261408834e-10
	-1.178423724265337e-12,-1.198362967944304e-09
	-1.178489088932025e-12,-1.198362967880022e-09
	-1.178522259061388e-12,-1.198362967847401e-09
	-1.178522259061388e-12,-1.198362967847401e-09
	1.198363547352283e-09,0.0
	-1.784282282022469e+02,0.0
	-1.571779769967576e+00,0.0

 10	1.333521432163325e-03,0.000000000000000e+00
	1.000000000000000e+00,0.000000000000000e+00
	-3.084950015894546e-07,-1.441862206801196e-03
	-2.078966570916377e-06,7.976340533073865e-10
	-1.322213128442888e-12,-1.306436668888663e-09
	-1.322286468802083e-12,-1.306436668814432e-09
	-1.322323686297793e-12,-1.306436668776762e-09
	-1.322323686297793e-12,-1.306436668776762e-09
	1.306437337978540e-09,0.0
	-1.776782283191583e+02,0.0
	-1.571808487021520e+00,0.0

 11	1.372460961007563e-03,0.000000000000000e+00
	1.000000000000000e+00,0.000000000000000e+00
	-3.267744787466131e-07,-1.483965339357680e-03
	-2.202153069525563e-06,8.695682707370254e-10
	-1.483547486456734e-12,-1.424256933178019e-09
	-1.483629775689524e-12,-1.424256933092298e-09
	-1.483671534404671e-12,-1.424256933048798e-09
	-1.483671534404671e-12,-1.424256933048798e-09
	1.424257705830932e-09,0.0
	-1.769282284429963e+02,0.0
	-1.571838042628113e+00,0.0

 12	1.412537544622755e-03,0.000000000000000e+00
	1.000000000000000e+00,0.000000000000000e+00
	-3.461370829115403e-07,-1.527297905218405e-03
	-2.332638825209440e-06,9.479898383110590e-10
	-1.664567605133575e-12,-1.552702748361858e-09
	-1.664659935166994e-12,-1.552702748262869e-09
	-1.664706789213802e-12,-1.552702748212635e-09
	-1.664706789213802e-12,-1.552702748212635e-09
	1.552703640607493e-09,0.0
	-1.761782285741733e+02,0.0
	-1.571868461273492e+00,0.0

 13	1.453784385607663e-03,0.000000000000000e+00
	1.000000000000000e+00,0.000000000000000e+00
	-3.666469933811353e-07,-1.571895804451333e-03
	-2.470856345914548e-06,1.033483814295233e-09
	-1.867675508992180e-12,-1.692732372832411e-09
	-1.867779104988377e-12,-1.692732372718100e-09
	-1.867831676090923e-12,-1.692732372660091e-09
	-1.867831676090923e-12,-1.692732372660091e-09
	1.692733403181562e-09,0.0
	-1.754282287131215e+02,0.0
	-1.571899768158800e+00,0.0

 14	1.496235656094435e-03,0.000000000000000e+00
	1.000000000000000e+00,0.000000000000000e+00
	-3.883721923130972e-07,-1.617795985422427e-03
	-2.617263767265633e-06,1.126688020119479e-09
	-2.095566313573350e-12,-1.845390484792268e-09
	-2.095682550186713e-12,-1.845390484660264e-09
	-2.095741535930806e-12,-1.845390484593276e-09
	-2.095741535930806e-12,-1.845390484593276e-09
	1.845391674620863e-09,0.0
	-1.746782288603030e+02,0.0
	-1.571931989221059e+00,0.0

 15	1.539926526059493e-03,0.000000000000000e+00
	1.000000000000000e+00,0.000000000000000e+00
	-4.113846900592687e-07,-1.665036475405770e-03
	-2.772346371098215e-06,1.228297798794941e-09
	-2.351263987898155e-12,-2.011815975944954e-09
	-2.351394407516089e-12,-2.011815975792519e-09
	-2.351460590605785e-12,-2.011815975715162e-09
	-2.351460590605785e-12,-2.011815975715162e-09
	2.011817349937529e-09,0.0
	-1.739282290162088e+02,0.0
	-1.571965151154666e+00,0.0

 16	1.584893192461115e-03,0.000000000000000e+00
	1.000000000000000e+00,0.000000000000000e+00
	-4.357607638513321e-07,-1.713656412089127e-03
	-2.936618193972722e-06,1.339071202467446e-09
	-2.638161480598532e-12,-2.193250448052369e-09
	-2.638307813807953e-12,-2.193250447876339e-09
	-2.638382072451537e-12,-2.193250447787009e-09
	-2.638382072451537e-12,-2.193250447787009e-09
	2.193252034714176e-09,0.0
	-1.731782291813487e+02,0.0
	-1.571999281433500e+00,0.0

 17	1.631172909227840e-03,0.000000000000000e+00
	1.000000000000000e+00,0.000000000000000e+00
	-4.615812106285636e-07,-1.763696075996835e-03
	-3.110623730987605e-06,1.459834647801288e-09
	-2.960065742153512e-12,-2.391047475735397e-09
	-2.960229930704612e-12,-2.391047475532121e-09
	-2.960313250267856e-12,-2.391047475428965e-09
	-2.960313250267856e-12,-2.391047475428965e-09
	2.391049307983791e-09,0.0
	-1.724282293562753e+02,0.0
	-1.572034408333687e+00,0.0

 18	1.678804018122562e-03,0.000000000000000e+00
	1.000000000000000e+00,0.000000000000000e+00
	-4.889316148475861e-07,-1.815196923862297e-03
	-3.294939740562494e-06,1.591489081397824e-09
	-3.321248240666826e-12,-2.606682704637664e-09
	-3.321432463238851e-12,-2.606682704402924e-09
	-3.321525949320175e-12,-2.606682704283801e-09
	-3.321525949320175e-12,-2.606682704283801e-09
	2.606684820485005e-09,0.0
	-1.716782295415670e+02,0.0
	-1.572070560957026e+00,0.0

 19	1.727825980507865e-03,0.000000000000000e+00
	1.000000000000000e+00,0.000000000000000e+00
	-5.179026321596939e-07,-1.868201622972079e-03
	-3.490177156152148e-06,1.735016701233533e-09
	-3.726501641475508e-12,-2.841764860271943e-09
	-3.726708342586405e-12,-2.841764860000871e-09
	-3.726813235687454e-12,-2.841764859863309e-09
	-3.726813235687454e-12,-2.841764859863309e-09
	2.841767303614219e-09,0.0
	-1.709282297378385e+02,0.0
	-1.572107769255096e+00,0.0

 20	1.778279410038925e-03,0.000000000000000e+00
	1.000000000000000e+00,0.000000000000000e+00
	-5.485902898983270e-07,-1.922754086515637e-03
	-3.696983111240185e-06,1.891488284269701e-09
	-4.181203402700502e-12,-3.098047749687012e-09
	-4.181435325144083e-12,-3.098047749373981e-09
	-4.181553017130376e-12,-3.098047749215128e-09
	-4.181553017130376e-12,-3.098047749215128e-09
	3.098050571214510e-09,0.0
	-1.701782299457380e+02,0.0
	-1.572146064054074e+00,0.0

 21	1.830206106311058e-03,0.000000000000000e+00
	1.000000000000000e+00,0.000000000000000e+00
	-5.810963053703901e-07,-1.978899509965101e-03
	-3.916043084315817e-06,2.062071174894269e-09
	-4.691387130596924e-12,-3.377443345483310e-09
	-4.691647351837947e-12,-3.377443345121828e-09
	-4.691779404408014e-12,-3.377443344938387e-09
	-4.691779404408014e-12,-3.377443344938387e-09
	3.377446603732260e-09,0.0
	-1.694282301659572e+02,0.0
	-1.572185477080265e+00,0.0

 22	1.883649089489803e-03,0.000000000000000e+00
	1.000000000000000e+00,0.000000000000000e+00
	-6.155284230080907e-07,-2.036684408518211e-03
	-4.148083170954345e-06,2.248037993801503e-09
	-5.263822641553202e-12,-3.682036049796097e-09
	-5.264114614563298e-12,-3.682036049378665e-09
	-5.264262779971402e-12,-3.682036049166830e-09
	-5.264262779971402e-12,-3.682036049166830e-09
	3.682039812363073e-09,0.0
	-1.686782303992250e+02,0.0
	-1.572226040986397e+00,0.0

 23	1.938652635952210e-03,0.000000000000000e+00
	1.000000000000000e+00,0.000000000000000e+00
	-6.520007714981853e-07,-2.096156655634829e-03
	-4.393872490520188e-06,2.450776132271717e-09
	-5.906105793088478e-12,-4.014098244648426e-09
	-5.906433392164805e-12,-4.014098244166383e-09
	-5.906599636472191e-12,-4.014098243921761e-09
	-5.906599636472191e-12,-4.014098243921761e-09
	4.014102589592725e-09,0.0
	-1.679282306463146e+02,0.0
	-1.572267789378659e+00,0.0

 24	1.995262314968882e-03,0.000000000000000e+00
	1.000000000000000e+00,0.000000000000000e+00
	-6.906342420720119e-07,-2.157365522697803e-03
	-4.654225735476510e-06,2.671798102688276e-09
	-6.626759275849913e-12,-4.376107244688108e-09
	-6.627126848024510e-12,-4.376107244131453e-09
	-6.627313377187733e-12,-4.376107243848968e-09
	-6.627313377187733e-12,-4.376107243848968e-09
	4.376112262151191e-09,0.0
	-1.671782309080473e+02,0.0
	-1.572310756844554e+00,0.0

 25	2.053525026457149e-03,0.000000000000000e+00
	1.000000000000000e+00,0.000000000000000e+00
	-7.315568892110792e-07,-2.220361719832802e-03
	-4.930005871754058e-06,2.912752822511274e-09
	-7.435345704049809e-12,-4.770763778782080e-09
	-7.435758126771810e-12,-4.770763778139266e-09
	-7.435967415914310e-12,-4.770763777813057e-09
	-7.435967415914310e-12,-4.770763777813057e-09
	4.770769572857666e-09,0.0
	-1.664282311852881e+02,0.0
	-1.572354978981546e+00,0.0

 26	2.113489039836650e-03,0.000000000000000e+00
	1.000000000000000e+00,0.000000000000000e+00
	-7.749043550958830e-07,-2.285197437920245e-03
	-5.222126999119010e-06,3.175437915885395e-09
	-8.342594504955228e-12,-5.201012138334144e-09
	-8.343057250811336e-12,-5.201012137591834e-09
	-8.343292077066664e-12,-5.201012137215133e-09
	-8.343292077066664e-12,-5.201012137215133e-09
	5.201018829227771e-09,0.0
	-1.656782314789547e+02,0.0
	-1.572400492426551e+00,0.0

 27	2.175204034019526e-03,0.000000000000000e+00
	1.000000000000000e+00,0.000000000000000e+00
	-8.208203192037709e-07,-2.351926391831787e-03
	-5.531557381029301e-06,3.461813124660299e-09
	-9.360544291168688e-12,-5.670062142643139e-09
	-9.361063500500716e-12,-5.670062141785931e-09
	-9.361326979863226e-12,-5.670062141350924e-09
	-9.361326979863226e-12,-5.670062141350924e-09
	5.670069869165975e-09,0.0
	-1.649282317900210e+02,0.0
	-1.572447334886290e+00,0.0

 28	2.238721138568343e-03,0.000000000000000e+00
	1.000000000000000e+00,0.000000000000000e+00
	-8.694569745480728e-07,-2.420603864931543e-03
	-5.859322654017811e-06,3.774014928874158e-09
	-1.050270260486814e-11,-6.181413085162141e-09
	-1.050328516725117e-11,-6.181413084172253e-09
	-1.050358079592315e-11,-6.181413083669916e-09
	-1.050358079592315e-11,-6.181413083669916e-09
	6.181422007610802e-09,0.0
	-1.641782321195228e+02,0.0
	-1.572495545168527e+00,0.0

 29	2.304092976055850e-03,0.000000000000000e+00
	1.000000000000000e+00,0.000000000000000e+00
	-9.209755321368913e-07,-2.491286754877585e-03
	-6.206509227254812e-06,4.114372485786120e-09
	-1.178422515371918e-11,-6.738879839316209e-09
	-1.178487879938154e-11,-6.738879838173102e-09
	-1.178521050016542e-11,-6.738879837593011e-09
	-1.178521050016542e-11,-6.738879837593011e-09
	6.738890142798304e-09,0.0
	-1.634282324685457e+02,0.0
	-1.572545163214219e+00,0.0

 30	2.371373705661660e-03,0.000000000000000e+00
	1.000000000000000e+00,0.000000000000000e+00
	-9.755467553200037e-07,-2.564033620756200e-03
	-6.574267883518192e-06,4.485425006336042e-09
	-1.322211691670397e-11,-7.346621318589354e-09
	-1.322285031910204e-11,-7.346621317269316e-09
	-1.322322249345329e-11,-7.346621316599437e-09
	-1.322322249345329e-11,-7.346621316599437e-09
	7.346633216863787e-09,0.0
	-1.626782328382517e+02,0.0
	-1.572596230130601e+00,0.0

 31	2.440619068041985e-03,0.000000000000000e+00
	1.000000000000000e+00,0.000000000000000e+00
	-1.033351525801407e-06,-2.638904731598852e-03
	-6.963817593563927e-06,4.889940698715895e-09
	-1.483545778849887e-11,-8.009171503255071e-09
	-1.483628067940787e-11,-8.009171501730717e-09
	-1.483669826583928e-11,-8.009171500957151e-09
	-1.483669826583928e-11,-8.009171500957151e-09
	8.009185243166727e-09,0.0
	-1.619282332298610e+02,0.0
	-1.572648788225244e+00,0.0

 32	2.511886431509585e-03,0.000000000000000e+00
	1.000000000000000e+00,0.000000000000000e+00
	-1.094581443185846e-06,-2.715962116308426e-03
	-7.376449556474786e-06,5.330937420321359e-09
	-1.664565575638510e-11,-8.731473265141683e-09
	-1.664657905503291e-11,-8.731473263381388e-09
	-1.664704759464521e-11,-8.731473262488091e-09
	-1.664704759464521e-11,-8.731473262488091e-09
	8.731489131742537e-09,0.0
	-1.611782336446809e+02,0.0
	-1.572702881041105e+00,0.0

 33	2.585234839562196e-03,0.000000000000000e+00
	1.000000000000000e+00,0.000000000000000e+00
	-1.159439460055566e-06,-2.795269615051642e-03
	-7.813531479460839e-06,5.811705192229972e-09
	-1.867673096933453e-11,-9.518915242858306e-09
	-1.867776692729224e-11,-9.518915240825547e-09
	-1.867829263730060e-11,-9.518915239793985e-09
	-1.867829263730060e-11,-9.518915239793985e-09
	9.518933565321172e-09,0.0
	-1.604282340840736e+02,0.0
	-1.572758553392593e+00,0.0

 34	2.660725059798815e-03,0.000000000000000e+00
	1.000000000000000e+00,0.000000000000000e+00
	-1.228140554671993e-06,-2.876892932143185e-03
	-8.276512111184744e-06,6.335830744068155e-09
	-2.095563446836635e-11,-1.037737204244142e-08
	-2.095679683211791e-11,-1.037737204009403e-08
	-2.095738668835001e-11,-1.037737203890280e-08
	-2.095738668835001e-11,-1.037737203890280e-08
	1.037739320088906e-08,0.0
	-1.596782345495034e+02,0.0
	-1.572815851402702e+00,0.0

 35	2.738419634264367e-03,0.000000000000000e+00
	1.000000000000000e+00,0.000000000000000e+00
	-1.300912443541588e-06,-2.960899690480782e-03
	-8.766926043759677e-06,6.907224272494851e-09
	-2.351260580776049e-11,-1.131324806346037e-08
	-2.351391000110873e-11,-1.131324806074964e-08
	-2.351457183056899e-11,-1.131324805937403e-08
	-2.351457183056899e-11,-1.131324805937403e-08
	1.131327249685159e-08,0.0
	-1.589282350425138e+02,0.0
	-1.572874822541214e+00,0.0

 36	2.818382931264460e-03,0.000000000000000e+00
	1.000000000000000e+00,0.000000000000000e+00
	-1.377996336202430e-06,-3.047359487567401e-03
	-9.286398799253310e-06,7.530148612853591e-09
	-2.638157431226284e-11,-1.233352527742713e-08
	-2.638303764099227e-11,-1.233352527429683e-08
	-2.638378022572059e-11,-1.233352527270829e-08
	-2.638378022572059e-11,-1.233352527270829e-08
	1.233355349266355e-08,0.0
	-1.581782355647363e+02,0.0
	-1.572935515664027e+00,0.0

 37	2.900681198693160e-03,0.000000000000000e+00
	1.000000000000000e+00,0.000000000000000e+00
	-1.459647734732792e-06,-3.136343953167382e-03
	-9.836652217578133e-06,8.209251041641749e-09
	-2.960060929466538e-11,-1.344581531495694e-08
	-2.960225117617735e-11,-1.344581531134213e-08
	-2.960308436978039e-11,-1.344581530950772e-08
	-2.960308436978039e-11,-1.344581530950772e-08
	1.344584789739927e-08,0.0
	-1.574282361179011e+02,0.0
	-1.572997981053626e+00,0.0

 38	2.985382618917966e-03,0.000000000000000e+00
	1.000000000000000e+00,0.000000000000000e+00
	-1.546137280636199e-06,-3.227926808649389e-03
	-1.041951016363448e-05,8.949597947067440e-09
	-3.321242520778754e-11,-1.465841625025558e-08
	-3.321426742875493e-11,-1.465841624608126e-08
	-3.321520228715623e-11,-1.465841624396292e-08
	-3.321520228715623e-11,-1.465841624396292e-08
	1.465845387586764e-08,0.0
	-1.566782367038434e+02,0.0
	-1.573062270460740e+00,0.0

 39	3.072557365267454e-03,0.000000000000000e+00
	1.000000000000000e+00,0.000000000000000e+00
	-1.637751651903554e-06,-3.322183928057887e-03
	-1.103690457261883e-05,9.756712626336718e-09
	-3.726494843376020e-11,-1.598037450653448e-08
	-3.726701543922037e-11,-1.598037450171405e-08
	-3.726806436736427e-11,-1.598037449926783e-08
	-3.726806436736427e-11,-1.598037449926783e-08
	1.598041795590688e-08,0.0
	-1.559282373245077e+02,0.0
	-1.573128437147210e+00,0.0

 40	3.162277660168387e-03,0.000000000000000e+00
	1.000000000000000e+00,0.000000000000000e+00
	-1.734794513234851e-06,-3.419193400974349e-03
	-1.169088185354719e-05,1.063661649168290e-08
	-4.181195323147026e-11,-1.742155234417783e-08
	-4.181427244919250e-11,-1.742155233861128e-08
	-4.181544936564846e-11,-1.742155233578643e-08
	-4.181544936564846e-11,-1.742155233578643e-08
	1.742160251872231e-08,0.0
	-1.551782379819423e+02,0.0
	-1.573196535930111e+00,0.0

 41	3.254617834980467e-03,0.000000000000000e+00
	1.000000000000000e+00,0.000000000000000e+00
	-1.837587522555288e-06,-3.519035597202717e-03
	-1.238360967214510e-05,1.159587399244698e-08
	-4.691377528029814e-11,-1.899270143500308e-08
	-4.691637748472928e-11,-1.899270142857494e-08
	-4.691769800638079e-11,-1.899270142531285e-08
	-4.691769800638079e-11,-1.899270142531285e-08
	1.899275937565332e-08,0.0
	-1.544282386783385e+02,0.0
	-1.573266623227163e+00,0.0

 42	3.349654391578285e-03,0.000000000000000e+00
	1.000000000000000e+00,0.000000000000000e+00
	-1.946471397183725e-06,-3.621793233358840e-03
	-1.311738413574121e-05,1.264164158854242e-08
	-5.263811228883225e-11,-2.070554307168971e-08
