Title: * sky130 bjt 2-stage ppa sweep noise: ce1 -> ce2 -> output rebias -> ideal opamp follower -> two rc poles
Date: Sat May 23 01:13:32  2026
Command: ngspice-46, Build Mar 29 2026   15:02:07
Plotname: Noise Spectral Density Curves
Flags: real
No. Variables: 3
No. Points: 265
Variables:
	0	frequency	frequency grid=3
	1	onoise_spectrum	voltage-density
	2	inoise_spectrum	voltage-density
Values:
 0	1.000000000000000e+01
	1.611106755495445e-04
	3.120805113330248e-06

 1	1.029200527194428e+01
	1.576655016534948e-04
	2.988714231509770e-06

 2	1.059253725177289e+01
	1.541672894091491e-04
	2.862255150035858e-06

 3	1.090184492385128e+01
	1.506258292353555e-04
	2.741185478150764e-06

 4	1.122018454301964e+01
	1.470506593714979e-04
	2.625273495684574e-06

 5	1.154781984689458e+01
	1.434510215129458e-04
	2.514297661416851e-06

 6	1.188502227437019e+01
	1.398358214987352e-04
	2.408046146086657e-06

 7	1.223207119049932e+01
	1.362135951733908e-04
	2.306316388642462e-06

 8	1.258925411794168e+01
	1.325924794613168e-04
	2.208914674417849e-06

 9	1.295686697517020e+01
	1.289801886131872e-04
	2.115655734005557e-06

 10	1.333521432163325e+01
	1.253839955126426e-04
	2.026362361682477e-06

 11	1.372460961007563e+01
	1.218107178677072e-04
	1.940865052312726e-06

 12	1.412537544622755e+01
	1.182667090568157e-04
	1.859001655724165e-06

 13	1.453784385607663e+01
	1.147578533533419e-04
	1.780617047617611e-06

 14	1.496235656094434e+01
	1.112895652159182e-04
	1.705562816126709e-06

 15	1.539926526059493e+01
	1.078667923044696e-04
	1.633696963201060e-06

 16	1.584893192461115e+01
	1.044940218628437e-04
	1.564883620035920e-06

 17	1.631172909227840e+01
	1.011752900984437e-04
	1.498992775818772e-06

 18	1.678804018122562e+01
	9.791419418577136e-05
	1.435900019106846e-06

 19	1.727825980507865e+01
	9.471390652434611e-05
	1.375486291190295e-06

 20	1.778279410038925e+01
	9.157719089083388e-05
	1.317637650833531e-06

 21	1.830206106311058e+01
	8.850642013874662e-05
	1.262245049822566e-06

 22	1.883649089489803e+01
	8.550359511775465e-05
	1.209204118778942e-06

 23	1.938652635952210e+01
	8.257036450556751e-05
	1.158414962731501e-06

 24	1.995262314968882e+01
	7.970804526857008e-05
	1.109781965965901e-06

 25	2.053525026457149e+01
	7.691764349291685e-05
	1.063213605698388e-06

 26	2.113489039836650e+01
	7.419987535294373e-05
	1.018622274145407e-06

 27	2.175204034019526e+01
	7.155518801045764e-05
	9.759241085839518e-07

 28	2.238721138568343e+01
	6.898378026361502e-05
	9.350388290194330e-07

 29	2.304092976055849e+01
	6.648562278954892e-05
	8.958895830983644e-07

 30	2.371373705661659e+01
	6.406047784843974e-05
	8.584027979223549e-07

 31	2.440619068041984e+01
	6.170791833975316e-05
	8.225080384379715e-07

 32	2.511886431509584e+01
	5.942734612186872e-05
	7.881378720939408e-07

 33	2.585234839562195e+01
	5.721800952620120e-05
	7.552277394731070e-07

 34	2.660725059798814e+01
	5.507902001404071e-05
	7.237158306214729e-07

 35	2.738419634264367e+01
	5.300936794035788e-05
	6.935429668108537e-07

 36	2.818382931264459e+01
	5.100793740292875e-05
	6.646524874847796e-07

 37	2.900681198693160e+01
	4.907352016712958e-05
	6.369901421499128e-07

 38	2.985382618917966e+01
	4.720482866766618e-05
	6.105039869869855e-07

 39	3.072557365267453e+01
	4.540050809744288e-05
	5.851442859663603e-07

 40	3.162277660168386e+01
	4.365914760146600e-05
	5.608634162638504e-07

 41	3.254617834980466e+01
	4.197929059986919e-05
	5.376157777823353e-07

 42	3.349654391578284e+01
	4.035944426924601e-05
	5.153577065941215e-07

 43	3.447466065731501e+01
	3.879808821557095e-05
	4.940473921277897e-07

 44	3.548133892335763e+01
	3.729368237467971e-05
	4.736447979317534e-07

 45	3.651741272548386e+01
	3.584467417874919e-05
	4.541115858546440e-07

 46	3.758374042884451e+01
	3.444950502832560e-05
	4.354110434901927e-07

 47	3.868120546330531e+01
	3.310661611025485e-05
	4.175080147414235e-07

 48	3.981071705534983e+01
	3.181445360210769e-05
	4.003688333657288e-07

 49	4.097321098135426e+01
	3.057147330332601e-05
	3.839612593688644e-07

 50	4.216965034285834e+01
	2.937614473261773e-05
	3.682544181219657e-07

 51	4.340102636447450e+01
	2.822695473021137e-05
	3.532187420815346e-07

 52	4.466835921509644e+01
	2.712241060229863e-05
	3.388259149978379e-07

 53	4.597269885308735e+01
	2.606104284360010e-05
	3.250488185024356e-07

 54	4.731512589614819e+01
	2.504140747235164e-05
	3.118614809705303e-07

 55	4.869675251658646e+01
	2.406208801041402e-05
	2.992390285586342e-07

 56	5.011872336272738e+01
	2.312169713945629e-05
	2.871576383225500e-07

 57	5.158221650723073e+01
	2.221887806234914e-05
	2.755944933250493e-07

 58	5.308844442309900e+01
	2.135230559721822e-05
	2.645277396467209e-07

 59	5.463865498818559e+01
	2.052068702977293e-05
	2.539364452174632e-07

 60	5.623413251903509e+01
	1.972276274784918e-05
	2.438005603898440e-07

 61	5.787619883491225e+01
	1.895730668043466e-05
	2.341008801791999e-07

 62	5.956621435290124e+01
	1.822312656176020e-05
	2.248190080987877e-07

 63	6.130557921498227e+01
	1.751906403960095e-05
	2.159373215216561e-07

 64	6.309573444801953e+01
	1.684399464532351e-05
	2.074389385040637e-07

 65	6.493816315762135e+01
	1.619682764191834e-05
	1.993076860083472e-07

 66	6.683439175686169e+01
	1.557650576483551e-05
	1.915280694660796e-07

 67	6.878599123088100e+01
	1.498200486928569e-05
	1.840852436251729e-07

 68	7.079457843841404e+01
	1.441233349639980e-05
	1.769649846273053e-07

 69	7.286181745132302e+01
	1.386653236963632e-05
	1.701536632646435e-07

 70	7.498942093324584e+01
	1.334367383174116e-05
	1.636382193673509e-07

 71	7.717915155850152e+01
	1.284286123166401e-05
	1.574061372757677e-07

 72	7.943282347242844e+01
	1.236322826992793e-05
	1.514454223534584e-07

 73	8.175230379436530e+01
	1.190393831018535e-05
	1.457445784995394e-07

 74	8.413951416451982e+01
	1.146418366387745e-05
	1.402925866208069e-07

 75	8.659643233600687e+01
	1.104318485431811e-05
	1.350788840262097e-07

 76	8.912509381337490e+01
	1.064018986583762e-05
	1.300933447081239e-07

 77	9.172759353897833e+01
	1.025447338303591e-05
	1.253262604767194e-07

 78	9.440608762859272e+01
	9.885336024722552e-06
	1.207683229154017e-07

 79	9.716279515771102e+01
	9.532103576577184e-06
	1.164106061269401e-07

 80	1.000000000000004e+02
	9.194126226156775e-06
	1.122445502413752e-07

 81	1.029200527194432e+02
	8.870777803444308e-06
	1.082619456581814e-07

 82	1.059253725177293e+02
	8.561455029780916e-06
	1.044549179964258e-07

 83	1.090184492385132e+02
	8.265576777647800e-06
	1.008159137277843e-07

 84	1.122018454301968e+02
	7.982583343471254e-06
	9.733768646830495e-08

 85	1.154781984689463e+02
	7.711935735323121e-06
	9.401328390566631e-08

 86	1.188502227437024e+02
	7.453114977083704e-06
	9.083603533944254e-08

 87	1.223207119049937e+02
	7.205621430421402e-06
	8.779953981249613e-08

 88	1.258925411794173e+02
	6.968974135668995e-06
	8.489765481211869e-08

 89	1.295686697517025e+02
	6.742710172460398e-06
	8.212448551989854e-08

 90	1.333521432163330e+02
	6.526384040769694e-06
	7.947437458956732e-08

 91	1.372460961007568e+02
	6.319567062814609e-06
	7.694189243220912e-08

 92	1.412537544622761e+02
	6.121846806059015e-06
	7.452182798828983e-08

 93	1.453784385607669e+02
	5.932826527411447e-06
	7.220917996594024e-08

 94	1.496235656094440e+02
	5.752124638499622e-06
	6.999914852485793e-08

 95	1.539926526059499e+02
	5.579374191798823e-06
	6.788712738506740e-08

 96	1.584893192461121e+02
	5.414222387200467e-06
	6.586869633966226e-08

 97	1.631172909227846e+02
	5.256330098489913e-06
	6.393961415051497e-08

 98	1.678804018122568e+02
	5.105371419097912e-06
	6.209581180585186e-08

 99	1.727825980507872e+02
	4.961033226362800e-06
	6.033338611853724e-08

 100	1.778279410038932e+02
	4.823014763458172e-06
	5.864859364394530e-08

 101	1.830206106311065e+02
	4.691027238081545e-06
	5.703784489640927e-08

 102	1.883649089489810e+02
	4.564793436910806e-06
	5.549769884346832e-08

 103	1.938652635952217e+02
	4.444047354831402e-06
	5.402485765748093e-08

 104	1.995262314968890e+02
	4.328533837883272e-06
	5.261616170465008e-08

 105	2.053525026457157e+02
	4.218008238891825e-06
	5.126858475212512e-08

 106	2.113489039836658e+02
	4.112236084745653e-06
	4.997922937459254e-08

 107	2.175204034019534e+02
	4.010992754312774e-06
	4.874532254265212e-08

 108	2.238721138568351e+02
	3.914063166031763e-06
	4.756421137628058e-08

 109	2.304092976055858e+02
	3.821241474259854e-06
	4.643335904779673e-08

 110	2.371373705661668e+02
	3.732330773533671e-06
	4.535034081995078e-08

 111	2.440619068041993e+02
	3.647142809961530e-06
	4.431284020604003e-08

 112	2.511886431509594e+02
	3.565497699058144e-06
	4.331864524027932e-08

 113	2.585234839562205e+02
	3.487223649410558e-06
	4.236564484801770e-08

 114	2.660725059798825e+02
	3.412156691656537e-06
	4.145182530674965e-08

 115	2.738419634264377e+02
	3.340140412347825e-06
	4.057526679021469e-08

 116	2.818382931264470e+02
	3.271025692348791e-06
	3.973413998917941e-08

 117	2.900681198693171e+02
	3.204670449521807e-06
	3.892670280373682e-08

 118	2.985382618917977e+02
	3.140939385514721e-06
	3.815129710312043e-08

 119	3.072557365267465e+02
	3.079703736553071e-06
	3.740634555009836e-08

 120	3.162277660168398e+02
	3.020841028191635e-06
	3.669034848797972e-08

 121	3.254617834980479e+02
	2.964234834056934e-06
	3.600188088911455e-08

 122	3.349654391578297e+02
	2.909774538639479e-06
	3.533958936450618e-08

 123	3.447466065731516e+02
	2.857355104257596e-06
	3.470218923476857e-08

 124	3.548133892335777e+02
	2.806876842334694e-06
	3.408846166316042e-08

 125	3.651741272548400e+02
	2.758245189152603e-06
	3.349725085181054e-08

 126	3.758374042884466e+02
	2.711370486273870e-06
	3.292746130252717e-08

 127	3.868120546330547e+02
	2.666167765813195e-06
	3.237805514375816e-08

 128	3.981071705534999e+02
	2.622556540761770e-06
	3.184804952535597e-08

 129	4.097321098135442e+02
	2.580460600544471e-06
	3.133651408280430e-08

 130	4.216965034285851e+02
	2.539807811988459e-06
	3.084256847250116e-08

 131	4.340102636447468e+02
	2.500529925868355e-06
	3.036537997956565e-08

 132	4.466835921509662e+02
	2.462562389170184e-06
	2.990416119946643e-08

 133	4.597269885308754e+02
	2.425844163197877e-06
	2.945816779455756e-08

 134	4.731512589614838e+02
	2.390317547623124e-06
	2.902669632637052e-08

 135	4.869675251658666e+02
	2.355928010554455e-06
	2.860908216425466e-08

 136	5.011872336272759e+02
	2.322624024677336e-06
	2.820469747068814e-08

 137	5.158221650723094e+02
	2.290356909492397e-06
	2.781294926331216e-08

 138	5.308844442309922e+02
	2.259080679650894e-06
	2.743327755347111e-08

 139	5.463865498818583e+02
	2.228751899372697e-06
	2.706515356077969e-08

 140	5.623413251903534e+02
	2.199329542894529e-06
	2.670807800298945e-08

 141	5.787619883491251e+02
	2.170774860891131e-06
	2.636157946019297e-08

 142	5.956621435290151e+02
	2.143051252778995e-06
	2.602521281218794e-08

 143	6.130557921498255e+02
	2.116124144809682e-06
	2.569855774762764e-08

 144	6.309573444801982e+02
	2.089960873823791e-06
	2.538121734340933e-08

 145	6.493816315762165e+02
	2.064530576546812e-06
	2.507281671259767e-08

 146	6.683439175686200e+02
	2.039804084273226e-06
	2.477300171904917e-08

 147	6.878599123088131e+02
	2.015753822795034e-06
	2.448143775679227e-08

 148	7.079457843841436e+02
	1.992353717406329e-06
	2.419780859212686e-08

 149	7.286181745132336e+02
	1.969579102820542e-06
	2.392181526633771e-08

 150	7.498942093324620e+02
	1.947406637824353e-06
	2.365317505686218e-08

 151	7.717915155850188e+02
	1.925814224495212e-06
	2.339162049471755e-08

 152	7.943282347242881e+02
	1.904780931800137e-06
	2.313689843597549e-08

 153	8.175230379436568e+02
	1.884286923398294e-06
	2.288876918506343e-08

 154	8.413951416452022e+02
	1.864313389468655e-06
	2.264700566768105e-08

 155	8.659643233600727e+02
	1.844842482380954e-06
	2.241139265114033e-08

 156	8.912509381337532e+02
	1.825857256037646e-06
	2.218172600996405e-08

 157	9.172759353897875e+02
	1.807341608709713e-06
	2.195781203461736e-08

 158	9.440608762859316e+02
	1.789280229198667e-06
	2.173946678129064e-08

 159	9.716279515771147e+02
	1.771658546154500e-06
	2.152651546070417e-08

 160	1.000000000000009e+03
	1.754462680392722e-06
	2.131879186395975e-08

 161	1.029200527194437e+03
	1.737679400047580e-06
	2.111613782352661e-08

 162	1.059253725177299e+03
	1.721296078413120e-06
	2.091840270751092e-08

 163	1.090184492385138e+03
	1.705300654320701e-06
	2.072544294542584e-08

 164	1.122018454301974e+03
	1.689681594914779e-06
	2.053712158374399e-08

 165	1.154781984689469e+03
	1.674427860688001e-06
	2.035330786958471e-08

 166	1.188502227437030e+03
	1.659528872644442e-06
	2.017387686095656e-08

 167	1.223207119049943e+03
	1.644974481464476e-06
	1.999870906204423e-08

 168	1.258925411794179e+03
	1.630754938554757e-06
	1.982769008209597e-08

 169	1.295686697517032e+03
	1.616860868861956e-06
	1.966071031653639e-08

 170	1.333521432163337e+03
	1.603283245344618e-06
	1.949766464899465e-08

 171	1.372460961007575e+03
	1.590013364998122e-06
	1.933845217300158e-08

 172	1.412537544622768e+03
	1.577042826331323e-06
	1.918297593217147e-08

 173	1.453784385607676e+03
	1.564363508199270e-06
	1.903114267775042e-08

 174	1.496235656094448e+03
	1.551967549905104e-06
	1.888286264246122e-08

 175	1.539926526059507e+03
	1.539847332481290e-06
	1.873804932964146e-08

 176	1.584893192461129e+03
	1.527995461070251e-06
	1.859661931672151e-08

 177	1.631172909227855e+03
	1.516404748328046e-06
	1.845849207214077e-08

 178	1.678804018122577e+03
	1.505068198774121e-06
	1.832358978485245e-08

 179	1.727825980507881e+03
	1.493978994021922e-06
	1.819183720561331e-08

 180	1.778279410038941e+03
	1.483130478821294e-06
	1.806316149930188e-08

 181	1.830206106311075e+03
	1.472516147849370e-06
	1.793749210755103e-08

 182	1.883649089489820e+03
	1.462129633193704e-06
	1.781476062102213e-08

 183	1.938652635952227e+03
	1.451964692467768e-06
	1.769490066068883e-08

 184	1.995262314968900e+03
	1.442015197507942e-06
	1.757784776753320e-08

 185	2.053525026457167e+03
	1.432275123601362e-06
	1.746353930009326e-08

 186	2.113489039836669e+03
	1.422738539194075e-06
	1.735191433933922e-08

 187	2.175204034019545e+03
	1.413399596038545e-06
	1.724291360037624e-08

 188	2.238721138568363e+03
	1.404252519734005e-06
	1.713647935051379e-08

 189	2.304092976055870e+03
	1.395291600621290e-06
	1.703255533326249e-08

 190	2.371373705661681e+03
	1.386511184993237e-06
	1.693108669784829e-08

 191	2.440619068042006e+03
	1.377905666584285e-06
	1.683201993385969e-08

 192	2.511886431509607e+03
	1.369469478307532e-06
	1.673530281066468e-08

 193	2.585234839562218e+03
	1.361197084202164e-06
	1.664088432126421e-08

 194	2.660725059798838e+03
	1.353082971569512e-06
	1.654871463025750e-08

 195	2.738419634264391e+03
	1.345121643261062e-06
	1.645874502562788e-08

 196	2.818382931264484e+03
	1.337307610098895e-06
	1.637092787406818e-08

 197	2.900681198693185e+03
	1.329635383402197e-06
	1.628521657958400e-08

 198	2.985382618917992e+03
	1.322099467596586e-06
	1.620156554513594e-08

 199	3.072557365267480e+03
	1.314694352889308e-06
	1.611993013708553e-08

 200	3.162277660168414e+03
	1.307414507989472e-06
	1.604026665223862e-08

 201	3.254617834980495e+03
	1.300254372858593e-06
	1.596253228728130e-08

 202	3.349654391578314e+03
	1.293208351478115e-06
	1.588668511042912e-08

 203	3.447466065731532e+03
	1.286270804622761e-06
	1.581268403510916e-08

 204	3.548133892335794e+03
	1.279436042628431e-06
	1.574048879551913e-08

 205	3.651741272548418e+03
	1.272698318152399e-06
	1.567005992390812e-08

 206	3.758374042884484e+03
	1.266051818917711e-06
	1.560135872944504e-08

 207	3.868120546330566e+03
	1.259490660445793e-06
	1.553434727853612e-08

 208	3.981071705535018e+03
	1.253008878774910e-06
	1.546898837647957e-08

 209	4.097321098135462e+03
	1.246600423174417e-06
	1.540524555033714e-08

 210	4.216965034285871e+03
	1.240259148863205e-06
	1.534308303292200e-08

 211	4.340102636447489e+03
	1.233978809744164e-06
	1.528246574780880e-08

 212	4.466835921509683e+03
	1.227753051176752e-06
	1.522335929526953e-08

 213	4.597269885308776e+03
	1.221575402805217e-06
	1.516572993906177e-08

 214	4.731512589614861e+03
	1.215439271474686e-06
	1.510954459398438e-08

 215	4.869675251658689e+03
	1.209337934266070e-06
	1.505477081413754e-08

 216	5.011872336272783e+03
	1.203264531688164e-06
	1.500137678182022e-08

 217	5.158221650723120e+03
	1.197212061075103e-06
	1.494933129700318e-08

 218	5.308844442309948e+03
	1.191173370238236e-06
	1.489860376732922e-08

 219	5.463865498818609e+03
	1.185141151434317e-06
	1.484916419858607e-08

 220	5.623413251903560e+03
	1.179107935715106e-06
	1.480098318561129e-08

 221	5.787619883491278e+03
	1.173066087735255e-06
	1.475403190358301e-08

 222	5.956621435290179e+03
	1.167007801101684e-06
	1.470828209966531e-08

 223	6.130557921498284e+03
	1.160925094357990e-06
	1.466370608497091e-08

 224	6.309573444802011e+03
	1.154809807704676e-06
	1.462027672681260e-08

 225	6.493816315762195e+03
	1.148653600569796e-06
	1.457796744121627e-08

 226	6.683439175686231e+03
	1.142447950150608e-06
	1.453675218567188e-08

 227	6.878599123088164e+03
	1.136184151057451e-06
	1.449660545210020e-08

 228	7.079457843841470e+03
	1.129853316205811e-06
	1.445750226001949e-08

 229	7.286181745132371e+03
	1.123446379104411e-06
	1.441941814989262e-08

 230	7.498942093324656e+03
	1.116954097704793e-06
	1.438232917664199e-08

 231	7.717915155850224e+03
	1.110367059982989e-06
	1.434621190332310e-08

 232	7.943282347242919e+03
	1.103675691430931e-06
	1.431104339494175e-08

 233	8.175230379436608e+03
	1.096870264648232e-06
	1.427680121241215e-08

 234	8.413951416452062e+03
	1.089940911223484e-06
	1.424346340664646e-08

 235	8.659643233600769e+03
	1.082877636106134e-06
	1.421100851277222e-08

 236	8.912509381337575e+03
	1.075670334664728e-06
	1.417941554447470e-08

 237	9.172759353897920e+03
	1.068308812633579e-06
	1.414866398846202e-08

 238	9.440608762859361e+03
	1.060782809141091e-06
	1.411873379905326e-08

 239	9.716279515771193e+03
	1.053082023010226e-06
	1.408960539288877e-08

 240	1.000000000000014e+04
	1.045196142507084e-06
	1.406125964376906e-08

 241	1.029200527194442e+04
	1.037114878700806e-06
	1.403367787761860e-08

 242	1.059253725177303e+04
	1.028828002575350e-06
	1.400684186758588e-08

 243	1.090184492385143e+04
	1.020325386010905e-06
	1.398073382928021e-08

 244	1.122018454301979e+04
	1.011597046715675e-06
	1.395533641615392e-08

 245	1.154781984689474e+04
	1.002633197155668e-06
	1.393063271503531e-08

 246	1.188502227437035e+04
	9.934242974831068e-07
	1.390660624182408e-08

 247	1.223207119049949e+04
	9.839611124109592e-07
	1.388324093735299e-08

 248	1.258925411794185e+04
	9.742347719265079e-07
	1.386052116343151e-08

 249	1.295686697517038e+04
	9.642368356671739e-07
	1.383843169907757e-08

 250	1.333521432163343e+04
	9.539593607160423e-07
	1.381695773695415e-08

 251	1.372460961007581e+04
	9.433949724922257e-07
	1.379608488001796e-08

 252	1.412537544622774e+04
	9.325369383334396e-07
	1.377579913839985e-08

 253	1.453784385607682e+04
	9.213792432796542e-07
	1.375608692652710e-08

 254	1.496235656094455e+04
	9.099166674815129e-07
	1.373693506050750e-08

 255	1.539926526059514e+04
	8.981448645650543e-07
	1.371833075578952e-08

 256	1.584893192461136e+04
	8.860604402002445e-07
	1.370026162511886e-08

 257	1.631172909227862e+04
	8.736610300334347e-07
	1.368271567680941e-08

 258	1.678804018122584e+04
	8.609453760666600e-07
	1.366568131335161e-08

 259	1.727825980507888e+04
	8.479134004956783e-07
	1.364914733038050e-08

 260	1.778279410038948e+04
	8.345662759595555e-07
	1.363310291602692e-08

 261	1.830206106311082e+04
	8.209064911060459e-07
	1.361753765067966e-08

 262	1.883649089489827e+04
	8.069379103484803e-07
	1.360244150718416e-08

 263	1.938652635952235e+04
	7.926658266773942e-07
	1.358780485151420e-08

 264	1.995262314968908e+04
	7.780970063942871e-07
	1.357361844394146e-08

