Title: * sky130 bjt 2-stage ppa sweep op: ce1 -> ce2 -> output rebias -> ideal opamp follower -> two rc poles
Date: Sat May 23 01:13:32  2026
Command: ngspice-46, Build Mar 29 2026   15:02:07
Plotname: Operating Point
Flags: real
No. Variables: 44
No. Points: 1
Variables:
	0	v(vdd)	voltage
	1	i(@c12[i])	current
	2	i(@cbuf1[i])	current
	3	i(@cbuf2[i])	current
	4	i(@ch1[i])	current
	5	i(@ch2[i])	current
	6	i(@cin[i])	current
	7	i(@cload_10p[i])	current
	8	i(@cout[i])	current
	9	i(@iopamp[current])	current
	10	i(@q.xq1.qsky130_fd_pr__npn_05v5_w1p00l1p00[ib])	current
	11	i(@q.xq1.qsky130_fd_pr__npn_05v5_w1p00l1p00[ic])	current
	12	i(@q.xq1.qsky130_fd_pr__npn_05v5_w1p00l1p00[ie])	current
	13	i(@q.xq1.qsky130_fd_pr__npn_05v5_w1p00l1p00[is])	current
	14	i(@q.xq2.qsky130_fd_pr__npn_05v5_w1p00l1p00[ib])	current
	15	i(@q.xq2.qsky130_fd_pr__npn_05v5_w1p00l1p00[ic])	current
	16	i(@q.xq2.qsky130_fd_pr__npn_05v5_w1p00l1p00[ie])	current
	17	i(@q.xq2.qsky130_fd_pr__npn_05v5_w1p00l1p00[is])	current
	18	i(@rb1_bot[i])	current
	19	i(@rb1_top[i])	current
	20	i(@rb2_bot[i])	current
	21	i(@rb2_top[i])	current
	22	i(@rbuf1[i])	current
	23	i(@rbuf2[i])	current
	24	i(@rc1[i])	current
	25	i(@rc2[i])	current
	26	i(@re1[i])	current
	27	i(@re2[i])	current
	28	i(@rout_bot[i])	current
	29	i(@rout_top[i])	current
	30	v(b1_base)	voltage
	31	v(b1_collector)	voltage
	32	v(b1_emitter)	voltage
	33	v(b2_base)	voltage
	34	v(b2_collector)	voltage
	35	v(b2_emitter)	voltage
	36	i(ebuf)	current
	37	v(vbuf)	voltage
	38	i(vdd)	current
	39	v(vfilt1)	voltage
	40	v(vin)	voltage
	41	i(vin)	current
	42	v(vout_drv)	voltage
	43	v(vout_final)	voltage
Values:
 0	5.000000000000000e+00
	0.000000000000000e+00
	0.000000000000000e+00
	0.000000000000000e+00
	0.000000000000000e+00
	0.000000000000000e+00
	0.000000000000000e+00
	0.000000000000000e+00
	0.000000000000000e+00
	1.050000000000000e-05
	1.648192782261207e-09
	5.540927056358682e-08
	-5.706245501595397e-08
	4.981905764274017e-12
	1.648192782249838e-09
	5.540927056318014e-08
	-5.706245501553592e-08
	4.981905764274120e-12
	6.395887550105246e-07
	6.412369477925698e-07
	6.395887550103232e-07
	6.412369477925994e-07
	0.000000000000000e+00
	0.000000000000000e+00
	5.541426223193943e-08
	5.541426223125257e-08
	5.705746334584810e-08
	5.705746334543098e-08
	2.500000000000000e-07
	2.500000000000000e-07
	6.395887550105246e-01
	4.991687860665209e+00
	5.705746334584810e-04
	6.395887550103232e-01
	4.991687860665312e+00
	5.705746334543097e-04
	0.000000000000000e+00
	2.500000000000000e+00
	-1.214330242004836e-05
	2.500000000000000e+00
	2.500000000000000e+00
	0.000000000000000e+00
	2.500000000000000e+00
	2.500000000000000e+00

