Title: * sky130 bjt 2-stage ppa sweep op: ce1 -> ce2 -> output rebias -> ideal opamp follower -> two rc poles
Date: Sat May 23 01:13:31  2026
Command: ngspice-46, Build Mar 29 2026   15:02:07
Plotname: Operating Point
Flags: real
No. Variables: 44
No. Points: 1
Variables:
	0	v(vdd)	voltage
	1	i(@c12[i])	current
	2	i(@cbuf1[i])	current
	3	i(@cbuf2[i])	current
	4	i(@ch1[i])	current
	5	i(@ch2[i])	current
	6	i(@cin[i])	current
	7	i(@cload_10p[i])	current
	8	i(@cout[i])	current
	9	i(@iopamp[current])	current
	10	i(@q.xq1.qsky130_fd_pr__npn_05v5_w1p00l1p00[ib])	current
	11	i(@q.xq1.qsky130_fd_pr__npn_05v5_w1p00l1p00[ic])	current
	12	i(@q.xq1.qsky130_fd_pr__npn_05v5_w1p00l1p00[ie])	current
	13	i(@q.xq1.qsky130_fd_pr__npn_05v5_w1p00l1p00[is])	current
	14	i(@q.xq2.qsky130_fd_pr__npn_05v5_w1p00l1p00[ib])	current
	15	i(@q.xq2.qsky130_fd_pr__npn_05v5_w1p00l1p00[ic])	current
	16	i(@q.xq2.qsky130_fd_pr__npn_05v5_w1p00l1p00[ie])	current
	17	i(@q.xq2.qsky130_fd_pr__npn_05v5_w1p00l1p00[is])	current
	18	i(@rb1_bot[i])	current
	19	i(@rb1_top[i])	current
	20	i(@rb2_bot[i])	current
	21	i(@rb2_top[i])	current
	22	i(@rbuf1[i])	current
	23	i(@rbuf2[i])	current
	24	i(@rc1[i])	current
	25	i(@rc2[i])	current
	26	i(@re1[i])	current
	27	i(@re2[i])	current
	28	i(@rout_bot[i])	current
	29	i(@rout_top[i])	current
	30	v(b1_base)	voltage
	31	v(b1_collector)	voltage
	32	v(b1_emitter)	voltage
	33	v(b2_base)	voltage
	34	v(b2_collector)	voltage
	35	v(b2_emitter)	voltage
	36	i(ebuf)	current
	37	v(vbuf)	voltage
	38	i(vdd)	current
	39	v(vfilt1)	voltage
	40	v(vin)	voltage
	41	i(vin)	current
	42	v(vout_drv)	voltage
	43	v(vout_final)	voltage
Values:
 0	5.000000000000000e+00
	0.000000000000000e+00
	0.000000000000000e+00
	0.000000000000000e+00
	0.000000000000000e+00
	0.000000000000000e+00
	0.000000000000000e+00
	0.000000000000000e+00
	0.000000000000000e+00
	1.400000000000000e-05
	1.069271800723953e-07
	4.055675679348113e-06
	-4.162607371439446e-06
	4.501811023223781e-12
	1.069271800724182e-07
	4.055675679348978e-06
	-4.162607371440334e-06
	4.501811023223518e-12
	7.890249567824628e-07
	8.959521368547953e-07
	7.890249567824753e-07
	8.959521368547926e-07
	0.000000000000000e+00
	0.000000000000000e+00
	4.055680191366262e-06
	4.055680191368453e-06
	4.162602859420167e-06
	4.162602859420985e-06
	2.500000000000000e-07
	2.500000000000000e-07
	7.890249567824628e-01
	4.513318377036049e+00
	3.413334344724536e-02
	7.890249567824753e-01
	4.513318377035786e+00
	3.413334344725207e-02
	0.000000000000000e+00
	2.500000000000000e+00
	-2.415326465644430e-05
	2.500000000000000e+00
	2.500000000000000e+00
	0.000000000000000e+00
	2.500000000000000e+00
	2.500000000000000e+00

