Title: * sky130 bjt 2-stage ppa sweep ac: ce1 -> ce2 -> output rebias -> ideal opamp follower -> two rc poles
Date: Sat May 23 01:13:31  2026
Command: ngspice-46, Build Mar 29 2026   15:02:07
Plotname: AC Analysis
Flags: complex
No. Variables: 11
No. Points: 721
Variables:
	0	frequency	frequency grid=3
	1	v(vin)	voltage
	2	v(b1_collector)	voltage
	3	v(b2_collector)	voltage
	4	v(vout_drv)	voltage
	5	v(vfilt1)	voltage
	6	v(vout_final)	voltage
	7	gain	notype
	8	gain_vv	notype
	9	gain_db	decibel
	10	phase_deg	phase
Values:
 0	1.000000000000000e-03,0.000000000000000e+00
	1.000000000000000e+00,0.000000000000000e+00
	-1.052765356875692e-08,-5.174106198729022e-05
	-2.677137415318627e-09,1.031396197037983e-12
	-5.882454856634927e-16,-8.410473388587669e-13
	-5.882618674779671e-16,-8.410473388473086e-13
	-5.882703226080185e-16,-8.410473388413946e-13
	-5.882703226080185e-16,-8.410473388413946e-13
	8.410475445741247e-13,0.0
	-2.415035890552059e+02,0.0
	-1.571495776397205e+00,0.0

 1	1.029200527194428e-03,0.000000000000000e+00
	1.000000000000000e+00,0.000000000000000e+00
	-1.115145623273393e-08,-5.325192814430692e-05
	-2.835767761040800e-09,1.124412134353354e-12
	-6.600222830643954e-16,-9.168967481216404e-13
	-6.600406637621885e-16,-9.168967481084090e-13
	-6.600501505739527e-16,-9.168967481015795e-13
	-6.600501505739527e-16,-9.168967481015795e-13
	9.168969856780274e-13,0.0
	-2.407535891004427e+02,0.0
	-1.571516200693374e+00,0.0

 2	1.059253725177289e-03,0.000000000000000e+00
	1.000000000000000e+00,0.000000000000000e+00
	-1.181222152498081e-08,-5.480691237782501e-05
	-3.003797543357546e-09,1.225816665958018e-12
	-7.405571729221396e-16,-9.995865950593755e-13
	-7.405777964038360e-16,-9.995865950440956e-13
	-7.405884407814857e-16,-9.995865950362093e-13
	-7.405884407814857e-16,-9.995865950362093e-13
	9.995868693852083e-13,0.0
	-2.400035891483708e+02,0.0
	-1.571537221389672e+00,0.0

 3	1.090184492385128e-03,0.000000000000000e+00
	1.000000000000000e+00,0.000000000000000e+00
	-1.251213961852311e-08,-5.640730295791701e-05
	-3.181783713626248e-09,1.336366312849936e-12
	-8.309188038760995e-16,-1.089733780640817e-12
	-8.309419438026433e-16,-1.089733780623172e-12
	-8.309538869905368e-16,-1.089733780614065e-12
	-8.309538869905368e-16,-1.089733780614065e-12
	1.089734097427343e-12,0.0
	-2.392535891991296e+02,0.0
	-1.571558855901289e+00,0.0

 4	1.122018454301964e-03,0.000000000000000e+00
	1.000000000000000e+00,0.000000000000000e+00
	-1.325353046222659e-08,-5.805442577266608e-05
	-3.370316224602908e-09,1.456885822464522e-12
	-9.323062193676006e-16,-1.188010840665360e-12
	-9.323321827916061e-16,-1.188010840644984e-12
	-9.323455832685121e-16,-1.188010840634467e-12
	-9.323455832685121e-16,-1.188010840634467e-12
	1.188011206484729e-12,0.0
	-2.385035892528958e+02,0.0
	-1.571581122151948e+00,0.0

 5	1.154781984689459e-03,0.000000000000000e+00
	1.000000000000000e+00,0.000000000000000e+00
	-1.403885147050816e-08,-5.974964542667453e-05
	-3.570019985903732e-09,1.588274321644062e-12
	-1.046064768205529e-15,-1.295150963154763e-12
	-1.046093899645677e-15,-1.295150963131234e-12
	-1.046108935227689e-15,-1.295150963119089e-12
	-1.046108935227689e-15,-1.295150963119089e-12
	1.295151385596374e-12,0.0
	-2.377535893098539e+02,0.0
	-1.571604038588752e+00,0.0

 6	1.188502227437019e-03,0.000000000000000e+00
	1.000000000000000e+00,0.000000000000000e+00
	-1.487070566871068e-08,-6.149436637167161e-05
	-3.781556935330040e-09,1.731512024506845e-12
	-1.173703956511943e-15,-1.411953458233105e-12
	-1.173736642524531e-15,-1.411953458205933e-12
	-1.173753512724576e-15,-1.411953458191909e-12
	-1.173753512724576e-15,-1.411953458191909e-12
	1.411953946061060e-12,0.0
	-2.370035893701848e+02,0.0
	-1.571627624197469e+00,0.0

 7	1.223207119049932e-03,0.000000000000000e+00
	1.000000000000000e+00,0.000000000000000e+00
	-1.575185032101336e-08,-6.329003406990362e-05
	-4.005628232909251e-09,1.887667545250237e-12
	-1.316917477925918e-15,-1.539289721296966e-12
	-1.316954152234218e-15,-1.539289721265589e-12
	-1.316973080909470e-15,-1.539289721249394e-12
	-1.316973080909470e-15,-1.539289721249394e-12
	1.539290284631893e-12,0.0
	-2.362535894340942e+02,0.0
	-1.571651898518261e+00,0.0

 8	1.258925411794168e-03,0.000000000000000e+00
	1.000000000000000e+00,0.000000000000000e+00
	-1.668520606974187e-08,-6.513813619184648e-05
	-4.242976584966697e-09,2.057905870473044e-12
	-1.477605687869904e-15,-1.678109733978747e-12
	-1.477646837119402e-15,-1.678109733942513e-12
	-1.477668075441724e-15,-1.678109733923812e-12
	-1.477668075441724e-15,-1.678109733923812e-12
	1.678110384507762e-12,0.0
	-2.355035895017808e+02,0.0
	-1.571676881661872e+00,0.0

 9	1.295686697517020e-03,0.000000000000000e+00
	1.000000000000000e+00,0.000000000000000e+00
	-1.767386661601960e-08,-6.704020384848309e-05
	-4.494388705868471e-09,2.243497050449378e-12
	-1.657900820072015e-15,-1.829449151378892e-12
	-1.657946990287891e-15,-1.829449151337050e-12
	-1.657970820076731e-15,-1.829449151315453e-12
	-1.657970820076731e-15,-1.829449151315453e-12
	1.829449902598066e-12,0.0
	-2.347535895734858e+02,0.0
	-1.571702594326288e+00,0.0

 10	1.333521432163325e-03,0.000000000000000e+00
	1.000000000000000e+00,0.000000000000000e+00
	-1.872110897421789e-08,-6.899781285995337e-05
	-4.760697925681131e-09,2.445825674255955e-12
	-1.860195279987677e-15,-1.994437028473382e-12
	-1.860247083820217e-15,-1.994437028425063e-12
	-1.860273821282173e-15,-1.994437028400124e-12
	-1.860273821282173e-15,-1.994437028400124e-12
	1.994437895967736e-12,0.0
	-2.340035896494387e+02,0.0
	-1.571729057813886e+00,0.0

 11	1.372460961007563e-03,0.000000000000000e+00
	1.000000000000000e+00,0.000000000000000e+00
	-1.983040433390019e-08,-7.101258506098038e-05
	-5.042786952303584e-09,2.666401199379528e-12
	-2.087173390519276e-15,-2.174304243304215e-12
	-2.087231515373352e-15,-2.174304243248418e-12
	-2.087261515298036e-15,-2.174304243219619e-12
	-2.087261515298036e-15,-2.174304243219619e-12
	2.174305245071049e-12,0.0
	-2.332535897298865e+02,0.0
	-1.571756294049086e+00,0.0

 12	1.412537544622755e-03,0.000000000000000e+00
	1.000000000000000e+00,0.000000000000000e+00
	-2.100542956540518e-08,-7.308618964450659e-05
	-5.341590797271897e-09,2.906869212897519e-12
	-2.341847011296337e-15,-2.370392679809688e-12
	-2.341912228452843e-15,-2.370392679745254e-12
	-2.341945888920717e-15,-2.370392679711997e-12
	-2.341945888920717e-15,-2.370392679711997e-12
	2.370393836631957e-12,0.0
	-2.325035898151046e+02,0.0
	-1.571784325596505e+00,0.0

 13	1.453784385607663e-03,0.000000000000000e+00
	1.000000000000000e+00,0.000000000000000e+00
	-2.225007940721687e-08,-7.522034454461691e-05
	-5.658099874948719e-09,3.169023708258120e-12
	-2.627595504170577e-15,-2.584165238808306e-12
	-2.627668679020838e-15,-2.584165238733899e-12
	-2.627706446685488e-15,-2.584165238695495e-12
	-2.627706446685488e-15,-2.584165238695495e-12
	2.584166574685795e-12,0.0
	-2.317535899053717e+02,0.0
	-1.571813175679663e+00,0.0

 14	1.496235656094435e-03,0.000000000000000e+00
	1.000000000000000e+00,0.000000000000000e+00
	-2.356847937540011e-08,-7.741681785970831e-05
	-5.993363285322783e-09,3.454820469212233e-12
	-2.948210575217065e-15,-2.817216751801314e-12
	-2.948292678746029e-15,-2.817216751715390e-12
	-2.948335054760979e-15,-2.817216751671041e-12
	-2.948335054760979e-15,-2.817216751671041e-12
	2.817218294448538e-12,0.0
	-2.310035900009920e+02,0.0
	-1.571842868200213e+00,0.0

 15	1.539926526059493e-03,0.000000000000000e+00
	1.000000000000000e+00,0.000000000000000e+00
	-2.496499943808355e-08,-7.967742931740642e-05
	-6.348492291354981e-09,3.766391660793283e-12
	-3.307946588296932e-15,-3.071285879038741e-12
	-3.308038709967531e-15,-3.071285878939518e-12
	-3.308086256636226e-15,-3.071285878888305e-12
	-3.308086256636226e-15,-3.071285878888305e-12
	3.071287660459923e-12,0.0
	-2.302535901022705e+02,0.0
	-1.571873427757750e+00,0.0

 16	1.584893192461115e-03,0.000000000000000e+00
	1.000000000000000e+00,0.000000000000000e+00
	-2.644426850001794e-08,-8.200405178195589e-05
	-6.724664002318149e-09,4.106061736129846e-12
	-3.711577017760375e-15,-3.348268080575856e-12
	-3.711680379969998e-15,-3.348268080461275e-12
	-3.711733728207222e-15,-3.348268080402136e-12
	-3.711733728207222e-15,-3.348268080402136e-12
	3.348270137728895e-12,0.0
	-2.295035902095598e+02,0.0
	-1.571904879670186e+00,0.0

 17	1.631172909227840e-03,0.000000000000000e+00
	1.000000000000000e+00,0.000000000000000e+00
	-2.801118974565064e-08,-8.439861280604490e-05
	-7.123125275465841e-09,4.476364777872894e-12
	-4.164457789461027e-15,-3.650229757148185e-12
	-4.164573763761962e-15,-3.650229757015868e-12
	-4.164633621465670e-15,-3.650229756947576e-12
	-4.164633621465670e-15,-3.650229756947576e-12
	3.650232132711392e-12,0.0
	-2.287535903231994e+02,0.0
	-1.571937249994730e+00,0.0

 18	1.678804018122562e-03,0.000000000000000e+00
	1.000000000000000e+00,0.000000000000000e+00
	-2.967095689109589e-08,-8.686309622755567e-05
	-7.545196848796612e-09,4.880063403470592e-12
	-4.672598350468877e-15,-3.979423666280586e-12
	-4.672728475767928e-15,-3.979423666127790e-12
	-4.672795637212600e-15,-3.979423666048926e-12
	-4.672795637212600e-15,-3.979423666048926e-12
	3.979426409538105e-12,0.0
	-2.280035904435747e+02,0.0
	-1.571970565549469e+00,0.0

 19	1.727825980507865e-03,0.000000000000000e+00
	1.000000000000000e+00,0.000000000000000e+00
	-3.142907139920572e-08,-8.939954381310013e-05
	-7.992277718771372e-09,5.320169375466737e-12
	-5.242741410632976e-15,-4.338305728716543e-12
	-5.242887413611777e-15,-4.338305728540095e-12
	-5.242962769987931e-15,-4.338305728449026e-12
	-5.242962769987931e-15,-4.338305728449026e-12
	4.338308896580813e-12,0.0
	-2.272535905710817e+02,0.0
	-1.572004853935594e+00,0.0

 20	1.778279410038925e-03,0.000000000000000e+00
	1.000000000000000e+00,0.000000000000000e+00
	-3.329136071469534e-08,-9.201005694960189e-05
	-8.465849777381520e-09,5.799966070484681e-12
	-5.882452414034772e-15,-4.729553350493075e-12
	-5.882616232061734e-15,-4.729553350289317e-12
	-5.882700783301454e-15,-4.729553350184150e-12
	-5.882700783301454e-15,-4.729553350184150e-12
	4.729557008685552e-12,0.0
	-2.265035907061448e+02,0.0
	-1.572040143560258e+00,0.0

 21	1.830206106311058e-03,0.000000000000000e+00
	1.000000000000000e+00,0.000000000000000e+00
	-3.526399757974735e-08,-9.469679838518479e-05
	-8.967482723999445e-09,6.323032974585599e-12
	-6.600219927604960e-15,-5.156085397380176e-12
	-6.600403734442906e-15,-5.156085397144881e-12
	-6.600498602488296e-15,-5.156085397023438e-12
	-6.600498602488296e-15,-5.156085397023438e-12
	5.156089621794810e-12,0.0
	-2.257535908492095e+02,0.0
	-1.572076463660119e+00,0.0

 22	1.883649089489803e-03,0.000000000000000e+00
	1.000000000000000e+00,0.000000000000000e+00
	-3.735352049409470e-08,-9.746199402086592e-05
	-9.498839268253294e-09,6.893272387702077e-12
	-7.405568278958367e-15,-5.621083970678916e-12
	-7.405774513608959e-15,-5.621083970407201e-12
	-7.405880957299586e-15,-5.621083970266959e-12
	-7.405880957299586e-15,-5.621083970266959e-12
	5.621088848956660e-12,0.0
	-2.250035910007534e+02,0.0
	-1.572113844325554e+00,0.0

 23	1.938652635952210e-03,0.000000000000000e+00
	1.000000000000000e+00,0.000000000000000e+00
	-3.956685538752088e-08,-1.003079347546959e-04
	-1.006168064121330e-08,7.514938536421211e-12
	-8.309183938114856e-15,-6.128018146854985e-12
	-8.309415337182560e-15,-6.128018146541213e-12
	-8.309534768959437e-15,-6.128018146379265e-12
	-8.309534768959437e-15,-6.128018146379265e-12
	6.128023780202036e-12,0.0
	-2.242535911612738e+02,0.0
	-1.572152316525595e+00,0.0

 24	1.995262314968882e-03,0.000000000000000e+00
	1.000000000000000e+00,0.000000000000000e+00
	-4.191133857642635e-08,-1.032369783795770e-04
	-1.065787243309774e-08,8.192669312243243e-12
	-9.323057320046997e-15,-6.680669858077316e-12
	-9.323316954052042e-15,-6.680669857714978e-12
	-9.323450958699806e-15,-6.680669857527964e-12
	-9.323450958699806e-15,-6.680669857527964e-12
	6.680676363364752e-12,0.0
	-2.235035913313060e+02,0.0
	-1.572191912133577e+00,0.0

 25	2.053525026457149e-03,0.000000000000000e+00
	1.000000000000000e+00,0.000000000000000e+00
	-4.439474108073828e-08,-1.062515515366403e-04
	-1.128939077690424e-08,8.931520872162342e-12
	-1.046064188973340e-14,-7.283162106769027e-12
	-1.046093320385558e-14,-7.283162106350606e-12
	-1.046108355953154e-14,-7.283162106134644e-12
	-1.046108355953154e-14,-7.283162106134644e-12
	7.283169618957453e-12,0.0
	-2.227535915114200e+02,0.0
	-1.572232663953554e+00,0.0

 26	2.113489039836650e-03,0.000000000000000e+00
	1.000000000000000e+00,0.000000000000000e+00
	-4.702529438164372e-08,-1.093541517255710e-04
	-1.195832889845877e-08,9.737005359691565e-12
	-1.173703268092913e-14,-7.939989724658315e-12
	-1.173735954072305e-14,-7.939989724175128e-12
	-1.173752824255217e-14,-7.939989723925741e-12
	-1.173752824255217e-14,-7.939989723925741e-12
	7.939998399597799e-12,0.0
	-2.220035917022034e+02,0.0
	-1.572274605747468e+00,0.0

 27	2.175204034019526e-03,0.000000000000000e+00
	1.000000000000000e+00,0.000000000000000e+00
	-4.981171770559058e-08,-1.125473493737273e-04
	-1.266690405452354e-08,1.061513202768075e-11
	-1.316916659740169e-14,-8.656052905753789e-12
	-1.316953334009017e-14,-8.656052905195817e-12
	-1.316972262663906e-14,-8.656052904907827e-12
	-1.316972262663906e-14,-8.656052904907827e-12
	8.656062923417164e-12,0.0
	-2.212535919042845e+02,0.0
	-1.572317772263123e+00,0.0

 28	2.238721138568343e-03,0.000000000000000e+00
	1.000000000000000e+00,0.000000000000000e+00
	-5.276324692479743e-08,-1.158337899654149e-04
	-1.341746488201249e-08,1.157245206975918e-11
	-1.477604715452832e-14,-9.436693763437458e-12
	-1.477645864655441e-14,-9.436693762793115e-12
	-1.477667102953560e-14,-9.436693762460550e-12
	-1.477667102953560e-14,-9.436693762460550e-12
	9.436705331654082e-12,0.0
	-2.205035921183460e+02,0.0
	-1.572362199262971e+00,0.0

 29	2.304092976055850e-03,0.000000000000000e+00
	1.000000000000000e+00,0.000000000000000e+00
	-5.588966517048557e-08,-1.192161962337199e-04
	-1.421249918274522e-08,1.261610749496962e-11
	-1.657899664352945e-14,-1.028773618445050e-11
	-1.657945834513092e-14,-1.028773618370643e-11
	-1.657969664273167e-14,-1.028773618332239e-11
	-1.657969664273167e-14,-1.028773618332239e-11
	1.028774954321796e-11,0.0
	-2.197535923450892e+02,0.0
	-1.572407923553741e+00,0.0

 30	2.371373705661660e-03,0.000000000000000e+00
	1.000000000000000e+00,0.000000000000000e+00
	-5.920133525986776e-08,-1.226973704160787e-04
	-1.505464216936148e-08,1.375388440998304e-11
	-1.860193906413276e-14,-1.121552927696590e-11
	-1.860245710179580e-14,-1.121552927610665e-11
	-1.860272447607349e-14,-1.121552927566317e-11
	-1.860272447607349e-14,-1.121552927566317e-11
	1.121554470342905e-11,0.0
	-2.190035925852692e+02,0.0
	-1.572454983016932e+00,0.0

 31	2.440619068041985e-03,0.000000000000000e+00
	1.000000000000000e+00,0.000000000000000e+00
	-6.270923404453549e-08,-1.262801965757154e-04
	-1.594668519990493e-08,1.499427110662823e-11
	-2.087171758021863e-14,-1.222699473699881e-11
	-2.087229882797219e-14,-1.222699473600657e-11
	-2.087259882681273e-14,-1.222699473549444e-11
	-2.087259882681273e-14,-1.222699473549444e-11
	1.222701255119952e-11,0.0
	-2.182535928396801e+02,0.0
	-1.572503416640195e+00,0.0

 32	2.511886431509585e-03,0.000000000000000e+00
	1.000000000000000e+00,0.000000000000000e+00
	-6.642498879421470e-08,-1.299676429909843e-04
	-1.689158502991497e-08,1.634652138794494e-11
	-2.341845071069751e-14,-1.332967848643776e-11
	-2.341910288132698e-14,-1.332967848529194e-11
	-2.341943948552283e-14,-1.332967848470055e-11
	-2.341943948552283e-14,-1.332967848470055e-11
	1.332969905795455e-11,0.0
	-2.175035931091648e+02,0.0
	-1.572553264549631e+00,0.0

 33	2.585234839562196e-03,0.000000000000000e+00
	1.000000000000000e+00,0.000000000000000e+00
	-7.036091573623998e-08,-1.337627646143219e-04
	-1.789247361273464e-08,1.782072360524782e-11
	-2.627593198206318e-14,-1.453180696795134e-11
	-2.627666372945384e-14,-1.453180696662817e-11
	-2.627704140552642e-14,-1.453180696594524e-11
	-2.627704140552642e-14,-1.453180696594524e-11
	1.453183072356678e-11,0.0
	-2.167535933946189e+02,0.0
	-1.572604568043038e+00,0.0

 34	2.660725059798815e-03,0.000000000000000e+00
	1.000000000000000e+00,0.000000000000000e+00
	-7.453006087872169e-08,-1.376687056031072e-04
	-1.895266848053369e-08,1.942787592128038e-11
	-2.948207834575836e-14,-1.584234851675128e-11
	-2.948289937972644e-14,-1.584234851522330e-11
	-2.948332313919383e-14,-1.584234851443467e-11
	-2.948332313919383e-14,-1.584234851443467e-11
	1.584237594930614e-11,0.0
	-2.160035936969851e+02,0.0
	-1.572657369624122e+00,0.0

 35	2.738419634264367e-03,0.000000000000000e+00
	1.000000000000000e+00,0.000000000000000e+00
	-7.894624325265058e-08,-1.416887019244434e-04
	-2.007568374038406e-08,2.117996836082440e-11
	-3.307943331036699e-14,-1.727108026699408e-11
	-3.308035452550230e-14,-1.727108026522960e-11
	-3.308082999137858e-14,-1.727108026431890e-11
	-3.308082999137858e-14,-1.727108026431890e-11
	1.727111194561192e-11,0.0
	-2.152535940172696e+02,0.0
	-1.572711713037708e+00,0.0

 36	2.818382931264460e-03,0.000000000000000e+00
	1.000000000000000e+00,0.000000000000000e+00
	-8.362410071599401e-08,-1.458260840357529e-04
	-2.126524172193284e-08,2.309007226106533e-11
	-3.711573146501888e-14,-1.882866109202747e-11
	-3.711676508524836e-14,-1.882866108998989e-11
	-3.711729856665711e-14,-1.882866108893823e-11
	-3.711729856665711e-14,-1.882866108893823e-11
	1.882869767392183e-11,0.0
	-2.145035943565325e+02,0.0
	-1.572767643305983e+00,0.0

 37	2.900681198693160e-03,0.000000000000000e+00
	1.000000000000000e+00,0.000000000000000e+00
	-8.857913847220229e-08,-1.500842796440026e-04
	-2.252528531518379e-08,2.517243778888155e-11
	-4.164453188460171e-14,-2.052671112254299e-11
	-4.164569162539244e-14,-2.052671112019003e-11
	-4.164629020128441e-14,-2.052671111897559e-11
	-4.164629020128441e-14,-2.052671111897559e-11
	2.052675336665211e-11,0.0
	-2.137535947158989e+02,0.0
	-1.572825206765792e+00,0.0

 38	2.985382618917966e-03,0.000000000000000e+00
	1.000000000000000e+00,0.000000000000000e+00
	-9.382778046333109e-08,-1.544668165452310e-04
	-2.385999103934975e-08,2.744260025268271e-11
	-4.672592882171499e-14,-2.237789843589995e-11
	-4.672723007206865e-14,-2.237789843318279e-11
	-4.672790168515440e-14,-2.237789843178038e-11
	-4.672790168515440e-14,-2.237789843178038e-11
	2.237794721863189e-11,0.0
	-2.130035950965552e+02,0.0
	-1.572884451107029e+00,0.0

 39	3.072557365267454e-03,0.000000000000000e+00
	1.000000000000000e+00,0.000000000000000e+00
	-9.938742380823883e-08,-1.589773255468805e-04
	-2.527378288599026e-08,2.991749600176898e-11
	-5.242734911546478e-14,-2.439603356323171e-11
	-5.242880914211888e-14,-2.439603356009399e-11
	-5.242956270426291e-14,-2.439603355847451e-11
	-5.242956270426291e-14,-2.439603355847451e-11
	2.439608989664654e-11,0.0
	-2.122535954997729e+02,0.0
	-1.572945425412140e+00,0.0

 40	3.162277660168387e-03,0.000000000000000e+00
	1.000000000000000e+00,0.000000000000000e+00
	-1.052764964669274e-07,-1.636195434758915e-04
	-2.677134698253348e-08,3.261558877820782e-11
	-5.882444689858992e-14,-2.659617251955737e-11
	-5.882608507513489e-14,-2.659617251593398e-11
	-5.882693058560968e-14,-2.659617251406384e-11
	-5.882693058560968e-14,-2.659617251406384e-11
	2.659623757236363e-11,0.0
	-2.115035959268766e+02,0.0
	-1.573008180196793e+00,0.0

 41	3.254617834980467e-03,0.000000000000000e+00
	1.000000000000000e+00,0.000000000000000e+00
	-1.115145183209786e-07,-1.683973162740261e-04
	-2.835764712441698e-08,3.555700746323028e-11
	-6.600210747403827e-14,-2.899472912515331e-11
	-6.600394553799099e-14,-2.899472912096909e-11
	-6.600489421616010e-14,-2.899472911880948e-11
	-6.600489421616010e-14,-2.899472911880948e-11
	2.899480424695430e-11,0.0
	-2.107535963792910e+02,0.0
	-1.573072767451721e+00,0.0

 42	3.349654391578285e-03,0.000000000000000e+00
	1.000000000000000e+00,0.000000000000000e+00
	-1.181221658739117e-07,-1.733146021841944e-04
	-3.003794122775860e-08,3.876369624654161e-11
	-7.405557368272573e-14,-3.160959745650468e-11
