Title: * sky130 bjt 2-stage ppa sweep noise: ce1 -> ce2 -> output rebias -> ideal opamp follower -> two rc poles
Date: Sat May 23 01:12:41  2026
Command: ngspice-46, Build Mar 29 2026   15:02:07
Plotname: Noise Spectral Density Curves
Flags: real
No. Variables: 3
No. Points: 265
Variables:
	0	frequency	frequency grid=3
	1	onoise_spectrum	voltage-density
	2	inoise_spectrum	voltage-density
Values:
 0	1.000000000000000e+01
	1.040449041908969e-04
	4.228401607617424e-06

 1	1.029200527194428e+01
	1.022993232125573e-04
	4.048361944398210e-06

 2	1.059253725177289e+01
	1.004941979186683e-04
	3.876100665830349e-06

 3	1.090184492385128e+01
	9.863503443522386e-05
	3.711273358241237e-06

 4	1.122018454301964e+01
	9.672739722136332e-05
	3.553551664132036e-06

 5	1.154781984689458e+01
	9.477687305798466e-05
	3.402622461802713e-06

 6	1.188502227437019e+01
	9.278903612101825e-05
	3.258187092953623e-06

 7	1.223207119049932e+01
	9.076941451580898e-05
	3.119960635002414e-06

 8	1.258925411794168e+01
	8.872345861120157e-05
	2.987671215104564e-06

 9	1.295686697517020e+01
	8.665651146691860e-05
	2.861059363095700e-06

 10	1.333521432163325e+01
	8.457378160078615e-05
	2.739877400784951e-06

 11	1.372460961007563e+01
	8.248031829190491e-05
	2.623888865222310e-06

 12	1.412537544622755e+01
	8.038098956532581e-05
	2.512867963740209e-06

 13	1.453784385607663e+01
	7.828046295334520e-05
	2.406599058733654e-06

 14	1.496235656094434e+01
	7.618318907962527e-05
	2.304876180292931e-06

 15	1.539926526059493e+01
	7.409338806667946e-05
	2.207502564940856e-06

 16	1.584893192461115e+01
	7.201503872455992e-05
	2.114290218853596e-06

 17	1.631172909227840e+01
	6.995187044068587e-05
	2.025059504060426e-06

 18	1.678804018122562e+01
	6.790735765733819e-05
	1.939638746225420e-06

 19	1.727825980507865e+01
	6.588471679525331e-05
	1.857863862712554e-06

 20	1.778279410038925e+01
	6.388690545879624e-05
	1.779578009726762e-06

 21	1.830206106311058e+01
	6.191662374049934e-05
	1.704631247407323e-06

 22	1.883649089489803e+01
	5.997631743027392e-05
	1.632880221827017e-06

 23	1.938652635952210e+01
	5.806818292674469e-05
	1.564187862921745e-06

 24	1.995262314968882e+01
	5.619417364466844e-05
	1.498423097441022e-06

 25	2.053525026457149e+01
	5.435600771322670e-05
	1.435460576070383e-06

 26	2.113489039836650e+01
	5.255517676380950e-05
	1.375180413932602e-06

 27	2.175204034019526e+01
	5.079295561310129e-05
	1.317467943726569e-06

 28	2.238721138568343e+01
	4.907041265661895e-05
	1.262213480810467e-06

 29	2.304092976055849e+01
	4.738842079916117e-05
	1.209312099580117e-06

 30	2.371373705661659e+01
	4.574766876164450e-05
	1.158663420534433e-06

 31	2.440619068041984e+01
	4.414867261730435e-05
	1.110171407457970e-06

 32	2.511886431509584e+01
	4.259178742475220e-05
	1.063744174185707e-06

 33	2.585234839562195e+01
	4.107721883985558e-05
	1.019293800447945e-06

 34	2.660725059798814e+01
	3.960503460288529e-05
	9.767361563236339e-07

 35	2.738419634264367e+01
	3.817517581149665e-05
	9.359907348584809e-07

 36	2.818382931264459e+01
	3.678746790355466e-05
	8.969804924306807e-07

 37	2.900681198693160e+01
	3.544163128665498e-05
	8.596316964713230e-07

 38	2.985382618917966e+01
	3.413729156315391e-05
	8.238737801694073e-07

 39	3.072557365267453e+01
	3.287398931048403e-05
	7.896392038125181e-07

 40	3.162277660168386e+01
	3.165118938651775e-05
	7.568633224341020e-07

 41	3.254617834980466e+01
	3.046828973885211e-05
	7.254842594566142e-07

 42	3.349654391578284e+01
	2.932462970474625e-05
	6.954427860371934e-07

 43	3.447466065731501e+01
	2.821949779565366e-05
	6.666822058385543e-07

 44	3.548133892335763e+01
	2.715213896619772e-05
	6.391482449629716e-07

 45	3.651741272548386e+01
	2.612176137277513e-05
	6.127889468012823e-07

 46	3.758374042884451e+01
	2.512754263131074e-05
	5.875545715621702e-07

 47	3.868120546330531e+01
	2.416863558727968e-05
	5.633975002593923e-07

 48	3.981071705534983e+01
	2.324417361402047e-05
	5.402721429462625e-07

 49	4.097321098135426e+01
	2.235327545774849e-05
	5.181348509977455e-07

 50	4.216965034285834e+01
	2.149504964930230e-05
	4.969438332507305e-07

 51	4.340102636447450e+01
	2.066859850391413e-05
	4.766590758229149e-07

 52	4.466835921509644e+01
	1.987302173123364e-05
	4.572422654396790e-07

 53	4.597269885308735e+01
	1.910741967805932e-05
	4.386567161071699e-07

 54	4.731512589614819e+01
	1.837089622658997e-05
	4.208672989778075e-07

 55	4.869675251658646e+01
	1.766256137066992e-05
	4.038403752621801e-07

 56	5.011872336272738e+01
	1.698153349230125e-05
	3.875437320485649e-07

 57	5.158221650723073e+01
	1.632694136004504e-05
	3.719465208981819e-07

 58	5.308844442309900e+01
	1.569792587032653e-05
	3.570191990908274e-07

 59	5.463865498818559e+01
	1.509364155183442e-05
	3.427334734017087e-07

 60	5.623413251903509e+01
	1.451325785233996e-05
	3.290622462961725e-07

 61	5.787619883491225e+01
	1.395596022635633e-05
	3.159795644346024e-07

 62	5.956621435290124e+01
	1.342095104104707e-05
	3.034605693850666e-07

 63	6.130557921498227e+01
	1.290745031685571e-05
	2.914814504463486e-07

 64	6.309573444801953e+01
	1.241469631831790e-05
	2.800193994887948e-07

 65	6.493816315762135e+01
	1.194194600953870e-05
	2.690525677250406e-07

 66	6.683439175686169e+01
	1.148847538785137e-05
	2.585600243269901e-07

 67	6.878599123088100e+01
	1.105357970825364e-05
	2.485217168096854e-07

 68	7.079457843841404e+01
	1.063657361029894e-05
	2.389184331066285e-07

 69	7.286181745132302e+01
	1.023679115825588e-05
	2.297317652649845e-07

 70	7.498942093324584e+01
	9.853585804508514e-06
	2.209440746927115e-07

 71	7.717915155850152e+01
	9.486330285421954e-06
	2.125384588931636e-07

 72	7.943282347242844e+01
	9.134416458104736e-06
	2.044987196260324e-07

 73	8.175230379436530e+01
	8.797255085827043e-06
	1.968093324366491e-07

 74	8.413951416451982e+01
	8.474275579198945e-06
	1.894554174987037e-07

 75	8.659643233600687e+01
	8.164925699586326e-06
	1.824227117182858e-07

 76	8.912509381337490e+01
	7.868671230675395e-06
	1.756975420498554e-07

 77	9.172759353897833e+01
	7.584995623551789e-06
	1.692667999773282e-07

 78	9.440608762859272e+01
	7.313399620188790e-06
	1.631179171158144e-07

 79	9.716279515771102e+01
	7.053400859743170e-06
	1.572388418918264e-07

 80	1.000000000000004e+02
	6.804533471656330e-06
	1.516180172618105e-07

 81	1.029200527194432e+02
	6.566347659143476e-06
	1.462443594307739e-07

 82	1.059253725177293e+02
	6.338409276303812e-06
	1.411072375344893e-07

 83	1.090184492385132e+02
	6.120299401713179e-06
	1.361964542503419e-07

 84	1.122018454301968e+02
	5.911613911071914e-06
	1.315022273032136e-07

 85	1.154781984689463e+02
	5.711963051160088e-06
	1.270151718340478e-07

 86	1.188502227437024e+02
	5.520971017100045e-06
	1.227262835997014e-07

 87	1.223207119049937e+02
	5.338275534634544e-06
	1.186269229735837e-07

 88	1.258925411794173e+02
	5.163527448917678e-06
	1.147087997172195e-07

 89	1.295686697517025e+02
	4.996390321081296e-06
	1.109639584934128e-07

 90	1.333521432163330e+02
	4.836540033607003e-06
	1.073847650920430e-07

 91	1.372460961007568e+02
	4.683664405365956e-06
	1.039638933397656e-07

 92	1.412537544622761e+02
	4.537462816980685e-06
	1.006943126650119e-07

 93	1.453784385607669e+02
	4.397645846993585e-06
	9.756927628971360e-08

 94	1.496235656094440e+02
	4.263934919170247e-06
	9.458231001914198e-08

 95	1.539926526059499e+02
	4.136061961112675e-06
	9.172720160116569e-08

 96	1.584893192461121e+02
	4.013769074212658e-06
	8.899799062616986e-08

 97	1.631172909227846e+02
	3.896808214865538e-06
	8.638895893877974e-08

 98	1.678804018122568e+02
	3.784940886738827e-06
	8.389462153253049e-08

 99	1.727825980507872e+02
	3.677937843795540e-06
	8.150971789867688e-08

 100	1.778279410038932e+02
	3.575578803694188e-06
	7.922920380049523e-08

 101	1.830206106311065e+02
	3.477652171104725e-06
	7.704824344470671e-08

 102	1.883649089489810e+02
	3.383954770428915e-06
	7.496220202209847e-08

 103	1.938652635952217e+02
	3.294291587369799e-06
	7.296663858999264e-08

 104	1.995262314968890e+02
	3.208475518773077e-06
	7.105729926998642e-08

 105	2.053525026457157e+02
	3.126327130128799e-06
	6.923011073531824e-08

 106	2.113489039836658e+02
	3.047674420146557e-06
	6.748117396331102e-08

 107	2.175204034019534e+02
	2.972352591801680e-06
	6.580675822963427e-08

 108	2.238721138568351e+02
	2.900203829289275e-06
	6.420329532251253e-08

 109	2.304092976055858e+02
	2.831077080344322e-06
	6.266737395658331e-08

 110	2.371373705661668e+02
	2.764827843430239e-06
	6.119573436773865e-08

 111	2.440619068041993e+02
	2.701317959338433e-06
	5.978526307203117e-08

 112	2.511886431509594e+02
	2.640415406802731e-06
	5.843298777349867e-08

 113	2.585234839562205e+02
	2.581994101775003e-06
	5.713607240757443e-08

 114	2.660725059798825e+02
	2.525933700080192e-06
	5.589181230853582e-08

 115	2.738419634264377e+02
	2.472119403213419e-06
	5.469762949120908e-08

 116	2.818382931264470e+02
	2.420441767104805e-06
	5.355106803883398e-08

 117	2.900681198693171e+02
	2.370796513732945e-06
	5.244978959059350e-08

 118	2.985382618917977e+02
	2.323084345519563e-06
	5.139156892380382e-08

 119	3.072557365267465e+02
	2.277210762476865e-06
	5.037428962712117e-08

 120	3.162277660168398e+02
	2.233085882134399e-06
	4.939593986234231e-08

 121	3.254617834980479e+02
	2.190624262294413e-06
	4.845460821344436e-08

 122	3.349654391578297e+02
	2.149744726706927e-06
	4.754847962242312e-08

 123	3.447466065731516e+02
	2.110370193772540e-06
	4.667583141225310e-08

 124	3.548133892335777e+02
	2.072427508401735e-06
	4.583502939789365e-08

 125	3.651741272548400e+02
	2.035847277173507e-06
	4.502452408673208e-08

 126	3.758374042884466e+02
	2.000563706941114e-06
	4.424284697017238e-08

 127	3.868120546330547e+02
	1.966514447035662e-06
	4.348860690827729e-08

 128	3.981071705534999e+02
	1.933640435217681e-06
	4.276048660945351e-08

 129	4.097321098135442e+02
	1.901885747515381e-06
	4.205723920714921e-08

 130	4.216965034285851e+02
	1.871197452086084e-06
	4.137768493542843e-08

 131	4.340102636447468e+02
	1.841525467214718e-06
	4.072070790510939e-08

 132	4.466835921509662e+02
	1.812822423561925e-06
	4.008525298191266e-08

 133	4.597269885308754e+02
	1.785043530741361e-06
	3.947032276778905e-08

 134	4.731512589614838e+02
	1.758146448301763e-06
	3.887497468627624e-08

 135	4.869675251658666e+02
	1.732091161165327e-06
	3.829831817239661e-08

 136	5.011872336272759e+02
	1.706839859554691e-06
	3.773951196726297e-08

 137	5.158221650723094e+02
	1.682356823423551e-06
	3.719776151720509e-08

 138	5.308844442309922e+02
	1.658608311389243e-06
	3.667231647688518e-08

 139	5.463865498818583e+02
	1.635562454146171e-06
	3.616246831553642e-08

 140	5.623413251903534e+02
	1.613189152324257e-06
	3.566754802514109e-08

 141	5.787619883491251e+02
	1.591459978740989e-06
	3.518692392907096e-08

 142	5.956621435290151e+02
	1.570348084981020e-06
	3.471999958943806e-08

 143	6.130557921498255e+02
	1.549828112227453e-06
	3.426621181116024e-08

 144	6.309573444801982e+02
	1.529876106253310e-06
	3.382502874052785e-08

 145	6.493816315762165e+02
	1.510469436478214e-06
	3.339594805586788e-08

 146	6.683439175686200e+02
	1.491586718979100e-06
	3.297849524773935e-08

 147	6.878599123088131e+02
	1.473207743343442e-06
	3.257222198596268e-08

 148	7.079457843841436e+02
	1.455313403247160e-06
	3.217670457067181e-08

 149	7.286181745132336e+02
	1.437885630628277e-06
	3.179154246450281e-08

 150	7.498942093324620e+02
	1.420907333332439e-06
	3.141635690296691e-08

 151	7.717915155850188e+02
	1.404362336100236e-06
	3.105078958002360e-08

 152	7.943282347242881e+02
	1.388235324763176e-06
	3.069450140584907e-08

 153	8.175230379436568e+02
	1.372511793518576e-06
	3.034717133379907e-08

 154	8.413951416452022e+02
	1.357177995150914e-06
	3.000849525357993e-08

 155	8.659643233600727e+02
	1.342220894070480e-06
	2.967818494767573e-08

 156	8.912509381337532e+02
	1.327628122038829e-06
	2.935596710812248e-08

 157	9.172759353897875e+02
	1.313387936457358e-06
	2.904158241077605e-08

 158	9.440608762859316e+02
	1.299489181090866e-06
	2.873478464428528e-08

 159	9.716279515771147e+02
	1.285921249110303e-06
	2.843533989105291e-08

 160	1.000000000000009e+03
	1.272674048332926e-06
	2.814302575754722e-08

 161	1.029200527194437e+03
	1.259737968546733e-06
	2.785763065140925e-08

 162	1.059253725177299e+03
	1.247103850810619e-06
	2.757895310288838e-08

 163	1.090184492385138e+03
	1.234762958621768e-06
	2.730680112822949e-08

 164	1.122018454301974e+03
	1.222706950847048e-06
	2.704099163272599e-08

 165	1.154781984689469e+03
	1.210927856323413e-06
	2.678134985124626e-08

 166	1.188502227437030e+03
	1.199418050028268e-06
	2.652770882413422e-08

 167	1.223207119049943e+03
	1.188170230732284e-06
	2.627990890647715e-08

 168	1.258925411794179e+03
	1.177177400048552e-06
	2.603779730882460e-08

 169	1.295686697517032e+03
	1.166432842791608e-06
	2.580122766753574e-08

 170	1.333521432163337e+03
	1.155930108573846e-06
	2.557005964301469e-08

 171	1.372460961007575e+03
	1.145662994556779e-06
	2.534415854418634e-08

 172	1.412537544622768e+03
	1.135625529295003e-06
	2.512339497764466e-08

 173	1.453784385607676e+03
	1.125811957594958e-06
	2.490764451998403e-08

 174	1.496235656094448e+03
	1.116216726334175e-06
	2.469678741191725e-08

 175	1.539926526059507e+03
	1.106834471171418e-06
	2.449070827283272e-08

 176	1.584893192461129e+03
	1.097660004097071e-06
	2.428929583454220e-08

 177	1.631172909227855e+03
	1.088688301762648e-06
	2.409244269302552e-08

 178	1.678804018122577e+03
	1.079914494543596e-06
	2.390004507704770e-08

 179	1.727825980507881e+03
	1.071333856280585e-06
	2.371200263258934e-08

 180	1.778279410038941e+03
	1.062941794657850e-06
	2.352821822208904e-08

 181	1.830206106311075e+03
	1.054733842170119e-06
	2.334859773755628e-08

 182	1.883649089489820e+03
	1.046705647641177e-06
	2.317304992666504e-08

 183	1.938652635952227e+03
	1.038852968248897e-06
	2.300148623099573e-08

 184	1.995262314968900e+03
	1.031171662026061e-06
	2.283382063563269e-08

 185	2.053525026457167e+03
	1.023657680795657e-06
	2.266996952938307e-08

 186	2.113489039836669e+03
	1.016307063511994e-06
	2.250985157491549e-08

 187	2.175204034019545e+03
	1.009115929972959e-06
	2.235338758816318e-08

 188	2.238721138568363e+03
	1.002080474875034e-06
	2.220050042638517e-08

 189	2.304092976055870e+03
	9.951969621814137e-07
	2.205111488429326e-08

 190	2.371373705661681e+03
	9.884617197792166e-07
	2.190515759770971e-08

 191	2.440619068042006e+03
	9.818711343960963e-07
	2.176255695424436e-08

 192	2.511886431509607e+03
	9.754216467562731e-07
	2.162324301050900e-08

 193	2.585234839562218e+03
	9.691097469494635e-07
	2.148714741542205e-08

 194	2.660725059798838e+03
	9.629319699947518e-07
	2.135420333917386e-08

 195	2.738419634264391e+03
	9.568848915747818e-07
	2.122434540747020e-08

 196	2.818382931264484e+03
	9.509651239239546e-07
	2.109750964066382e-08

 197	2.900681198693185e+03
	9.451693118497217e-07
	2.097363339743906e-08

 198	2.985382618917992e+03
	9.394941288709896e-07
	2.085265532271561e-08

 199	3.072557365267480e+03
	9.339362734553197e-07
	2.073451529946360e-08

 200	3.162277660168414e+03
	9.284924653403612e-07
	2.061915440415117e-08

 201	3.254617834980495e+03
	9.231594419228278e-07
	2.050651486554191e-08

 202	3.349654391578314e+03
	9.179339547024885e-07
	2.039654002660045e-08

 203	3.447466065731532e+03
	9.128127657649083e-07
	2.028917430926244e-08

 204	3.548133892335794e+03
	9.077926442934644e-07
	2.018436318185800e-08

 205	3.651741272548418e+03
	9.028703630952167e-07
	2.008205312896972e-08

 206	3.758374042884484e+03
	8.980426951312286e-07
	1.998219162353682e-08

 207	3.868120546330566e+03
	8.933064100394632e-07
	1.988472710103337e-08

 208	3.981071705535018e+03
	8.886582706413945e-07
	1.978960893553786e-08

 209	4.097321098135462e+03
	8.840950294220664e-07
	1.969678741754292e-08

 210	4.216965034285871e+03
	8.796134249751037e-07
	1.960621373336819e-08

 211	4.340102636447489e+03
	8.752101784065039e-07
	1.951783994601933e-08

 212	4.466835921509683e+03
	8.708819896884196e-07
	1.943161897738983e-08

 213	4.597269885308776e+03
	8.666255339580923e-07
	1.934750459166891e-08

 214	4.731512589614861e+03
	8.624374577572678e-07
	1.926545137985377e-08

 215	4.869675251658689e+03
	8.583143752076007e-07
	1.918541474526793e-08

 216	5.011872336272783e+03
	8.542528641193648e-07
	1.910735088998842e-08

 217	5.158221650723120e+03
	8.502494620322958e-07
	1.903121680208825e-08

 218	5.308844442309948e+03
	8.463006621879402e-07
	1.895697024363147e-08

 219	5.463865498818609e+03
	8.424029094354266e-07
	1.888456973932506e-08

 220	5.623413251903560e+03
	8.385525960722289e-07
	1.881397456578038e-08

 221	5.787619883491278e+03
	8.347460576261355e-07
	1.874514474130803e-08

 222	5.956621435290179e+03
	8.309795685836572e-07
	1.867804101619533e-08

 223	6.130557921498284e+03
	8.272493380744411e-07
	1.861262486341595e-08

 224	6.309573444802011e+03
	8.235515055208824e-07
	1.854885846971588e-08

 225	6.493816315762195e+03
	8.198821362694471e-07
	1.848670472704525e-08

 226	6.683439175686231e+03
	8.162372172159155e-07
	1.842612722428849e-08

 227	6.878599123088164e+03
	8.126126524469228e-07
	1.836709023926166e-08

 228	7.079457843841470e+03
	8.090042589186791e-07
	1.830955873094203e-08

 229	7.286181745132371e+03
	8.054077621987232e-07
	1.825349833191193e-08

 230	7.498942093324656e+03
	8.018187923004297e-07
	1.819887534097966e-08

 231	7.717915155850224e+03
	7.982328796449513e-07
	1.814565671596276e-08

 232	7.943282347242919e+03
	7.946454511869806e-07
	1.809381006662063e-08

 233	8.175230379436608e+03
	7.910518267488159e-07
	1.804330364770496e-08

 234	8.413951416452062e+03
	7.874472156097026e-07
	1.799410635213430e-08

 235	8.659643233600769e+03
	7.838267134034468e-07
	1.794618770426181e-08

 236	8.912509381337575e+03
	7.801852993828820e-07
	1.789951785324357e-08

 237	9.172759353897920e+03
	7.765178341161696e-07
	1.785406756649075e-08

 238	9.440608762859361e+03
	7.728190576840110e-07
	1.780980822320375e-08

 239	9.716279515771193e+03
	7.690835884556352e-07
	1.776671180798522e-08

 240	1.000000000000014e+04
	7.653059225242069e-07
	1.772475090452704e-08

 241	1.029200527194442e+04
	7.614804338929987e-07
	1.768389868938014e-08

 242	1.059253725177303e+04
	7.576013755044405e-07
	1.764412892579268e-08

 243	1.090184492385143e+04
	7.536628812160651e-07
	1.760541595763910e-08

 244	1.122018454301979e+04
	7.496589688268814e-07
	1.756773470342410e-08

 245	1.154781984689474e+04
	7.455835442681808e-07
	1.753106065037991e-08

 246	1.188502227437035e+04
	7.414304070739576e-07
	1.749536984866247e-08

 247	1.223207119049949e+04
	7.371932572513578e-07
	1.746063890564545e-08

 248	1.258925411794185e+04
	7.328657036734241e-07
	1.742684498032596e-08

 249	1.295686697517038e+04
	7.284412741184365e-07
	1.739396577785374e-08

 250	1.333521432163343e+04
	7.239134270793180e-07
	1.736197954418964e-08

 251	1.372460961007581e+04
	7.192755654645447e-07
	1.733086506090334e-08

 252	1.412537544622774e+04
	7.145210523092360e-07
	1.730060164013147e-08

 253	1.453784385607682e+04
	7.096432286053761e-07
	1.727116911969492e-08

 254	1.496235656094455e+04
	7.046354333546381e-07
	1.724254785840053e-08

 255	1.539926526059514e+04
	6.994910259320225e-07
	1.721471873154140e-08

 256	1.584893192461136e+04
	6.942034108338465e-07
	1.718766312660044e-08

 257	1.631172909227862e+04
	6.887660648650707e-07
	1.716136293918875e-08

 258	1.678804018122584e+04
	6.831725667971507e-07
	1.713580056922266e-08

 259	1.727825980507888e+04
	6.774166295008189e-07
	1.711095891736909e-08

 260	1.778279410038948e+04
	6.714921345284255e-07
	1.708682138177120e-08

 261	1.830206106311082e+04
	6.653931690843928e-07
	1.706337185507584e-08

 262	1.883649089489827e+04
	6.591140652841640e-07
	1.704059472178673e-08

 263	1.938652635952235e+04
	6.526494415611323e-07
	1.701847485597027e-08

 264	1.995262314968908e+04
	6.459942460334977e-07
	1.699699761932214e-08

