Title: * sky130 bjt 2-stage ppa sweep ac: ce1 -> ce2 -> output rebias -> ideal opamp follower -> two rc poles
Date: Sat May 23 01:13:31  2026
Command: ngspice-46, Build Mar 29 2026   15:02:07
Plotname: AC Analysis
Flags: complex
No. Variables: 11
No. Points: 721
Variables:
	0	frequency	frequency grid=3
	1	v(vin)	voltage
	2	v(b1_collector)	voltage
	3	v(b2_collector)	voltage
	4	v(vout_drv)	voltage
	5	v(vfilt1)	voltage
	6	v(vout_final)	voltage
	7	gain	notype
	8	gain_vv	notype
	9	gain_db	decibel
	10	phase_deg	phase
Values:
 0	1.000000000000000e-03,0.000000000000000e+00
	1.000000000000000e+00,0.000000000000000e+00
	-1.707171602314257e-07,-1.114299835754098e-03
	-1.241664112309791e-06,3.353865861936896e-10
	-2.279121169111154e-13,-3.900802137451499e-10
	-2.279231461693196e-13,-3.900802137387055e-10
	-2.279287833457349e-13,-3.900802137354116e-10
	-2.279287833457349e-13,-3.900802137354116e-10
	3.900802803262358e-10,0.0
	-1.881769200792278e+02,0.0
	-1.571380639326986e+00,0.0

 1	1.029200527194428e-03,0.000000000000000e+00
	1.000000000000000e+00,0.000000000000000e+00
	-1.808327876755143e-07,-1.146837976816211e-03
	-1.315237331994331e-06,3.656332543464385e-10
	-2.557215988957804e-13,-4.252593937669805e-10
	-2.557339739268467e-13,-4.252593937595386e-10
	-2.557402989427250e-13,-4.252593937557349e-10
	-2.557402989427250e-13,-4.252593937557349e-10
	4.252594706536183e-10,0.0
	-1.874269201148343e+02,0.0
	-1.571397701560201e+00,0.0

 2	1.059253725177289e-03,0.000000000000000e+00
	1.000000000000000e+00,0.000000000000000e+00
	-1.915478036975594e-07,-1.180326248607633e-03
	-1.393170038483454e-06,3.986077027775219e-10
	-2.869243504655013e-13,-4.636111893462288e-10
	-2.869382354785213e-13,-4.636111893376350e-10
	-2.869453322629537e-13,-4.636111893332426e-10
	-2.869453322629537e-13,-4.636111893332426e-10
	4.636112781335323e-10,0.0
	-1.866769201525475e+02,0.0
	-1.571415262019550e+00,0.0

 3	1.090184492385128e-03,0.000000000000000e+00
	1.000000000000000e+00,0.000000000000000e+00
	-2.028977242998094e-07,-1.214792395433326e-03
	-1.475720547543941e-06,4.345559349453168e-10
	-3.219344130503450e-13,-5.054217210613659e-10
	-3.219499922909431e-13,-5.054217210514419e-10
	-3.219579550139155e-13,-5.054217210463696e-10
	-3.219579550139155e-13,-5.054217210463696e-10
	5.054218235913434e-10,0.0
	-1.859269201924981e+02,0.0
	-1.571433335253495e+00,0.0

 4	1.122018454301964e-03,0.000000000000000e+00
	1.000000000000000e+00,0.000000000000000e+00
	-2.149201699396072e-07,-1.250264971745775e-03
	-1.563162481107678e-06,4.737461400026369e-10
	-3.612163487611121e-13,-5.510029131081271e-10
	-3.612338289562719e-13,-5.510029130966673e-10
	-3.612427632782425e-13,-5.510029130908098e-10
	-3.612427632782425e-13,-5.510029130908098e-10
	5.510030315078969e-10,0.0
	-1.851769202348144e+02,0.0
	-1.571451936235317e+00,0.0

 5	1.154781984689459e-03,0.000000000000000e+00
	1.000000000000000e+00,0.000000000000000e+00
	-2.276549902259855e-07,-1.286773365801151e-03
	-1.655785674215219e-06,5.164706936007073e-10
	-4.052914048411898e-13,-6.006948203812276e-10
	-4.053110179423930e-13,-6.006948203679937e-10
	-4.053210424163412e-13,-6.006948203612297e-10
	-4.053210424163412e-13,-6.006948203612297e-10
	6.006949571071471e-10,0.0
	-1.844269202796389e+02,0.0
	-1.571471080375524e+00,0.0

 6	1.188502227437019e-03,0.000000000000000e+00
	1.000000000000000e+00,0.000000000000000e+00
	-2.411443960052120e-07,-1.324347824006889e-03
	-1.753897135703578e-06,5.630483391363630e-10
	-4.547444302959133e-13,-6.548681654237892e-10
	-4.547664365569922e-13,-6.548681654085071e-10
	-4.547776842015437e-13,-6.548681654006960e-10
	-4.547776842015437e-13,-6.548681654006960e-10
	6.548683233124163e-10,0.0
	-1.836769203271191e+02,0.0
	-1.571490783534620e+00,0.0

 7	1.223207119049932e-03,0.000000000000000e+00
	1.000000000000000e+00,0.000000000000000e+00
	-2.554330992727555e-07,-1.363019475979824e-03
	-1.857822065815287e-06,6.138265657126916e-10
	-5.102316364769537e-13,-7.139271041686118e-10
	-5.102563279074987e-13,-7.139271041509642e-10
	-5.102689479719993e-13,-7.139271041419441e-10
	-5.102689479719993e-13,-7.139271041419441e-10
	7.139272864955517e-10,0.0
	-1.829269203774135e+02,0.0
	-1.571511062036242e+00,0.0

 8	1.258925411794168e-03,0.000000000000000e+00
	1.000000000000000e+00,0.000000000000000e+00
	-2.705684613756827e-07,-1.402820360336447e-03
	-1.967904934106531e-06,6.691842005555739e-10
	-5.724893046010501e-13,-7.783122411064669e-10
	-5.725170088411955e-13,-7.783122410860878e-10
	-5.725311687861586e-13,-7.783122410756717e-10
	-5.725311687861586e-13,-7.783122410756717e-10
	7.783124516543300e-10,0.0
	-1.821769204306877e+02,0.0
	-1.571531932680686e+00,0.0

 9	1.295686697517020e-03,0.000000000000000e+00
	1.000000000000000e+00,0.000000000000000e+00
	-2.866006499964606e-07,-1.443783451235882e-03
	-2.084510621223647e-06,7.295342352252779e-10
	-6.423435557453929e-13,-8.485039163744188e-10
	-6.423746404133982e-13,-8.485039163508854e-10
	-6.423905281326007e-13,-8.485039163388569e-10
	-6.423905281326007e-13,-8.485039163388569e-10
	8.485041595112947e-10,0.0
	-1.814269204871176e+02,0.0
	-1.571553412758824e+00,0.0

 10	1.333521432163325e-03,0.000000000000000e+00
	1.000000000000000e+00,0.000000000000000e+00
	-3.035828054387608e-07,-1.485942685698231e-03
	-2.208025628333972e-06,7.953269067082961e-10
	-7.207213129616104e-13,-9.250257892875543e-10
	-7.207561905319260e-13,-9.250257892603784e-10
	-7.207740168456426e-13,-9.250257892464883e-10
	-7.207740168456426e-13,-9.250257892464883e-10
	9.250260700576347e-10,0.0
	-1.806769205468923e+02,0.0
	-1.571575520066429e+00,0.0

 11	1.372460961007563e-03,0.000000000000000e+00
	1.000000000000000e+00,0.000000000000000e+00
	-3.215712167661728e-07,-1.529332991720285e-03
	-2.338859358222179e-06,8.670530563768572e-10
	-8.086626009695925e-13,-1.008448745049615e-09
	-8.087017342461385e-13,-1.008448745018232e-09
	-8.087217356985952e-13,-1.008448745002192e-09
	-8.087217356985952e-13,-1.008448745002192e-09
	1.008449069277840e-09,0.0
	-1.799269206102069e+02,0.0
	-1.571598272918920e+00,0.0

 12	1.412537544622755e-03,0.000000000000000e+00
	1.000000000000000e+00,0.000000000000000e+00
	-3.406255083777084e-07,-1.573990317212082e-03
	-2.477445472291011e-06,9.452477918720081e-10
	-9.073343466375637e-13,-1.099395153784916e-09
	-9.073782548948501e-13,-1.099395153748676e-09
	-9.074006968930183e-13,-1.099395153730154e-09
	-9.074006968930183e-13,-1.099395153730154e-09
	1.099395528197824e-09,0.0
	-1.791769206772759e+02,0.0
	-1.571621690166535e+00,0.0

 13	1.453784385607663e-03,0.000000000000000e+00
	1.000000000000000e+00,0.000000000000000e+00
	-3.608088376391065e-07,-1.619951659779734e-03
	-2.624243327976635e-06,1.030494479235002e-09
	-1.018045863376499e-12,-1.198543513670678e-09
	-1.018095129250073e-12,-1.198543513628829e-09
	-1.018120309585455e-12,-1.198543513607439e-09
	-1.018120309585455e-12,-1.198543513607439e-09
	1.198543946035952e-09,0.0
	-1.784269207483176e+02,0.0
	-1.571645791209945e+00,0.0

 14	1.496235656094435e-03,0.000000000000000e+00
	1.000000000000000e+00,0.000000000000000e+00
	-3.821881042236604e-07,-1.667255097375658e-03
	-2.779739501328014e-06,1.123429095063100e-09
	-1.142266224911194e-12,-1.306633512802745e-09
	-1.142321502128851e-12,-1.306633512754419e-09
	-1.142349754928987e-12,-1.306633512729718e-09
	-1.142349754928987e-12,-1.306633512729718e-09
	1.306634012090365e-09,0.0
	-1.776769208235684e+02,0.0
	-1.571670596016334e+00,0.0

 15	1.539926526059493e-03,0.000000000000000e+00
	1.000000000000000e+00,0.000000000000000e+00
	-4.048341718578727e-07,-1.715939819845464e-03
	-2.944449399809005e-06,1.224744971164177e-09
	-1.281643758971280e-12,-1.424471547563111e-09
	-1.281705781027619e-12,-1.424471547507304e-09
	-1.281737481189748e-12,-1.424471547478780e-09
	-1.281737481189748e-12,-1.424471547478780e-09
	1.424472124131449e-09,0.0
	-1.769269209032791e+02,0.0
	-1.571696125135934e+00,0.0

 16	1.584893192461115e-03,0.000000000000000e+00
	1.000000000000000e+00,0.000000000000000e+00
	-4.288221032064064e-07,-1.766046161396176e-03
	-3.118918970664652e-06,1.335197967105331e-09
	-1.438027919569407e-12,-1.552936738656437e-09
	-1.438097509458848e-12,-1.552936738591992e-09
	-1.438133077624561e-12,-1.552936738559053e-09
	-1.438133077624561e-12,-1.552936738559053e-09
	1.552937404467153e-09,0.0
	-1.761769209877132e+02,0.0
	-1.571722399719051e+00,0.0

 17	1.631172909227840e-03,0.000000000000000e+00
	1.000000000000000e+00,0.000000000000000e+00
	-4.542314086741793e-07,-1.817615634010735e-03
	-3.303726510512602e-06,1.455612109244105e-09
	-1.613493828096816e-12,-1.692987489696442e-09
	-1.613571909234214e-12,-1.692987489622022e-09
	-1.613611817371106e-12,-1.692987489583985e-09
	-1.613611817371106e-12,-1.692987489583985e-09
	1.692988258562647e-09,0.0
	-1.754269210771495e+02,0.0
	-1.571749441533595e+00,0.0

 18	1.678804018122562e-03,0.000000000000000e+00
	1.000000000000000e+00,0.000000000000000e+00
	-4.811463099517344e-07,-1.870690961840581e-03
	-3.499484582159040e-06,1.586885738312203e-09
	-1.810369808881042e-12,-1.845668637272006e-09
	-1.810457417354822e-12,-1.845668637186067e-09
	-1.810502195019198e-12,-1.845668637142143e-09
	-1.810502195019198e-12,-1.845668637142143e-09
	1.845669525144828e-09,0.0
	-1.746769211718844e+02,0.0
	-1.571777272983103e+00,0.0

 19	1.727825980507865e-03,0.000000000000000e+00
	1.000000000000000e+00,0.000000000000000e+00
	-5.096560191755949e-07,-1.925316116599752e-03
	-3.706842044992756e-06,1.729998211415703e-09
	-2.031268284584907e-12,-2.012119245834918e-09
	-2.031366582905304e-12,-2.012119245735678e-09
	-2.031416824269062e-12,-2.012119245684955e-09
	-2.031416824269062e-12,-2.012119245684955e-09
	2.012120271134434e-09,0.0
	-1.739269212722336e+02,0.0
	-1.571805917125309e+00,0.0

 20	1.778279410038925e-03,0.000000000000000e+00
	1.000000000000000e+00,0.000000000000000e+00
	-5.398550346312073e-07,-1.981536353995701e-03
	-3.926486205689317e-06,1.886017208452506e-09
	-2.279120441409789e-12,-2.193581105562843e-09
	-2.279230733934621e-12,-2.193581105448242e-09
	-2.279287105669534e-12,-2.193581105389668e-09
	-2.279287105669534e-12,-2.193581105389668e-09
	2.193582289560223e-09,0.0
	-1.731769213785285e+02,0.0
	-1.571835397691240e+00,0.0

 21	1.830206106311058e-03,0.000000000000000e+00
	1.000000000000000e+00,0.000000000000000e+00
	-5.718434539759117e-07,-2.039398251220769e-03
	-4.159145096348017e-06,2.056106697451802e-09
	-2.557215124083673e-12,-2.391407996591069e-09
	-2.557338874326344e-12,-2.391407996458730e-09
	-2.557402124450374e-12,-2.391407996391090e-09
	-2.557402124450374e-12,-2.391407996391090e-09
	2.391409363849877e-09,0.0
	-1.724269214911219e+02,0.0
	-1.571865739104880e+00,0.0

 22	1.883649089489803e-03,0.000000000000000e+00
	1.000000000000000e+00,0.000000000000000e+00
	-6.057273060227126e-07,-2.098949745540641e-03
	-4.405589887618825e-06,2.241535618265747e-09
	-2.869242476749419e-12,-2.607075788730339e-09
	-2.869381326798808e-12,-2.607075788577517e-09
	-2.869452294601828e-12,-2.607075788499407e-09
	-2.869452294601828e-12,-2.607075788499407e-09
	2.607077367616135e-09,0.0
	-1.716769216103872e+02,0.0
	-1.571896966503403e+00,0.0

 23	1.938652635952210e-03,0.000000000000000e+00
	1.000000000000000e+00,0.000000000000000e+00
	-6.416189021826318e-07,-2.160240174008327e-03
	-4.666637444814337e-06,2.443687349392837e-09
	-3.219342908835507e-12,-2.842193452015906e-09
	-3.219498701145445e-12,-2.842193451839429e-09
	-3.219578328326079e-12,-2.842193451749229e-09
	-3.219578328326079e-12,-2.842193451749229e-09
	2.842195275284724e-09,0.0
	-1.709269217367201e+02,0.0
	-1.571929105758002e+00,0.0

 24	1.995262314968882e-03,0.000000000000000e+00
	1.000000000000000e+00,0.000000000000000e+00
	-6.796372087315359e-07,-2.223320314338130e-03
	-4.943153035480980e-06,2.664070028561814e-09
	-3.612162035655661e-12,-3.098515060230858e-09
	-3.612336837493112e-12,-3.098515060027065e-09
	-3.612426180654474e-12,-3.098515059922904e-09
	-3.612426180654474e-12,-3.098515059922904e-09
	3.098517165708776e-09,0.0
	-1.701769218705381e+02,0.0
	-1.571962183495315e+00,0.0

 25	2.053525026457149e-03,0.000000000000000e+00
	1.000000000000000e+00,0.000000000000000e+00
	-7.199082411351919e-07,-2.288242426973136e-03
	-5.236053197399330e-06,2.904327804069172e-09
	-4.052912322758815e-12,-3.377952876950624e-09
	-4.053108453635182e-12,-3.377952876715288e-09
	-4.053208698305323e-12,-3.377952876595005e-09
	-4.053208698305323e-12,-3.377952876595005e-09
	3.377955308318513e-09,0.0
	-1.694269220122869e+02,0.0
	-1.571996227119490e+00,0.0

 26	2.113489039836650e-03,0.000000000000000e+00
	1.000000000000000e+00,0.000000000000000e+00
	-7.625654817397084e-07,-2.355060298381712e-03
	-5.546308776531965e-06,3.166253100817217e-09
	-4.547442252017964e-12,-3.682591621741999e-09
	-4.547662314467517e-12,-3.682591621470239e-09
	-4.547774790830619e-12,-3.682591621331337e-09
	-4.547774790830619e-12,-3.682591621331337e-09
	3.682594429441737e-09,0.0
	-1.686769221624307e+02,0.0
	-1.572031264834888e+00,0.0

 27	2.175204034019526e-03,0.000000000000000e+00
	1.000000000000000e+00,0.000000000000000e+00
	-8.077503222106203e-07,-2.423829285616297e-03
	-5.874948144961268e-06,3.451799992543867e-09
	-5.102313927221867e-12,-4.014704022929025e-09
	-5.102560841335687e-12,-4.014704022615201e-09
	-5.102687041882747e-12,-4.014704022454800e-09
	-5.102687041882747e-12,-4.014704022454800e-09
	4.014707265209980e-09,0.0
	-1.679269223214736e+02,0.0
	-1.572067325669446e+00,0.0

 28	2.238721138568343e-03,0.000000000000000e+00
	1.000000000000000e+00,0.000000000000000e+00
	-8.556125321889781e-07,-2.494606362174833e-03
	-6.223060609525589e-06,3.763098780036286e-09
	-5.724890148979917e-12,-4.376767772980904e-09
	-5.725167191153617e-12,-4.376767772618505e-09
	-5.725308790486839e-12,-4.376767772433277e-09
	-5.725308790486839e-12,-4.376767772433277e-09
	4.376771517108392e-09,0.0
	-1.671769224899403e+02,0.0
	-1.572104439498730e+00,0.0

 29	2.304092976055850e-03,0.000000000000000e+00
	1.000000000000000e+00,0.000000000000000e+00
	-9.063107557175049e-07,-2.567450165202483e-03
	-6.591800022408044e-06,4.102471884057624e-09
	-6.423432114326366e-12,-4.771484012985007e-09
	-6.423742960735734e-12,-4.771484012566517e-09
	-6.423901837789406e-12,-4.771484012352619e-09
	-6.423901837789406e-12,-4.771484012352619e-09
	4.771488336635799e-09,0.0
	-1.664269226683891e+02,0.0
	-1.572142637070681e+00,0.0

 30	2.371373705661660e-03,0.000000000000000e+00
	1.000000000000000e+00,0.000000000000000e+00
	-9.600130370797127e-07,-2.642421044067825e-03
	-6.982388605672916e-06,4.472451171571101e-09
	-7.207209037452214e-12,-5.201797484121468e-09
	-7.207557812833660e-12,-5.201797483638204e-09
	-7.207736075806394e-12,-5.201797483391198e-09
	-7.207736075806394e-12,-5.201797483391198e-09
	5.201802476995291e-09,0.0
	-1.656769228574113e+02,0.0
	-1.572181950031092e+00,0.0

 31	2.440619068041985e-03,0.000000000000000e+00
	1.000000000000000e+00,0.000000000000000e+00
	-1.016897377798940e-06,-2.719581110361221e-03
	-7.396121002415871e-06,4.875796844518966e-09
	-8.086621146149150e-12,-5.670918496467178e-09
	-8.087012478532258e-12,-5.670918495909112e-09
	-8.087212492861397e-12,-5.670918495623875e-09
	-8.087212492861397e-12,-5.670918495623875e-09
	5.670924262147649e-09,0.0
	-1.649269230576339e+02,0.0
	-1.572222410949824e+00,0.0

 32	2.511886431509585e-03,0.000000000000000e+00
	1.000000000000000e+00,0.000000000000000e+00
	-1.077152326640241e-06,-2.798994289350897e-03
	-7.834368567955611e-06,5.315518032068750e-09
	-9.073337686037403e-12,-6.182346879021055e-09
	-9.073776768155842e-12,-6.182346878376611e-09
	-9.074001187905258e-12,-6.182346878047225e-09
	-9.074001187905258e-12,-6.182346878047225e-09
	6.182353537124662e-09,0.0
	-1.641769232697240e+02,0.0
	-1.572264053347789e+00,0.0

 33	2.585234839562196e-03,0.000000000000000e+00
	1.000000000000000e+00,0.000000000000000e+00
	-1.140977604573237e-06,-2.880726372943339e-03
	-8.298583915308399e-06,5.794895239973844e-09
	-1.018045176382337e-11,-6.739898089637042e-09
	-1.018094442201902e-11,-6.739898088892850e-09
	-1.018119622509680e-11,-6.739898088512479e-09
	-1.018119622509680e-11,-6.739898088512479e-09
	6.739905778294734e-09,0.0
	-1.634269234943758e+02,0.0
	-1.572306911724720e+00,0.0

 34	2.660725059798815e-03,0.000000000000000e+00
	1.000000000000000e+00,0.000000000000000e+00
	-1.208584766763472e-06,-2.964845074186223e-03
	-8.790305729957256e-06,6.317504824477657e-09
	-1.142265408417215e-11,-7.347731679607328e-09
	-1.142320685570682e-11,-7.347731678747945e-09
	-1.142348938338009e-11,-7.347731678308700e-09
	-1.142348938338009e-11,-7.347731678308700e-09
	7.347740558330219e-09,0.0
	-1.626769237323402e+02,0.0
	-1.572351021587752e+00,0.0

 35	2.738419634264367e-03,0.000000000000000e+00
	1.000000000000000e+00,0.000000000000000e+00
	-1.280197903792303e-06,-3.051420083367349e-03
	-9.311163869953966e-06,6.887245673419474e-09
	-1.281642788566388e-11,-8.010382325308878e-09
	-1.281704810546438e-11,-8.010382324316479e-09
	-1.281736510669574e-11,-8.010382323809249e-09
	-1.281736510669574e-11,-8.010382323809249e-09
	8.010392578297517e-09,0.0
	-1.619269239844066e+02,0.0
	-1.572396419480841e+00,0.0

 36	2.818382931264460e-03,0.000000000000000e+00
	1.000000000000000e+00,0.000000000000000e+00
	-1.356054384425196e-06,-3.140523125750056e-03
	-9.862884768197493e-06,7.508368293537613e-09
	-1.438026766241303e-11,-8.732793658367575e-09
	-1.438096356040074e-11,-8.732793657221569e-09
	-1.438131924159445e-11,-8.732793656635827e-09
	-1.438131924159445e-11,-8.732793656635827e-09
	8.732805498333400e-09,0.0
	-1.611769242514079e+02,0.0
	-1.572443143015034e+00,0.0

 37	2.900681198693160e-03,0.000000000000000e+00
	1.000000000000000e+00,0.000000000000000e+00
	-1.436405642389952e-06,-3.232228020991740e-03
	-1.044729715480747e-05,8.185506520984415e-09
	-1.613492457363918e-11,-9.520355146726635e-09
	-1.613570538393555e-11,-9.520355145403252e-09
	-1.613610446475368e-11,-9.520355144726846e-09
	-1.613610446475368e-11,-9.520355144726846e-09
	9.520368819304965e-09,0.0
	-1.604269245342300e+02,0.0
	-1.572491230899634e+00,0.0

 38	2.985382618917966e-03,0.000000000000000e+00
	1.000000000000000e+00,0.000000000000000e+00
	-1.521518009777413e-06,-3.326610744301832e-03
	-1.106633811857654e-05,8.923712091641168e-09
	-1.810368179761857e-11,-1.037894230177169e-08
	-1.810455788107562e-11,-1.037894230024348e-08
	-1.810500565706477e-11,-1.037894229946238e-08
	-1.810500565706477e-11,-1.037894229946238e-08
	1.037895809061773e-08,0.0
	-1.596769248338107e+02,0.0
	-1.572540722974263e+00,0.0

 39	3.072557365267454e-03,0.000000000000000e+00
	1.000000000000000e+00,0.000000000000000e+00
	-1.611673599820245e-06,-3.423749489380685e-03
	-1.172205952757476e-05,9.728492329122936e-09
	-2.031266348372868e-11,-1.131496051144755e-08
	-2.031364646541048e-11,-1.131496050968279e-08
	-2.031414887827004e-11,-1.131496050878079e-08
	-2.031414887827004e-11,-1.131496050878079e-08
	1.131497874412115e-08,0.0
	-1.589269251511441e+02,0.0
	-1.572591660241870e+00,0.0

 40	3.162277660168387e-03,0.000000000000000e+00
	1.000000000000000e+00,0.000000000000000e+00
	-1.707171241983572e-06,-3.523724733201304e-03
	-1.241663483020427e-05,1.060585123166249e-08
	-2.279118140218133e-11,-1.233539282638195e-08
	-2.279228432562054e-11,-1.233539282434403e-08
	-2.279284804204501e-11,-1.233539282330242e-08
	-2.279284804204501e-11,-1.233539282330242e-08
	1.233541388114330e-08,0.0
	-1.581769254872770e+02,0.0
	-1.572644084902699e+00,0.0

 41	3.254617834980467e-03,0.000000000000000e+00
	1.000000000000000e+00,0.000000000000000e+00
	-1.808327472457264e-06,-3.626619302675918e-03
	-1.315236625920014e-05,1.156233426433782e-08
	-2.557212389111836e-11,-1.344785205545948e-08
	-2.557336139139494e-11,-1.344785205310614e-08
	-2.557399389153627e-11,-1.344785205190330e-08
	-2.557399389153627e-11,-1.344785205190330e-08
	1.344787636911655e-08,0.0
	-1.574269258433308e+02,0.0
	-1.572698040389250e+00,0.0

 42	3.349654391578285e-03,0.000000000000000e+00
	1.000000000000000e+00,0.000000000000000e+00
	-1.915477583345800e-06,-3.732518443277986e-03
	-1.393169246254814e-05,1.260507719092526e-08
	-2.869239226229789e-11,-1.466063755957295e-08
