Title: * sky130 bjt 2-stage ppa sweep ac: ce1 -> ce2 -> output rebias -> ideal opamp follower -> two rc poles
Date: Sat May 23 01:13:31  2026
Command: ngspice-46, Build Mar 29 2026   15:02:07
Plotname: AC Analysis
Flags: complex
No. Variables: 11
No. Points: 721
Variables:
	0	frequency	frequency grid=3
	1	v(vin)	voltage
	2	v(b1_collector)	voltage
	3	v(b2_collector)	voltage
	4	v(vout_drv)	voltage
	5	v(vfilt1)	voltage
	6	v(vout_final)	voltage
	7	gain	notype
	8	gain_vv	notype
	9	gain_db	decibel
	10	phase_deg	phase
Values:
 0	1.000000000000000e-03,0.000000000000000e+00
	1.000000000000000e+00,0.000000000000000e+00
	-1.795288361613967e-07,-9.571147279957642e-04
	-9.160685868584341e-07,3.103765623015773e-10
	-1.879199998159256e-13,-2.877913752290750e-10
	-1.879284081623381e-13,-2.877913752235843e-10
	-1.879327479540349e-13,-2.877913752207503e-10
	-1.879327479540349e-13,-2.877913752207503e-10
	2.877914365824120e-10,0.0
	-1.908184426583243e+02,0.0
	-1.571449344006050e+00,0.0

 1	1.029200527194428e-03,0.000000000000000e+00
	1.000000000000000e+00,0.000000000000000e+00
	-1.901665880844943e-07,-9.850629805856087e-04
	-9.703490581179687e-07,3.383677138068565e-10
	-2.108497055744222e-13,-3.137456888770230e-10
	-2.108591398941037e-13,-3.137456888706824e-10
	-2.108640092203908e-13,-3.137456888674098e-10
	-2.108640092203908e-13,-3.137456888674098e-10
	3.137457597267506e-10,0.0
	-1.900684426992041e+02,0.0
	-1.571468412452018e+00,0.0

 2	1.059253725177289e-03,0.000000000000000e+00
	1.000000000000000e+00,0.000000000000000e+00
	-2.014346663882996e-07,-1.013827336700353e-03
	-1.027845848890908e-06,3.688832329142985e-10
	-2.365772581817845e-13,-3.420406782847222e-10
	-2.365878436623765e-13,-3.420406782774002e-10
	-2.365933071362303e-13,-3.420406782736211e-10
	-2.365933071362303e-13,-3.420406782736211e-10
	3.420407601007104e-10,0.0
	-1.893184427425010e+02,0.0
	-1.571488037706583e+00,0.0

 3	1.090184492385128e-03,0.000000000000000e+00
	1.000000000000000e+00,0.000000000000000e+00
	-2.133704202528855e-07,-1.043431626975995e-03
	-1.088749538013931e-06,4.021507784051372e-10
	-2.654440465091750e-13,-3.728874359767589e-10
	-2.654559236135157e-13,-3.728874359683036e-10
	-2.654620537318851e-13,-3.728874359639396e-10
	-2.654620537318851e-13,-3.728874359639396e-10
	3.728875304563872e-10,0.0
	-1.885684427883668e+02,0.0
	-1.571508236028843e+00,0.0

 4	1.122018454301964e-03,0.000000000000000e+00
	1.000000000000000e+00,0.000000000000000e+00
	-2.260134119359237e-07,-1.073900377914933e-03
	-1.153261996822115e-06,4.384185403484700e-10
	-2.978331151561386e-13,-4.065160917302315e-10
	-2.978464414861180e-13,-4.065160917204674e-10
	-2.978533195919137e-13,-4.065160917154279e-10
	-2.978533195919137e-13,-4.065160917154279e-10
	4.065162008336029e-10,0.0
	-1.878184428369489e+02,0.0
	-1.571529024152668e+00,0.0

 5	1.154781984689459e-03,0.000000000000000e+00
	1.000000000000000e+00,0.000000000000000e+00
	-2.394055479052543e-07,-1.105258832204270e-03
	-1.221597058267877e-06,4.779570917030893e-10
	-3.341742472147623e-13,-4.431775294357222e-10
	-3.341891996026008e-13,-4.431775294244469e-10
	-3.341969169640658e-13,-4.431775294186273e-10
	-3.341969169640658e-13,-4.431775294186273e-10
	4.431776554263285e-10,0.0
	-1.870684428884119e+02,0.0
	-1.571550419300568e+00,0.0

 6	1.188502227437019e-03,0.000000000000000e+00
	1.000000000000000e+00,0.000000000000000e+00
	-2.535912177422475e-07,-1.137532969629347e-03
	-1.293981225692089e-06,5.210614069072369e-10
	-3.749496672256661e-13,-4.831452587935774e-10
	-3.749664440803689e-13,-4.831452587805568e-10
	-3.749751031021509e-13,-4.831452587738365e-10
	-3.749751031021509e-13,-4.831452587738365e-10
	4.831454042852580e-10,0.0
	-1.863184429429228e+02,0.0
	-1.571572439197955e+00,0.0

 7	1.223207119049932e-03,0.000000000000000e+00
	1.000000000000000e+00,0.000000000000000e+00
	-2.686174412752540e-07,-1.170749528596860e-03
	-1.370654423588648e-06,5.680530625117522e-10
	-4.207004399980837e-13,-5.267174558062846e-10
	-4.207192639382044e-13,-5.267174557912488e-10
	-4.207289795202020e-13,-5.267174557834883e-10
	-4.207289795202020e-13,-5.267174557834883e-10
	5.267176238174541e-10,0.0
	-1.855684430006643e+02,0.0
	-1.571595102087835e+00,0.0

 8	1.258925411794168e-03,0.000000000000000e+00
	1.000000000000000e+00,0.000000000000000e+00
	-2.845340244315071e-07,-1.204936028287008e-03
	-1.451870792857718e-06,6.192826362779126e-10
	-4.720336502044719e-13,-5.742191872921627e-10
	-4.720547710121220e-13,-5.742191872747995e-10
	-4.720656720741348e-13,-5.742191872658378e-10
	-4.720656720741348e-13,-5.742191872658378e-10
	5.742193813084317e-10,0.0
	-1.848184430618250e+02,0.0
	-1.571618426745916e+00,0.0

 9	1.295686697517020e-03,0.000000000000000e+00
	1.000000000000000e+00,0.000000000000000e+00
	-3.013937243236139e-07,-1.240120791452101e-03
	-1.537899533177139e-06,6.751323226345061e-10
	-5.296304580160334e-13,-6.260048360136629e-10
	-5.296541559513353e-13,-6.260048359936124e-10
	-5.296663871437491e-13,-6.260048359832635e-10
	-5.296663871437491e-13,-6.260048359832635e-10
	6.260050600601519e-10,0.0
	-1.840684431266118e+02,0.0
	-1.571642432496168e+00,0.0

 10	1.333521432163325e-03,0.000000000000000e+00
	1.000000000000000e+00,0.000000000000000e+00
	-3.192524241182597e-07,-1.276332967881371e-03
	-1.629025795291131e-06,7.360187840107403e-10
	-5.942551376749269e-13,-6.824607445152890e-10
	-5.942817271948906e-13,-6.824607444921349e-10
	-5.942954508180975e-13,-6.824607444801841e-10
	-5.942954508180975e-13,-6.824607444801841e-10
	6.824610032401339e-10,0.0
	-1.833184431952383e+02,0.0
	-1.571667139226826e+00,0.0

 11	1.372460961007563e-03,0.000000000000000e+00
	1.000000000000000e+00,0.000000000000000e+00
	-3.381693182663684e-07,-1.313602558550583e-03
	-1.725551626167797e-06,8.023962593134669e-10
	-6.667652189369647e-13,-7.440080973927925e-10
	-6.667950528681349e-13,-7.440080973660545e-10
	-6.668104510261581e-13,-7.440080973522539e-10
	-6.668104510261581e-13,-7.440080973522539e-10
	7.440083961635773e-10,0.0
	-1.825684432679282e+02,0.0
	-1.571692567406876e+00,0.0

 12	1.412537544622755e-03,0.000000000000000e+00
	1.000000000000000e+00,0.000000000000000e+00
	-3.582071087085709e-07,-1.351960440476356e-03
	-1.827796970158295e-06,8.747599527392878e-10
	-7.481228659549972e-13,-8.111060634962296e-10
	-7.481563401752414e-13,-8.111060634653533e-10
	-7.481736171921412e-13,-8.111060634494167e-10
	-7.481736171921412e-13,-8.111060634494167e-10
	8.111064085113436e-10,0.0
	-1.818184433449293e+02,0.0
	-1.571718738103003e+00,0.0

 13	1.453784385607663e-03,0.000000000000000e+00
	1.000000000000000e+00,0.000000000000000e+00
	-3.794322127073714e-07,-1.391438392297965e-03
	-1.936100729485451e-06,9.536497282091874e-10
	-8.394076445976938e-13,-8.842552215128654e-10
	-8.394452032892517e-13,-8.842552214772098e-10
	-8.394645884203780e-13,-8.842552214588065e-10
	-8.394645884203780e-13,-8.842552214588065e-10
	8.842556199300959e-10,0.0
	-1.810684434264899e+02,0.0
	-1.571745672997053e+00,0.0

 14	1.496235656094435e-03,0.000000000000000e+00
	1.000000000000000e+00,0.000000000000000e+00
	-4.019149829929778e-07,-1.432069120603571e-03
	-2.050821887560355e-06,1.039654136977584e-09
	-9.418308476103543e-13,-9.640012944788192e-10
	-9.418729891538568e-13,-9.640012944376444e-10
	-9.418947396279226e-13,-9.640012944163927e-10
	-9.418947396279226e-13,-9.640012944163927e-10
	9.640017545638500e-10,0.0
	-1.803184435128831e+02,0.0
	-1.571773394403989e+00,0.0

 15	1.539926526059493e-03,0.000000000000000e+00
	1.000000000000000e+00,0.000000000000000e+00
	-4.257299409543197e-07,-1.473886287026970e-03
	-2.172340698866355e-06,1.133414808473262e-09
	-1.056751567710569e-12,-1.050939221087094e-09
	-1.056798851298236e-12,-1.050939221039547e-09
	-1.056823255730580e-12,-1.050939221015005e-09
	-1.056823255730580e-12,-1.050939221015005e-09
	1.050939752384988e-09,0.0
	-1.795684436043966e+02,0.0
	-1.571801925290383e+00,0.0

 16	1.584893192461115e-03,0.000000000000000e+00
	1.000000000000000e+00,0.000000000000000e+00
	-4.509560236475209e-07,-1.516924536135473e-03
	-2.301059949345673e-06,1.235631237124389e-09
	-1.185694731894427e-12,-1.145717594161573e-09
	-1.185747784950194e-12,-1.145717594106665e-09
	-1.185775167172525e-12,-1.145717594078326e-09
	-1.185775167172525e-12,-1.145717594078326e-09
	1.145718207694795e-09,0.0
	-1.788184437013325e+02,0.0
	-1.571831289293440e+00,0.0

 17	1.631172909227840e-03,0.000000000000000e+00
	1.000000000000000e+00,0.000000000000000e+00
	-4.776768454400779e-07,-1.561219524131307e-03
	-2.437406291466758e-06,1.347066000879532e-09
	-1.330371336256701e-12,-1.249043499409492e-09
	-1.330430862761736e-12,-1.249043499346085e-09
	-1.330461586119173e-12,-1.249043499313359e-09
	-1.330461586119173e-12,-1.249043499313359e-09
	1.249044207906587e-09,0.0
	-1.780684438040126e+02,0.0
	-1.571861510740582e+00,0.0

 18	1.678804018122562e-03,0.000000000000000e+00
	1.000000000000000e+00,0.000000000000000e+00
	-5.059809751586903e-07,-1.606807948391658e-03
	-2.581831658401048e-06,1.468550450359200e-09
	-1.492701149829719e-12,-1.361687790552749e-09
	-1.492767939663806e-12,-1.361687790479529e-09
	-1.492802411836238e-12,-1.361687790441737e-09
	-1.492802411836238e-12,-1.361687790441737e-09
	1.361688608712411e-09,0.0
	-1.773184439127757e+02,0.0
	-1.571892614669602e+00,0.0

 19	1.727825980507865e-03,0.000000000000000e+00
	1.000000000000000e+00,0.000000000000000e+00
	-5.359622296587680e-07,-1.653727577870741e-03
	-2.734814761991418e-06,1.600990911077675e-09
	-1.674838188702781e-12,-1.484490840189587e-09
	-1.674913128125524e-12,-1.484490840105033e-09
	-1.674951806537263e-12,-1.484490840061392e-09
	-1.674951806537263e-12,-1.484490840061392e-09
	1.484491784985600e-09,0.0
	-1.765684440279844e+02,0.0
	-1.571924626849410e+00,0.0

 20	1.778279410038925e-03,0.000000000000000e+00
	1.000000000000000e+00,0.000000000000000e+00
	-5.677199847895663e-07,-1.702017284390428e-03
	-2.896862679484271e-06,1.745375445011914e-09
	-1.879199298451574e-12,-1.618368809293356e-09
	-1.879283381862495e-12,-1.618368809195715e-09
	-1.879326779752002e-12,-1.618368809145319e-09
	-1.879326779752002e-12,-1.618368809145319e-09
	1.618369900326740e-09,0.0
	-1.758184441500190e+02,0.0
	-1.571957573801375e+00,0.0

 21	1.830206106311058e-03,0.000000000000000e+00
	1.000000000000000e+00,0.000000000000000e+00
	-6.013595047841611e-07,-1.751717074843231e-03
	-3.068512534275654e-06,1.902781221953021e-09
	-2.108496224140377e-12,-1.764320482115973e-09
	-2.108590567273958e-12,-1.764320482003219e-09
	-2.108639260504192e-12,-1.764320481945023e-09
	-2.108639260504192e-12,-1.764320481945023e-09
	1.764321742021632e-09,0.0
	-1.750684442792863e+02,0.0
	-1.571991482821305e+00,0.0

 22	1.883649089489803e-03,0.000000000000000e+00
	1.000000000000000e+00,0.000000000000000e+00
	-6.369922911683622e-07,-1.802868124337777e-03
	-3.250333276253985e-06,2.074382555645630e-09
	-2.365771593454584e-12,-1.923434717492760e-09
	-2.365877448185349e-12,-1.923434717362553e-09
	-2.365932082885099e-12,-1.923434717295350e-09
	-2.365932082885099e-12,-1.923434717295350e-09
	1.923436172409073e-09,0.0
	-1.743184444162097e+02,0.0
	-1.572026382002055e+00,0.0

 23	1.938652635952210e-03,0.000000000000000e+00
	1.000000000000000e+00,0.000000000000000e+00
	-6.747364523418941e-07,-1.855512810309015e-03
	-3.442927567622810e-06,2.261459664650862e-09
	-2.654439290420247e-12,-2.096898572127558e-09
	-2.654558061374335e-12,-2.096898571977198e-09
	-2.654619362511927e-12,-2.096898571899593e-09
	-2.654619362511927e-12,-2.096898571899593e-09
	2.096900252238650e-09,0.0
	-1.735684445612479e+02,0.0
	-1.572062300256803e+00,0.0

 24	1.995262314968882e-03,0.000000000000000e+00
	1.000000000000000e+00,0.000000000000000e+00
	-7.147170950599483e-07,-1.909694747626907e-03
	-3.646933780476375e-06,2.465408223311781e-09
	-2.978329755460732e-12,-2.286006156472603e-09
	-2.978463018654368e-12,-2.286006156298971e-09
	-2.978531799657534e-12,-2.286006156209353e-09
	-2.978531799657534e-12,-2.286006156209353e-09
	2.286008096634555e-09,0.0
	-1.728184447148823e+02,0.0
	-1.572099267343006e+00,0.0

 25	2.053525026457149e-03,0.000000000000000e+00
	1.000000000000000e+00,0.000000000000000e+00
	-7.570667391111061e-07,-1.965458824729674e-03
	-3.863028112732091e-06,2.687749774062432e-09
	-3.341740812878756e-12,-2.492168289260772e-09
	-3.341890336630973e-12,-2.492168289060265e-09
	-3.341967510180503e-12,-2.492168288956776e-09
	-3.341967510180503e-12,-2.492168288956776e-09
	2.492170529724759e-09,0.0
	-1.720684448776203e+02,0.0
	-1.572137313887045e+00,0.0

 26	2.113489039836650e-03,0.000000000000000e+00
	1.000000000000000e+00,0.000000000000000e+00
	-8.019257565662632e-07,-2.022851240811854e-03
	-4.091926829439062e-06,2.930143078763205e-09
	-3.749494700212932e-12,-2.716923022718681e-09
	-3.749662468610009e-12,-2.716923022487139e-09
	-3.749749058750434e-12,-2.716923022367632e-09
	-3.749749058750434e-12,-2.716923022367632e-09
	2.716925609966027e-09,0.0
	-1.713184450499973e+02,0.0
	-1.572176471409610e+00,0.0

 27	2.175204034019526e-03,0.000000000000000e+00
	1.000000000000000e+00,0.000000000000000e+00
	-8.494428370539144e-07,-2.081919544097378e-03
	-4.334388636885475e-06,3.194396493743554e-09
	-4.207002056203117e-12,-2.961947116977087e-09
	-4.207190295426106e-12,-2.961947116709706e-09
	-4.207287451154098e-12,-2.961947116571702e-09
	-4.207287451154098e-12,-2.961947116571702e-09
	2.961950104683588e-09,0.0
	-1.705684452325900e+02,0.0
	-1.572216772351801e+00,0.0

 28	2.238721138568343e-03,0.000000000000000e+00
	1.000000000000000e+00,0.000000000000000e+00
	-8.997754806053379e-07,-2.142712671231126e-03
	-4.591217197391381e-06,3.482481460890469e-09
	-4.720333716458427e-12,-3.229068549291929e-09
	-4.720544924323117e-12,-3.229068548983162e-09
	-4.720653934833921e-12,-3.229068548823797e-09
	-4.720653934833921e-12,-3.229068548823797e-09
	3.229071999441418e-09,0.0
	-1.698184454260024e+02,0.0
	-1.572258250102015e+00,0.0

 29	2.304092976055850e-03,0.000000000000000e+00
	1.000000000000000e+00,0.000000000000000e+00
	-9.530905197031108e-07,-2.205280987821508e-03
	-4.863263793101480e-06,3.796547215414361e-09
	-5.296301269486627e-12,-3.520280151384097e-09
	-5.296538248587908e-12,-3.520280151027539e-09
	-5.296660560382114e-12,-3.520280150843507e-09
	-5.296660560382114e-12,-3.520280150843507e-09
	3.520284135554384e-09,0.0
	-1.690684456308734e+02,0.0
	-1.572300939023600e+00,0.0

 30	2.371373705661660e-03,0.000000000000000e+00
	1.000000000000000e+00,0.000000000000000e+00
	-1.009564672261122e-06,-2.269676330164496e-03
	-5.151430147613278e-06,4.138936820017769e-09
	-5.942547442007389e-12,-3.837754476638752e-09
	-5.942813336907832e-12,-3.837754476227004e-09
	-5.942950572985477e-12,-3.837754476014487e-09
	-5.942950572985477e-12,-3.837754476014487e-09
	3.837759077486593e-09,0.0
	-1.683184458478853e+02,0.0
	-1.572344874483325e+00,0.0

 31	2.440619068041985e-03,0.000000000000000e+00
	1.000000000000000e+00,0.000000000000000e+00
	-1.069385127371812e-06,-2.335952048187625e-03
	-5.456671414803811e-06,4.512204645107220e-09
	-6.667647512917815e-12,-4.183860008084265e-09
	-6.667945851873927e-12,-4.183860007608787e-09
	-6.668099833270626e-12,-4.183860007363377e-09
	-6.668099833270626e-12,-4.183860007363377e-09
	4.183865321060188e-09,0.0
	-1.675684460777572e+02,0.0
	-1.572390092880682e+00,0.0

 32	2.511886431509585e-03,0.000000000000000e+00
	1.000000000000000e+00,0.000000000000000e+00
	-1.132750165760842e-06,-2.404163049648020e-03
	-5.779999344745950e-06,4.919135425434114e-09
	-7.481223101576780e-12,-4.561178828054314e-09
	-7.481557843356601e-12,-4.561178827505242e-09
	-7.481730613307472e-12,-4.561178827221846e-09
	-7.481730613307472e-12,-4.561178827221846e-09
	4.561184963382851e-09,0.0
	-1.668184463212511e+02,0.0
	-1.572436631678042e+00,0.0

 33	2.585234839562196e-03,0.000000000000000e+00
	1.000000000000000e+00,0.000000000000000e+00
	-1.199869817005967e-06,-2.474365845620604e-03
	-6.122485637219638e-06,5.362765035352676e-09
	-8.394069840315806e-12,-4.972525881360318e-09
	-8.394445426729098e-12,-4.972525880726258e-09
	-8.394639277781114e-12,-4.972525880398997e-09
	-8.394639277781114e-12,-4.972525880398997e-09
	4.972532966326762e-09,0.0
	-1.660684465791682e+02,0.0
	-1.572484529431686e+00,0.0

 34	2.660725059798815e-03,0.000000000000000e+00
	1.000000000000000e+00,0.000000000000000e+00
	-1.270966555695005e-06,-2.546618597311016e-03
	-6.485265493911610e-06,5.846403137655960e-09
	-9.418300625259704e-12,-5.420969975663096e-09
	-9.418722040097766e-12,-5.420969974930895e-09
	-9.418939544530305e-12,-5.420969974552981e-09
	-9.418939544530305e-12,-5.420969974552981e-09
	5.420978157254195e-09,0.0
	-1.653184468523703e+02,0.0
	-1.572533825823752e+00,0.0

 35	2.738419634264367e-03,0.000000000000000e+00
	1.000000000000000e+00,0.000000000000000e+00
	-1.346276038840052e-06,-2.620981164242881e-03
	-6.869541381119705e-06,6.373657875014937e-09
	-1.056750634636138e-11,-5.909856675743064e-09
	-1.056797918152856e-11,-5.909856674897531e-09
	-1.056822322548581e-11,-5.909856674461123e-09
	-1.056822322548581e-11,-5.909856674461123e-09
	5.909866123696444e-09,0.0
	-1.645684471417604e+02,0.0
	-1.572584561695108e+00,0.0

 36	2.818382931264460e-03,0.000000000000000e+00
	1.000000000000000e+00,0.000000000000000e+00
	-1.426047886980195e-06,-2.697515153845303e-03
	-7.276587015384598e-06,6.948462788164118e-09
	-1.185693622933701e-11,-6.442833262424196e-09
	-1.185746675905144e-11,-6.442833261447790e-09
	-1.185774058083953e-11,-6.442833260943834e-09
	-1.185774058083953e-11,-6.442833260943834e-09
	6.442844172749783e-09,0.0
	-1.638184474482967e+02,0.0
	-1.572636779079186e+00,0.0

 37	2.900681198693160e-03,0.000000000000000e+00
	1.000000000000000e+00,0.000000000000000e+00
	-1.510546511567970e-06,-2.776283972489642e-03
	-7.707751585283189e-06,7.575106161685346e-09
	-1.330370018254105e-11,-7.023875942365838e-09
	-1.330429544658922e-11,-7.023875941238303e-09
	-1.330460267964632e-11,-7.023875940656344e-09
	-1.330460267964632e-11,-7.023875940656344e-09
	7.023888541412335e-09,0.0
	-1.630684477730005e+02,0.0
	-1.572690521236807e+00,0.0

 38	2.985382618917966e-03,0.000000000000000e+00
	1.000000000000000e+00,0.000000000000000e+00
	-1.600051991385479e-06,-2.857352878020382e-03
	-8.164464223396235e-06,8.258263016345724e-09
	-1.492699583381193e-11,-7.657319511728059e-09
	-1.492766373096171e-11,-7.657319510426002e-09
	-1.492800845207126e-11,-7.657319509753966e-09
	-1.492800845207126e-11,-7.657319509753966e-09
	7.657334060878830e-09,0.0
	-1.623184481169391e+02,0.0
	-1.572745832692017e+00,0.0

 39	3.072557365267454e-03,0.000000000000000e+00
	1.000000000000000e+00,0.000000000000000e+00
	-1.694861000883191e-06,-2.940789033812174e-03
	-8.648238743203219e-06,9.003029986570337e-09
	-1.674836326975035e-11,-8.347889694940496e-09
	-1.674911266256216e-11,-8.347889693436905e-09
	-1.674949944594889e-11,-8.347889692660851e-09
	-1.674949944594889e-11,-8.347889692660851e-09
	8.347906496036294e-09,0.0
	-1.615684484812618e+02,0.0
	-1.572802759268977e+00,0.0

 40	3.162277660168387e-03,0.000000000000000e+00
	1.000000000000000e+00,0.000000000000000e+00
	-1.795287793535020e-06,-3.026661564414497e-03
	-9.160678656712323e-06,9.814963343396976e-09
	-1.879197085784662e-11,-9.100738399921007e-09
	-1.879281169027336e-11,-9.100738398184689e-09
	-1.879324566830003e-11,-9.100738397288513e-09
	-1.879324566830003e-11,-9.100738397288513e-09
	9.100757801522038e-09,0.0
	-1.608184488671673e+02,0.0
	-1.572861348129920e+00,0.0

 41	3.254617834980467e-03,0.000000000000000e+00
	1.000000000000000e+00,0.000000000000000e+00
	-1.901665243449658e-06,-3.115041612810125e-03
	-9.703482489326448e-06,1.070012044639541e-08
	-2.108493594380780e-11,-9.921482152627578e-09
	-2.108587937314399e-11,-9.921482150622510e-09
	-2.108636630441424e-11,-9.921482149587623e-09
	-2.108636630441424e-11,-9.921482149587623e-09
	9.921504557244821e-09,0.0
	-1.600684492759441e+02,0.0
	-1.572921647814228e+00,0.0

 42	3.349654391578285e-03,0.000000000000000e+00
	1.000000000000000e+00,0.000000000000000e+00
	-2.014345948713366e-06,-3.206002399357942e-03
	-1.027844940969770e-05,1.166510493399274e-08
	-2.365768467979198e-11,-1.081624399779481e-08
