Title: * sky130 bjt 2-stage ppa sweep ac: ce1 -> ce2 -> output rebias -> ideal opamp follower -> two rc poles
Date: Sat May 23 01:13:31  2026
Command: ngspice-46, Build Mar 29 2026   15:02:07
Plotname: AC Analysis
Flags: complex
No. Variables: 11
No. Points: 721
Variables:
	0	frequency	frequency grid=3
	1	v(vin)	voltage
	2	v(b1_collector)	voltage
	3	v(b2_collector)	voltage
	4	v(vout_drv)	voltage
	5	v(vfilt1)	voltage
	6	v(vout_final)	voltage
	7	gain	notype
	8	gain_vv	notype
	9	gain_db	decibel
	10	phase_deg	phase
Values:
 0	1.000000000000000e-03,0.000000000000000e+00
	1.000000000000000e+00,0.000000000000000e+00
	-2.187755135469838e-07,-1.295606033438578e-03
	-1.678594977372071e-06,4.938124393488911e-10
	-3.208064052718290e-13,-5.273460641421777e-10
	-3.208213156305177e-13,-5.273460641331065e-10
	-3.208289364805142e-13,-5.273460641284702e-10
	-3.208289364805142e-13,-5.273460641284702e-10
	5.273461617220658e-10,0.0
	-1.855580842129045e+02,0.0
	-1.571404710774073e+00,0.0

 1	1.029200527194428e-03,0.000000000000000e+00
	1.000000000000000e+00,0.000000000000000e+00
	-2.317387773110860e-07,-1.333438410399257e-03
	-1.778057975802997e-06,5.383466619980394e-10
	-3.599507036382825e-13,-5.749044924607297e-10
	-3.599674333356359e-13,-5.749044924502547e-10
	-3.599759840698387e-13,-5.749044924449006e-10
	-3.599759840698387e-13,-5.749044924449006e-10
	5.749046051442255e-10,0.0
	-1.848080842504336e+02,0.0
	-1.571422475906194e+00,0.0

 2	1.059253725177289e-03,0.000000000000000e+00
	1.000000000000000e+00,0.000000000000000e+00
	-2.454701626960114e-07,-1.372375512509341e-03
	-1.883414526549763e-06,5.868971806745502e-10
	-4.038713281576927e-13,-6.267519521359560e-10
	-4.038900991865541e-13,-6.267519521238597e-10
	-4.038996932679721e-13,-6.267519521176769e-10
	-4.038996932679721e-13,-6.267519521176769e-10
	6.267520822608258e-10,0.0
	-1.840580842901828e+02,0.0
	-1.571440759789466e+00,0.0

 3	1.090184492385128e-03,0.000000000000000e+00
	1.000000000000000e+00,0.000000000000000e+00
	-2.600151837632200e-07,-1.412449598306807e-03
	-1.995013844435436e-06,6.398262029597885e-10
	-4.531510786456559e-13,-6.832752470726194e-10
	-4.531721400860834e-13,-6.832752470586506e-10
	-4.531829048223018e-13,-6.832752470515109e-10
	-4.531829048223018e-13,-6.832752470515109e-10
	6.832753973384732e-10,0.0
	-1.833080843322901e+02,0.0
	-1.571459577571690e+00,0.0

 4	1.122018454301964e-03,0.000000000000000e+00
	1.000000000000000e+00,0.000000000000000e+00
	-2.754220514513699e-07,-1.453693868295043e-03
	-2.113225836551430e-06,6.975286019371229e-10
	-5.084438672285856e-13,-7.448960648573630e-10
	-5.084674985529901e-13,-7.448960648412321e-10
	-5.084795767854634e-13,-7.448960648329874e-10
	-5.084795767854634e-13,-7.448960648329874e-10
	7.448962383816623e-10,0.0
	-1.825580843768919e+02,0.0
	-1.571478944842988e+00,0.0

 5	1.154781984689459e-03,0.000000000000000e+00
	1.000000000000000e+00,0.000000000000000e+00
	-2.917418333759454e-07,-1.496142492447556e-03
	-2.238442328347239e-06,7.604348621117244e-10
	-5.704833953531017e-13,-8.120741227199123e-10
	-5.705099101346729e-13,-8.120741227012846e-10
	-5.705234621341426e-13,-8.120741226917635e-10
	-5.705234621341426e-13,-8.120741226917635e-10
	8.120743231026444e-10,0.0
	-1.818080844241365e+02,0.0
	-1.571498877648724e+00,0.0

 6	1.188502227437019e-03,0.000000000000000e+00
	1.000000000000000e+00,0.000000000000000e+00
	-3.090286230980254e-07,-1.539830638517223e-03
	-2.371078362373624e-06,8.290142910077123e-10
	-6.400928895506609e-13,-8.853105972114945e-10
	-6.401226396242892e-13,-8.853105971899837e-10
	-6.401378452174769e-13,-8.853105971789890e-10
	-6.401378452174769e-13,-8.853105971789890e-10
	8.853108286098611e-10,0.0
	-1.810580844741810e+02,0.0
	-1.571519392502793e+00,0.0

 7	1.223207119049932e-03,0.000000000000000e+00
	1.000000000000000e+00,0.000000000000000e+00
	-3.273397194225828e-07,-1.584794501171353e-03
	-2.511573573980828e-06,9.037785204013919e-10
	-7.181960251441934e-13,-9.651518631861408e-10
	-7.182294052751003e-13,-9.651518631613004e-10
	-7.182464662308972e-13,-9.651518631486040e-10
	-7.182464662308972e-13,-9.651518631486040e-10
	9.651521304008026e-10,0.0
	-1.803080845271907e+02,0.0
	-1.571540506401305e+00,0.0

 8	1.258925411794168e-03,0.000000000000000e+00
	1.000000000000000e+00,0.000000000000000e+00
	-3.467358163212657e-07,-1.631071331978840e-03
	-2.660393648531092e-06,9.852853233112098e-10
	-8.058291828473220e-13,-1.052193569978824e-09
	-8.058666359693500e-13,-1.052193569950139e-09
	-8.058857786761642e-13,-1.052193569935477e-09
	-8.058857786761642e-13,-1.052193569935477e-09
	1.052193878553497e-09,0.0
	-1.795580845833408e+02,0.0
	-1.571562236836661e+00,0.0

 9	1.295686697517020e-03,0.000000000000000e+00
	1.000000000000000e+00,0.000000000000000e+00
	-3.672812041082347e-07,-1.678699470271041e-03
	-2.818031864955900e-06,1.074142775220144e-09
	-9.041552008932230e-13,-1.147085085190329e-09
	-9.041972239862916e-13,-1.147085085157204e-09
	-9.042187024560820e-13,-1.147085085140273e-09
	-9.042187024560820e-13,-1.147085085140273e-09
	1.147085441526798e-09,0.0
	-1.788080846428183e+02,0.0
	-1.571584601812053e+00,0.0

 10	1.333521432163325e-03,0.000000000000000e+00
	1.000000000000000e+00,0.000000000000000e+00
	-3.890439825369192e-07,-1.727718374905465e-03
	-2.985010730775757e-06,1.171013790576669e-09
	-1.014478805176037e-12,-1.250534339231734e-09
	-1.014525955860757e-12,-1.250534339193482e-09
	-1.014550055099613e-12,-1.250534339173931e-09
	-1.014550055099613e-12,-1.250534339173931e-09
	1.250534750722663e-09,0.0
	-1.780580847058203e+02,0.0
	-1.571607619856372e+00,0.0

 11	1.372460961007563e-03,0.000000000000000e+00
	1.000000000000000e+00,0.000000000000000e+00
	-4.120962865232392e-07,-1.778168656956005e-03
	-3.161883713999876e-06,1.276621068417132e-09
	-1.138263922152181e-12,-1.363313106769795e-09
	-1.138316826089131e-12,-1.363313106725622e-09
	-1.138343865879128e-12,-1.363313106703044e-09
	-1.138343865879128e-12,-1.363313106703044e-09
	1.363313581952099e-09,0.0
	-1.773080847725547e+02,0.0
	-1.571631310039562e+00,0.0

 12	1.412537544622755e-03,0.000000000000000e+00
	1.000000000000000e+00,0.000000000000000e+00
	-4.365145252437254e-07,-1.830092113357866e-03
	-3.349237077645600e-06,1.391752484004879e-09
	-1.277153104232013e-12,-1.486262764474329e-09
	-1.277212463423868e-12,-1.486262764423319e-09
	-1.277242802566371e-12,-1.486262764397246e-09
	-1.277242802566371e-12,-1.486262764397246e-09
	1.486263313206284e-09,0.0
	-1.765580848432446e+02,0.0
	-1.571655691988417e+00,0.0

 13	1.453784385607663e-03,0.000000000000000e+00
	1.000000000000000e+00,0.000000000000000e+00
	-4.623796354013581e-07,-1.883531761535380e-03
	-3.547691822963759e-06,1.517266966714595e-09
	-1.432989325427368e-12,-1.620300568024843e-09
	-1.433055927534030e-12,-1.620300567965938e-09
	-1.433089968610768e-12,-1.620300567935830e-09
	-1.433089968610768e-12,-1.620300567935830e-09
	1.620301201690609e-09,0.0
	-1.758080849181214e+02,0.0
	-1.571680785902845e+00,0.0

 14	1.496235656094435e-03,0.000000000000000e+00
	1.000000000000000e+00,0.000000000000000e+00
	-4.897773494979915e-07,-1.938531875040486e-03
	-3.757905747800532e-06,1.654100908005486e-09
	-1.607840436463827e-12,-1.766426495200548e-09
	-1.607915165254183e-12,-1.766426495132524e-09
	-1.607953359969253e-12,-1.766426495097756e-09
	-1.607953359969253e-12,-1.766426495097756e-09
	1.766427226946344e-09,0.0
	-1.750580849974347e+02,0.0
	-1.571706612572598e+00,0.0

 15	1.539926526059493e-03,0.000000000000000e+00
	1.000000000000000e+00,0.000000000000000e+00
	-5.187984800028741e-07,-1.995138020231298e-03
	-3.980575626928495e-06,1.803275147297220e-09
	-1.804026603866484e-12,-1.925730706109879e-09
	-1.804110450945461e-12,-1.925730706031326e-09
	-1.804153306119160e-12,-1.925730705991177e-09
	-1.804153306119160e-12,-1.925730705991177e-09
	1.925731551116725e-09,0.0
	-1.743080850814508e+02,0.0
	-1.571733193394499e+00,0.0

 16	1.584893192461115e-03,0.000000000000000e+00
	1.000000000000000e+00,0.000000000000000e+00
	-5.495392203599589e-07,-2.053397094024157e-03
	-4.216439521573777e-06,1.965902587864651e-09
	-2.024151097117979e-12,-2.099401676215762e-09
	-2.024245175084520e-12,-2.099401676125050e-09
	-2.024293259378530e-12,-2.099401676078686e-09
	-2.024293259378530e-12,-2.099401676078686e-09
	2.099402652014424e-09,0.0
	-1.735580851704436e+02,0.0
	-1.571760550390170e+00,0.0

 17	1.631172909227840e-03,0.000000000000000e+00
	1.000000000000000e+00,0.000000000000000e+00
	-5.821014638294691e-07,-2.113357362743790e-03
	-4.466279225779602e-06,2.143196499560844e-09
	-2.271134832406885e-12,-2.288735062824497e-09
	-2.271240389617435e-12,-2.288735062719745e-09
	-2.271294341080604e-12,-2.288735062666205e-09
	-2.271294341080604e-12,-2.288735062666205e-09
	2.288736189659189e-09,0.0
	-1.728080852647096e+02,0.0
	-1.571788706224271e+00,0.0

 18	1.678804018122562e-03,0.000000000000000e+00
	1.000000000000000e+00,0.000000000000000e+00
	-6.165931412237110e-07,-2.175068502112596e-03
	-4.730922857736526e-06,2.336479570323828e-09
	-2.548255131350980e-12,-2.495143371195566e-09
	-2.548373568484385e-12,-2.495143371074600e-09
	-2.548434103019235e-12,-2.495143371012773e-09
	-2.548434103019235e-12,-2.495143371012773e-09
	2.495144672443937e-09,0.0
	-1.720580853645589e+02,0.0
	-1.571817684223281e+00,0.0

 19	1.727825980507865e-03,0.000000000000000e+00
	1.000000000000000e+00,0.000000000000000e+00
	-6.531285786531817e-07,-2.238581638402981e-03
	-5.011247604647562e-06,2.547193773980505e-09
	-2.859189208986071e-12,-2.720166492374371e-09
	-2.859322097629699e-12,-2.720166492234682e-09
	-2.859390018491998e-12,-2.720166492163285e-09
	-2.859390018491998e-12,-2.720166492163285e-09
	2.720167995032510e-09,0.0
	-1.713080854703263e+02,0.0
	-1.571847508394824e+00,0.0

 20	1.778279410038925e-03,0.000000000000000e+00
	1.000000000000000e+00,0.000000000000000e+00
	-6.918288764723815e-07,-2.303949390796123e-03
	-5.308182630246948e-06,2.776911127980821e-09
	-3.208062968090499e-12,-2.965483191374021e-09
	-3.208212071594213e-12,-2.965483191212711e-09
	-3.208288280051666e-12,-2.965483191130263e-09
	-3.208288280051666e-12,-2.965483191130263e-09
	2.965484926616525e-09,0.0
	-1.705580855823611e+02,0.0
	-1.571878203447554e+00,0.0

 21	1.830206106311058e-03,0.000000000000000e+00
	1.000000000000000e+00,0.000000000000000e+00
	-7.328223106774645e-07,-2.371225914973026e-03
	-5.622712154591283e-06,3.027345421304526e-09
	-3.599505747301327e-12,-3.232923631402125e-09
	-3.599673044176009e-12,-3.232923631215847e-09
	-3.599758551467512e-12,-3.232923631120638e-09
	-3.599758551467512e-12,-3.232923631120638e-09
	3.232925635228852e-09,0.0
	-1.698080857010333e+02,0.0
	-1.571909794811630e+00,0.0

 22	1.883649089489803e-03,0.000000000000000e+00
	1.000000000000000e+00,0.000000000000000e+00
	-7.762447580896826e-07,-2.440466947981421e-03
	-5.955878716338215e-06,3.300365000044530e-09
	-4.038711749499490e-12,-3.524483027570433e-09
	-4.038899459670619e-12,-3.524483027355323e-09
	-4.038995400424750e-12,-3.524483027245377e-09
	-4.038995400424750e-12,-3.524483027245377e-09
	3.524485341553371e-09,0.0
	-1.690580858267382e+02,0.0
	-1.571942308659783e+00,0.0

 23	1.938652635952210e-03,0.000000000000000e+00
	1.000000000000000e+00,0.000000000000000e+00
	-8.222401467319675e-07,-2.511729854412187e-03
	-6.308786628331335e-06,3.598006706050704e-09
	-4.531508965578762e-12,-3.842336531951426e-09
	-4.531719579843406e-12,-3.842336531703021e-09
	-4.531827227134222e-12,-3.842336531576057e-09
	-4.531827227134222e-12,-3.842336531576057e-09
	3.842339204097152e-09,0.0
	-1.683080859598929e+02,0.0
	-1.571975771928996e+00,0.0

 24	1.995262314968882e-03,0.000000000000000e+00
	1.000000000000000e+00,0.000000000000000e+00
	-8.709609328914236e-07,-2.585073673922676e-03
	-6.682605637937632e-06,3.922491072621422e-09
	-5.084436508168244e-12,-4.188855461024627e-09
	-5.084672821246337e-12,-4.188855460737773e-09
	-5.084793603486249e-12,-4.188855460591157e-09
	-5.084793603486249e-12,-4.188855460591157e-09
	4.188858546770271e-09,0.0
	-1.675580861009368e+02,0.0
	-1.572010212342825e+00,0.0

 25	2.053525026457149e-03,0.000000000000000e+00
	1.000000000000000e+00,0.000000000000000e+00
	-9.225686064502336e-07,-2.660559170149461e-03
	-7.078574804267916e-06,4.276238890606634e-09
	-5.704831381472112e-12,-4.566624986572404e-09
	-5.705096529090590e-12,-4.566624986241151e-09
	-5.705232048984477e-12,-4.566624986071841e-09
	-5.705232048984477e-12,-4.566624986071841e-09
	4.566628549935759e-09,0.0
	-1.668080862503381e+02,0.0
	-1.572045658434365e+00,0.0

 26	2.113489039836650e-03,0.000000000000000e+00
	1.000000000000000e+00,0.000000000000000e+00
	-9.772342261589777e-07,-2.738248881048782e-03
	-7.498006605141948e-06,4.661889268516656e-09
	-6.400925838610269e-12,-4.978463422010638e-09
	-6.401223339112139e-12,-4.978463421628112e-09
	-6.401375394924202e-12,-4.978463421432597e-09
	-6.401375394924202e-12,-4.978463421432597e-09
	4.978467536918294e-09,0.0
	-1.660580864085900e+02,0.0
	-1.572082139569886e+00,0.0

 27	2.175204034019526e-03,0.000000000000000e+00
	1.000000000000000e+00,0.000000000000000e+00
	-1.035138986625928e-06,-2.818207170705187e-03
	-7.942291287394717e-06,5.082319321365866e-09
	-7.181956618314582e-12,-5.427443248024970e-09
	-7.182290419345052e-12,-5.427443247583237e-09
	-7.182461028760622e-12,-5.427443247357459e-09
	-7.182461028760622e-12,-5.427443247357459e-09
	5.427447999846015e-09,0.0
	-1.653080865762203e+02,0.0
	-1.572119685973166e+00,0.0

 28	2.238721138568343e-03,0.000000000000000e+00
	1.000000000000000e+00,0.000000000000000e+00
	-1.096474818903594e-06,-2.900500282655431e-03
	-8.412901474964846e-06,5.540665635147490e-09
	-8.058287510491881e-12,-5.916914034383234e-09
	-8.058662041381045e-12,-5.916914033873127e-09
	-8.058853468279945e-12,-5.916914033612404e-09
	-8.058853468279945e-12,-5.916914033612404e-09
	5.916919521700345e-09,0.0
	-1.645580867537842e+02,0.0
	-1.572158328750529e+00,0.0

 29	2.304092976055850e-03,0.000000000000000e+00
	1.000000000000000e+00,0.000000000000000e+00
	-1.161445026662420e-06,-2.985196394769249e-03
	-8.911397050020122e-06,6.040347667066977e-09
	-9.041546877002757e-12,-6.450527428914368e-09
	-9.041967107539910e-12,-6.450527428325306e-09
	-9.042181892036670e-12,-6.450527428024227e-09
	-9.042181892036670e-12,-6.450527428024227e-09
	6.450533765569033e-09,0.0
	-1.638080869418680e+02,0.0
	-1.572198099916614e+00,0.0

 30	2.371373705661660e-03,0.000000000000000e+00
	1.000000000000000e+00,0.000000000000000e+00
	-1.230264960057552e-06,-3.072365675729129e-03
	-9.439430323298353e-06,6.585093256098799e-09
	-1.014478195245208e-11,-7.032264400076232e-09
	-1.014525345883157e-11,-7.032264399395994e-09
	-1.014549445098108e-11,-7.032264399048313e-09
	-1.014549445098108e-11,-7.032264399048313e-09
	7.032271717530544e-09,0.0
	-1.630580871410966e+02,0.0
	-1.572239032420898e+00,0.0

 31	2.440619068041985e-03,0.000000000000000e+00
	1.000000000000000e+00,0.000000000000000e+00
	-1.303162729527928e-06,-3.162080343164208e-03
	-9.998751510819002e-06,7.178966434209618e-09
	-1.138263197248051e-11,-7.666464936360654e-09
	-1.138316101129413e-11,-7.666464935575129e-09
	-1.138343140890998e-11,-7.666464935173634e-09
	-1.138343140890998e-11,-7.666464935173634e-09
	7.666473386424654e-09,0.0
	-1.623080873521301e+02,0.0
	-1.572281160174996e+00,0.0

 32	2.511886431509585e-03,0.000000000000000e+00
	1.000000000000000e+00,0.000000000000000e+00
	-1.380379961887022e-06,-3.254414723476580e-03
	-1.059121453509491e-05,7.826397745703207e-09
	-1.277152242681548e-11,-8.357860424082819e-09
	-1.277211601807337e-11,-8.357860423175711e-09
	-1.277241940916072e-11,-8.357860422712070e-09
	-1.277241940916072e-11,-8.357860422712070e-09
	8.357870182063989e-09,0.0
	-1.615580875756715e+02,0.0
	-1.572324518080753e+00,0.0

 33	2.585234839562196e-03,0.000000000000000e+00
	1.000000000000000e+00,0.000000000000000e+00
	-1.462172601218545e-06,-3.349445313420608e-03
	-1.121878317010770e-05,8.532217300918602e-09
	-1.432988301472992e-11,-9.111608945126301e-09
	-1.433054903501134e-11,-9.111608944078786e-09
	-1.433088944537739e-11,-9.111608943543383e-09
	-1.433088944537739e-11,-9.111608943543383e-09
	9.111620213466542e-09,0.0
	-1.608080878124536e+02,0.0
	-1.572369142059157e+00,0.0

 34	2.660725059798815e-03,0.000000000000000e+00
	1.000000000000000e+00,0.000000000000000e+00
	-1.548811757222327e-06,-3.447250843471248e-03
	-1.188353755033989e-05,9.301690810801037e-09
	-1.607839219491676e-11,-9.933333757912879e-09
	-1.607913948188710e-11,-9.933333756703227e-09
	-1.607952142856082e-11,-9.933333756084952e-09
	-1.607952142856082e-11,-9.933333756084952e-09
	9.933346770388425e-09,0.0
	-1.600580880632676e+02,0.0
	-1.572415069080101e+00,0.0

 35	2.738419634264367e-03,0.000000000000000e+00
	1.000000000000000e+00,0.000000000000000e+00
	-1.640584603833722e-06,-3.547912343052764e-03
	-1.258768106554672e-05,1.014055887128407e-08
	-1.804025157492917e-11,-1.082916524875663e-08
	-1.804109004460981e-11,-1.082916524735975e-08
	-1.804151859577991e-11,-1.082916524664578e-08
	-1.804151859577991e-11,-1.082916524664578e-08
	1.082918027532804e-08,0.0
	-1.593080883289439e+02,0.0
	-1.572462337193012e+00,0.0

 36	2.818382931264460e-03,0.000000000000000e+00
	1.000000000000000e+00,0.000000000000000e+00
	-1.737795331085370e-06,-3.651513207665060e-03
	-1.333354766402585e-05,1.105507979046575e-08
	-2.024149378100159e-11,-1.180578666649174e-08
	-2.024243455934881e-11,-1.180578666487864e-08
	-2.024291540161514e-11,-1.180578666405416e-08
	-2.024291540161514e-11,-1.180578666405416e-08
	1.180580401890456e-08,0.0
	-1.585580886103615e+02,0.0
	-1.572510985558367e+00,0.0

 37	2.900681198693160e-03,0.000000000000000e+00
	1.000000000000000e+00,0.000000000000000e+00
	-1.840766153369910e-06,-3.758139267970868e-03
	-1.412360958862919e-05,1.205207627812348e-08
	-2.271132789350517e-11,-1.287048398158848e-08
	-2.271238346404398e-11,-1.287048397972570e-08
	-2.271292297787491e-11,-1.287048397877361e-08
	-2.271292297787491e-11,-1.287048397877361e-08
	1.287050401984081e-08,0.0
	-1.578080889084553e+02,0.0
	-1.572561054480143e+00,0.0

 38	2.985382618917966e-03,0.000000000000000e+00
	1.000000000000000e+00,0.000000000000000e+00
	-1.949838377448524e-06,-3.867878860904023e-03
	-1.496048557117267e-05,1.313898634590630e-08
	-2.548252703173717e-11,-1.403120024172626e-08
	-2.548371140120921e-11,-1.403120023957516e-08
	-2.548431674560601e-11,-1.403120023847570e-08
	-2.548431674560601e-11,-1.403120023847570e-08
	1.403122338153736e-08,0.0
	-1.570580892242112e+02,0.0
	-1.572612585439200e+00,0.0

 39	3.072557365267454e-03,0.000000000000000e+00
	1.000000000000000e+00,0.000000000000000e+00
	-2.065373533738256e-06,-3.980822902847791e-03
	-1.584694951236084e-05,1.432391879788583e-08
	-2.859186323091860e-11,-1.529659482928285e-08
	-2.859319211514190e-11,-1.529659482679880e-08
	-2.859387132263378e-11,-1.529659482552916e-08
	-2.859387132263378e-11,-1.529659482552916e-08
	1.529662155071775e-08,0.0
	-1.563080895586782e+02,0.0
	-1.572665621127651e+00,0.0

 40	3.162277660168387e-03,0.000000000000000e+00
	1.000000000000000e+00,0.000000000000000e+00
	-2.187754574636863e-06,-4.097064964956675e-03
	-1.678593967605099e-05,1.561571372552008e-08
	-3.208059538199720e-11,-1.667610806285514e-08
	-3.208208641440420e-11,-1.667610805998660e-08
	-3.208284849763441e-11,-1.667610805852044e-08
	-3.208284849763441e-11,-1.667610805852044e-08
	1.667613892028422e-08,0.0
	-1.555580899129614e+02,0.0
	-1.572720205484228e+00,0.0

 41	3.254617834980467e-03,0.000000000000000e+00
	1.000000000000000e+00,0.000000000000000e+00
	-2.317387143845624e-06,-4.216701350669387e-03
	-1.778056842825664e-05,1.702400845824088e-08
	-3.599501670867388e-11,-1.818003162467223e-08
	-3.599668967429477e-11,-1.818003162135970e-08
	-3.599754474561208e-11,-1.818003161966661e-08
	-3.599754474561208e-11,-1.818003161966661e-08
	1.818006725827232e-08,0.0
	-1.548080902882409e+02,0.0
	-1.572776383730681e+00,0.0

 42	3.349654391578285e-03,0.000000000000000e+00
	1.000000000000000e+00,0.000000000000000e+00
	-2.454700920912452e-06,-4.339831175494705e-03
	-1.883413255328047e-05,1.855930946183430e-08
	-4.038706904649658e-11,-1.981958533939902e-08
