Title: * sky130 bjt 3-stage high-frequency ch/riso sweep ac: ch=22p, riso=470k
Date: Fri May 22 22:49:30  2026
Command: ngspice-46, Build Mar 29 2026   15:02:07
Plotname: AC Analysis
Flags: complex
No. Variables: 9
No. Points: 721
Variables:
	0	frequency	frequency grid=3
	1	v(vin)	voltage
	2	v(b3_collector)	voltage
	3	v(vout_drv)	voltage
	4	v(vout_final)	voltage
	5	gain	notype
	6	gain_vv	notype
	7	gain_db	decibel
	8	phase_deg	phase
Values:
 0	1.000000000000000e-03,0.000000000000000e+00
	1.000000000000000e+00,0.000000000000000e+00
	4.860954539745212e-13,7.904423276701429e-10
	-2.483247083881092e-13,2.308029121806219e-16
	-2.483247083812932e-13,2.308102454503697e-16
	-2.483247083812932e-13,2.308102454503697e-16
	2.483248156468131e-13,0.0
	-2.520995975654163e+02,0.0
	3.140663184345720e+00,0.0

 1	1.029200527194428e-03,0.000000000000000e+00
	1.000000000000000e+00,0.000000000000000e+00
	5.454080652930250e-13,8.617279547941386e-10
	-2.786248964558171e-13,2.665270405889803e-16
	-2.786248964477162e-13,2.665355089165000e-16
	-2.786248964477162e-13,2.665355089165000e-16
	2.786250239330238e-13,0.0
	-2.510995976241432e+02,0.0
	3.140636043354986e+00,0.0

 2	1.059253725177289e-03,0.000000000000000e+00
	1.000000000000000e+00,0.000000000000000e+00
	6.119579088948014e-13,9.394424380094620e-10
	-3.126222649373799e-13,3.077806195092009e-16
	-3.126222649277520e-13,3.077903985809259e-16
	-3.126222649277520e-13,3.077903985809259e-16
	3.126224164443219e-13,0.0
	-2.500995976863475e+02,0.0
	3.140608109833122e+00,0.0

 3	1.090184492385128e-03,0.000000000000000e+00
	1.000000000000000e+00,0.000000000000000e+00
	6.866280605117859e-13,1.024165560128178e-09
	-3.507679377515996e-13,3.554195080457080e-16
	-3.507679377401567e-13,3.554308007411531e-16
	-3.507679377401567e-13,3.554308007411531e-16
	3.507681178179348e-13,0.0
	-2.490995977522421e+02,0.0
	3.140579360637811e+00,0.0

 4	1.122018454301964e-03,0.000000000000000e+00
	1.000000000000000e+00,0.000000000000000e+00
	7.704093473823636e-13,1.116529391334873e-09
	-3.935680842008413e-13,4.104320368254308e-16
	-3.935680841872415e-13,4.104450774261878e-16
	-3.935680841872415e-13,4.104450774261878e-16
	3.935682982100784e-13,0.0
	-2.480995978220352e+02,0.0
	3.140549771950969e+00,0.0

 5	1.154781984689459e-03,0.000000000000000e+00
	1.000000000000000e+00,0.000000000000000e+00
	8.644134959143381e-13,1.217223004685002e-09
	-4.415906355107579e-13,4.739595121902968e-16
	-4.415906354945945e-13,4.739745712405071e-16
	-4.415906354945945e-13,4.739745712405071e-16
	4.415908898612086e-13,0.0
	-2.470995978959675e+02,0.0
	3.140519319259014e+00,0.0

 6	1.188502227437019e-03,0.000000000000000e+00
	1.000000000000000e+00,0.000000000000000e+00
	9.698878836110295e-13,1.326997616875252e-09
	-4.954728209125743e-13,5.473198940702489e-16
	-4.954728208933640e-13,5.473372839893880e-16
	-4.954728208933640e-13,5.473372839893880e-16
	4.954731232086460e-13,0.0
	-2.460995979742806e+02,0.0
	3.140487977332552e+00,0.0

 7	1.223207119049932e-03,0.000000000000000e+00
	1.000000000000000e+00,0.000000000000000e+00
	1.088232090998418e-12,1.446672192624532e-09
	-5.559296232618877e-13,6.320351387590161e-16
	-5.559296232390563e-13,6.320552203234353e-16
	-5.559296232390563e-13,6.320552203234353e-16
	5.559299825414354e-13,0.0
	-2.450995980572335e+02,0.0
	3.140455720205482e+00,0.0

 8	1.258925411794168e-03,0.000000000000000e+00
	1.000000000000000e+00,0.000000000000000e+00
	1.221016473193719e-12,1.577139554484110e-09
	-6.237632663968520e-13,7.298627738565288e-16
	-6.237632663697169e-13,7.298859636842218e-16
	-6.237632663697169e-13,7.298859636842218e-16
	6.237636934013862e-13,0.0
	-2.440995981450982e+02,0.0
	3.140422521153477e+00,0.0

 9	1.295686697517020e-03,0.000000000000000e+00
	1.000000000000000e+00,0.000000000000000e+00
	1.370002997542803e-12,1.719373043653230e-09
	-6.998738601244016e-13,8.428323604373206e-16
	-6.998738600921514e-13,8.428591396311952e-16
	-6.998738600921514e-13,8.428591396311952e-16
	6.998743676202304e-13,0.0
	-2.430995982381741e+02,0.0
	3.140388352671850e+00,0.0

 10	1.333521432163325e-03,0.000000000000000e+00
	1.000000000000000e+00,0.000000000000000e+00
	1.537168623839142e-12,1.874433781501885e-09
	-7.852713440897164e-13,9.732875989042913e-16
	-7.852713440513870e-13,9.733185230332626e-16
	-7.852713440513870e-13,9.733185230332626e-16
	7.852719472496258e-13,0.0
	-2.420995983367628e+02,0.0
	3.140353186452762e+00,0.0

 11	1.372460961007563e-03,0.000000000000000e+00
	1.000000000000000e+00,0.000000000000000e+00
	1.724731537349289e-12,2.043478585958859e-09
	-8.810888890094556e-13,1.123934952058340e-15
	-8.810888889639009e-13,1.123970662683313e-15
	-8.810888889639009e-13,1.123970662683313e-15
	8.810896058663340e-13,0.0
	-2.410995984411937e+02,0.0
	3.140316993361774e+00,0.0

 12	1.412537544622755e-03,0.000000000000000e+00
	1.000000000000000e+00,0.000000000000000e+00
	1.935180582752998e-12,2.227768601837911e-09
	-9.885979330988382e-13,1.297899794137612e-15
	-9.885979330446964e-13,1.297941032121480e-15
	-9.885979330446964e-13,1.297941032121480e-15
	9.885987850848133e-13,0.0
	-2.400995985518177e+02,0.0
	3.140279743413706e+00,0.0

 13	1.453784385607663e-03,0.000000000000000e+00
	1.000000000000000e+00,0.000000000000000e+00
	2.171308289569167e-12,2.428678709486347e-09
	-1.109225053214988e-12,1.498791250709907e-15
	-1.109225053150640e-12,1.498838871587688e-15
	-1.109225053150640e-12,1.498838871587688e-15
	1.109226065802190e-12,0.0
	-2.390995986689905e+02,0.0
	3.140241405747796e+00,0.0

 14	1.496235656094435e-03,0.000000000000000e+00
	1.000000000000000e+00,0.000000000000000e+00
	2.436247927274692e-12,2.647707781931849e-09
	-1.244570894577130e-12,1.730777074591425e-15
	-1.244570894500652e-12,1.730832066319422e-15
	-1.244570894500652e-12,1.730832066319422e-15
	1.244572098039240e-12,0.0
	-2.380995987931024e+02,0.0
	3.140201948602136e+00,0.0

 15	1.539926526059493e-03,0.000000000000000e+00
	1.000000000000000e+00,0.000000000000000e+00
	2.733515081834294e-12,2.886489867067925e-09
	-1.396431410254820e-12,1.998670111198291e-15
	-1.396431410163927e-12,1.998733614650488e-15
	-1.396431410163927e-12,1.998733614650488e-15
	1.396432840572176e-12,0.0
	-2.370995989245767e+02,0.0
	3.140161339287355e+00,0.0

 16	1.584893192461115e-03,0.000000000000000e+00
	1.000000000000000e+00,0.000000000000000e+00
	3.067054305340243e-12,3.146806378304583e-09
	-1.566821692258812e-12,2.308028147167087e-15
	-1.566821692150785e-12,2.308101479804024e-15
	-1.566821692150785e-12,2.308101479804024e-15
	1.566823392194120e-12,0.0
	-2.360995990638392e+02,0.0
	3.140119544159537e+00,0.0

 17	1.631172909227840e-03,0.000000000000000e+00
	1.000000000000000e+00,0.000000000000000e+00
	3.441291457740697e-12,3.430599384602623e-09
	-1.758002710441695e-12,2.665269213706520e-15
	-1.758002710313304e-12,2.665353896907661e-15
	-1.758002710313304e-12,2.665353896907661e-15
	1.758004730818526e-12,0.0
	-2.350995992113471e+02,0.0
	3.140076528592348e+00,0.0

 18	1.678804018122562e-03,0.000000000000000e+00
	1.000000000000000e+00,0.000000000000000e+00
	3.861192435217058e-12,3.739986099058561e-09
	-1.972511314021392e-12,3.077804736803233e-15
	-1.972511313868800e-12,3.077902527429897e-15
	-1.972511313868800e-12,3.077902527429897e-15
	1.972513715243670e-12,0.0
	-2.340995993676034e+02,0.0
	3.140032256948352e+00,0.0

 19	1.727825980507865e-03,0.000000000000000e+00
	1.000000000000000e+00,0.000000000000000e+00
	4.332329064526492e-12,4.077274674150650e-09
	-2.213193893835855e-12,3.554193296668856e-15
	-2.213193893654498e-12,3.554306223512502e-15
	-2.213193893654498e-12,3.554306223512502e-15
	2.213196747693772e-12,0.0
	-2.330995995331165e+02,0.0
	3.139986692549483e+00,0.0

 20	1.778279410038925e-03,0.000000000000000e+00
	1.000000000000000e+00,0.000000000000000e+00
	4.860953037622152e-12,4.444981421434039e-09
	-2.483244151975337e-12,4.104318186312563e-15
	-2.483244151759795e-12,4.104448592184596e-15
	-2.483244151759795e-12,4.104448592184596e-15
	2.483247543791692e-12,0.0
	-2.320995997084323e+02,0.0
	3.139939797646658e+00,0.0

 21	1.830206106311058e-03,0.000000000000000e+00
	1.000000000000000e+00,0.000000000000000e+00
	5.454078867653025e-12,4.845849584182787e-09
	-2.786245479981615e-12,4.739592452935743e-15
	-2.786245479725443e-12,4.739743043272056e-15
	-2.786245479725443e-12,4.739743043272056e-15
	2.786249511162734e-12,0.0
	-2.310995998941415e+02,0.0
	3.139891533388508e+00,0.0

 22	1.883649089489803e-03,0.000000000000000e+00
	1.000000000000000e+00,0.000000000000000e+00
	6.119576967141950e-12,5.282869803041488e-09
	-3.126218507946883e-12,5.473195676004320e-15
	-3.126218507642422e-12,5.473369574992915e-15
	-3.126218507642422e-12,5.473369574992915e-15
	3.126223299014406e-12,0.0
	-2.300996000908520e+02,0.0
	3.139841859789186e+00,0.0

 23	1.938652635952210e-03,0.000000000000000e+00
	1.000000000000000e+00,0.000000000000000e+00
	6.866278083345142e-12,5.759302427314195e-09
	-3.507674455420578e-12,6.320347394184747e-15
	-3.507674455058725e-12,6.320548209580879e-15
	-3.507674455058725e-12,6.320548209580879e-15
	3.507680149614727e-12,0.0
	-2.290996002992239e+02,0.0
	3.139790735695241e+00,0.0

 24	1.995262314968882e-03,0.000000000000000e+00
	1.000000000000000e+00,0.000000000000000e+00
	7.704090476690473e-12,6.278701838410519e-09
	-3.935674992087012e-12,7.298622853802420e-15
	-3.935674991656947e-12,7.298854751775921e-15
	-3.935674991656947e-12,7.298854751775921e-15
	3.935681759649096e-12,0.0
	-2.280996005199360e+02,0.0
	3.139738118751526e+00,0.0

 25	2.053525026457149e-03,0.000000000000000e+00
	1.000000000000000e+00,0.000000000000000e+00
	8.644131397044769e-12,6.844942966822518e-09
	-4.415899402463542e-12,8.428317629298278e-15
	-4.415899401952410e-12,8.428585420865867e-15
	-4.415899401952410e-12,8.428585420865867e-15
	4.415907445725720e-12,0.0
	-2.270996007537286e+02,0.0
	3.139683965366106e+00,0.0

 26	2.113489039836650e-03,0.000000000000000e+00
	1.000000000000000e+00,0.000000000000000e+00
	9.698874602549706e-12,7.462250200550978e-09
	-4.954719945894106e-12,9.732868680289065e-15
	-4.954719945286625e-12,9.733177921124776e-15
	-4.954719945286625e-12,9.733177921124776e-15
	4.954729505328575e-12,0.0
	-2.260996010013734e+02,0.0
	3.139628230674143e+00,0.0

 27	2.175204034019526e-03,0.000000000000000e+00
	1.000000000000000e+00,0.000000000000000e+00
	1.088231587838946e-11,8.135228900565593e-09
	-5.559286411750804e-12,1.123934058046457e-14
	-5.559286411028812e-12,1.123969768615896e-14
	-5.559286411028812e-12,1.123969768615896e-14
	5.559297773159276e-12,0.0
	-2.250996012636920e+02,0.0
	3.139570868500733e+00,0.0

 28	2.238721138568343e-03,0.000000000000000e+00
	1.000000000000000e+00,0.000000000000000e+00
	1.221015875187249e-11,8.868899758459409e-09
	-6.237620991844653e-12,1.297898700577124e-14
	-6.237620990986564e-12,1.297939938493063e-14
	-6.237620990986564e-12,1.297939938493063e-14
	6.237634494903065e-12,0.0
	-2.240996015415530e+02,0.0
	3.139511831322642e+00,0.0

 29	2.304092976055850e-03,0.000000000000000e+00
	1.000000000000000e+00,0.000000000000000e+00
	1.370002286811192e-11,9.668736252590538e-09
	-6.998724728901356e-12,1.498789913058866e-14
	-6.998724727881516e-12,1.498837533853555e-14
	-6.998724727881516e-12,1.498837533853555e-14
	6.998740777315265e-12,0.0
	-2.230996018358795e+02,0.0
	3.139451070228943e+00,0.0

 30	2.371373705661660e-03,0.000000000000000e+00
	1.000000000000000e+00,0.000000000000000e+00
	1.537167779132664e-11,1.054070548215972e-08
	-7.852696953586511e-12,1.730775438365782e-14
	-7.852696952374429e-12,1.730830429992140e-14
	-7.852696952374429e-12,1.730830429992140e-14
	7.852716027160818e-12,0.0
	-2.220996021476477e+02,0.0
	3.139388534880493e+00,0.0

 31	2.440619068041985e-03,0.000000000000000e+00
	1.000000000000000e+00,0.000000000000000e+00
	1.724730533414148e-11,1.149131268384760e-08
	-8.810869294892487e-12,1.998668109756990e-14
	-8.810869293451924e-12,1.998731613084863e-14
	-8.810869293451924e-12,1.998731613084863e-14
	8.810891963876310e-12,0.0
	-2.210996024778860e+02,0.0
	3.139324173468227e+00,0.0

 32	2.511886431509585e-03,0.000000000000000e+00
	1.000000000000000e+00,0.000000000000000e+00
	1.935179389574939e-11,1.252764976308632e-08
	-9.885956042053371e-12,2.308025698990008e-14
	-9.885956040341259e-12,2.308099031474869e-14
	-9.885956040341259e-12,2.308099031474869e-14
	9.885982984188963e-12,0.0
	-2.200996028276954e+02,0.0
	3.139257932670239e+00,0.0

 33	2.585234839562196e-03,0.000000000000000e+00
	1.000000000000000e+00,0.000000000000000e+00
	2.171306871473600e-11,1.365744820209187e-08
	-1.109222285319818e-11,2.665266219076755e-14
	-1.109222285116333e-11,2.665350902091877e-14
	-1.109222285116333e-11,2.665350902091877e-14
	1.109225487398360e-11,0.0
	-2.190996031982323e+02,0.0
	3.139189757607606e+00,0.0

 34	2.660725059798815e-03,0.000000000000000e+00
	1.000000000000000e+00,0.000000000000000e+00
	2.436246241863956e-11,1.488913673927747e-08
	-1.244567604927418e-11,3.077801073753013e-14
	-1.244567604685576e-11,3.077898864152138e-14
	-1.244567604685576e-11,3.077898864152138e-14
	1.244571410604555e-11,0.0
	-2.180996035907220e+02,0.0
	3.139119591798922e+00,0.0

 35	2.738419634264367e-03,0.000000000000000e+00
	1.000000000000000e+00,0.000000000000000e+00
	2.733513078720636e-11,1.623190425037553e-08
	-1.396427500499514e-11,3.554188815999816e-14
	-1.396427500212083e-11,3.554301742565133e-14
	-1.396427500212083e-11,3.554301742565133e-14
	1.396432023554833e-11,0.0
	-2.170996040064713e+02,0.0
	3.139047377113508e+00,0.0

 36	2.818382931264460e-03,0.000000000000000e+00
	1.000000000000000e+00,0.000000000000000e+00
	3.067051924637890e-11,1.769576830043634e-08
	-1.566817045507543e-11,4.104312705527186e-14
	-1.566817045165932e-11,4.104443111058767e-14
	-1.566817045165932e-11,4.104443111058767e-14
	1.566822421168319e-11,0.0
	-2.160996044468489e+02,0.0
	3.138973053723253e+00,0.0

 37	2.900681198693160e-03,0.000000000000000e+00
	1.000000000000000e+00,0.000000000000000e+00
	3.441288628268015e-11,1.929164987793954e-08
	-1.757997187766980e-11,4.739585748801586e-14
	-1.757997187360974e-11,4.739736338721455e-14
	-1.757997187360974e-11,4.739736338721455e-14
	1.758003576751099e-11,0.0
	-2.150996049133259e+02,0.0
	3.138896560053048e+00,0.0

 38	2.985382618917966e-03,0.000000000000000e+00
	1.000000000000000e+00,0.000000000000000e+00
	3.861189072382444e-11,2.103145486878735e-08
	-1.972504750310970e-11,5.473187475457394e-14
	-1.972504749828431e-11,5.473361373936593e-14
	-1.972504749828431e-11,5.473361373936593e-14
	1.972512343631961e-11,0.0
	-2.140996054074459e+02,0.0
	3.138817832729775e+00,0.0

 39	3.072557365267454e-03,0.000000000000000e+00
	1.000000000000000e+00,0.000000000000000e+00
	4.332325067792151e-11,2.292816287777418e-08
	-2.213186092853155e-11,6.320337363223906e-14
	-2.213186092279657e-11,6.320538177996940e-14
	-2.213186092279657e-11,6.320538177996940e-14
	2.213195117530978e-11,0.0
	-2.130996059308393e+02,0.0
	3.138736806529806e+00,0.0

 40	3.162277660168387e-03,0.000000000000000e+00
	1.000000000000000e+00,0.000000000000000e+00
	4.860948287492196e-11,2.499592406018680e-08
	-2.483234880490427e-11,7.298610583859588e-14
	-2.483234879808824e-11,7.298842481070911e-14
	-2.483234879808824e-11,7.298842481070911e-14
	2.483245606338750e-11,0.0
	-2.120996064852473e+02,0.0
	3.138653414324969e+00,0.0

 41	3.254617834980467e-03,0.000000000000000e+00
	1.000000000000000e+00,0.000000000000000e+00
	5.454073222110994e-11,2.725016468602000e-08
	-2.786234460801807e-11,8.428302620613597e-14
	-2.786234459991721e-11,8.428570411248887e-14
	-2.786234459991721e-11,8.428570411248887e-14
	2.786247208494704e-11,0.0
	-2.110996070725110e+02,0.0
	3.138567587026934e+00,0.0

 42	3.349654391578285e-03,0.000000000000000e+00
	1.000000000000000e+00,0.000000000000000e+00
	6.119570257403047e-11,2.970770222425144e-08
	-3.126205411629335e-11,9.732850321562659e-14
	-3.126205410666545e-11,9.733159561257970e-14
	-3.126205410666545e-11,9.733159561257970e-14
	3.126220562288564e-11,0.0
	-2.100996076945664e+02,0.0
	3.138479253529981e+00,0.0

 43	3.447466065731503e-03,0.000000000000000e+00
	1.000000000000000e+00,0.000000000000000e+00
	6.866270108813516e-11,3.238687080555931e-08
	-3.507658890423727e-11,1.123931812394684e-13
	-3.507658889279449e-11,1.123967522824630e-13
	-3.507658889279449e-11,1.123967522824630e-13
	3.507676897013232e-11,0.0
	-2.090996083534790e+02,0.0
	3.138388340652087e+00,0.0

 44	3.548133892335764e-03,0.000000000000000e+00
	1.000000000000000e+00,0.000000000000000e+00
	7.704080998934638e-11,3.530765799966971e-08
	-3.935656493053659e-11,1.297895953679168e-13
	-3.935656491693683e-11,1.297937191424476e-13
	-3.935656491693683e-11,1.297937191424476e-13
	3.935677893921950e-11,0.0
	-2.080996090514428e+02,0.0
	3.138294773074310e+00,0.0

 45	3.651741272548387e-03,0.000000000000000e+00
	1.000000000000000e+00,0.000000000000000e+00
	8.644120132718969e-11,3.849185392770875e-08
	-4.415877416328541e-11,1.498786553035338e-13
	-4.415877414712207e-11,1.498834173621312e-13
	-4.415877414712207e-11,1.498834173621312e-13
	4.415902851303839e-11,0.0
	-2.070996097907527e+02,0.0
	3.138198473278378e+00,0.0

 46	3.758374042884452e-03,0.000000000000000e+00
	1.000000000000000e+00,0.000000000000000e+00
	9.698861214872121e-11,4.196321382140193e-08
	-4.954693815327879e-11,1.730771328361807e-13
	-4.954693813406862e-11,1.730826319732862e-13
	-4.954693813406862e-11,1.730826319732862e-13
	4.954724044847215e-11,0.0
	-2.060996105738767e+02,0.0
	3.138099361482484e+00,0.0

 47	3.868120546330533e-03,0.000000000000000e+00
	1.000000000000000e+00,0.000000000000000e+00
	1.088229996710484e-10,4.574763524270893e-08
	-5.559255355521026e-11,1.998663082371246e-13
	-5.559255353237894e-11,1.998726585386830e-13
	-5.559255353237894e-11,1.998726585386830e-13
	5.559291283365218e-11,0.0
	-2.050996114034021e+02,0.0
	3.137997355575183e+00,0.0

 48	3.981071705534985e-03,0.000000000000000e+00
	1.000000000000000e+00,0.000000000000000e+00
	1.221013984127441e-10,4.987335128500330e-08
	-6.237584081453615e-11,2.308019549457562e-13
	-6.237584078740107e-11,2.308092881560430e-13
	-6.237584078740107e-11,2.308092881560430e-13
	6.237626781767811e-11,0.0
	-2.040996122820802e+02,0.0
	3.137892371047371e+00,0.0

 49	4.097321098135428e-03,0.000000000000000e+00
	1.000000000000000e+00,0.000000000000000e+00
	1.370000039282654e-10,5.437114119766694e-08
	-6.998680860830269e-11,2.665258696927198e-13
	-6.998680857605260e-11,2.665343379475063e-13
	-6.998680857605260e-11,2.665343379475063e-13
	6.998731610237912e-11,0.0
	-2.030996132128224e+02,0.0
	3.137784320922281e+00,0.0

 50	4.216965034285836e-03,0.000000000000000e+00
	1.000000000000000e+00,0.000000000000000e+00
	1.537165107941047e-10,5.927456000503890e-08
	-7.852644816303202e-11,3.077791872608273e-13
	-7.852644812470273e-11,3.077889662435846e-13
	-7.852644812470273e-11,3.077889662435846e-13
	7.852705132073513e-11,0.0
	-2.020996141987127e+02,0.0
	3.137673115683421e+00,0.0

 51	4.340102636447452e-03,0.000000000000000e+00
	1.000000000000000e+00,0.000000000000000e+00
	1.724727358697038e-10,6.462018883265717e-08
	-8.810807329630800e-11,3.554177561097810e-13
	-8.810807325075356e-11,3.554290486964001e-13
	-8.810807325075356e-11,3.554290486964001e-13
	8.810879015040902e-11,0.0
	-2.010996152430224e+02,0.0
	3.137558663200424e+00,0.0

 52	4.466835921509646e-03,0.000000000000000e+00
	1.000000000000000e+00,0.000000000000000e+00
	1.935175616416946e-10,7.044790780827005e-08
	-9.885882396222950e-11,4.104298938450893e-13
	-9.885882390808797e-11,4.104429343127299e-13
	-9.885882390808797e-11,4.104429343127299e-13
	9.885967594470798e-11,0.0
	-2.000996163492135e+02,0.0
	3.137440868652722e+00,0.0

 53	4.597269885308737e-03,0.000000000000000e+00
	1.000000000000000e+00,0.000000000000000e+00
	2.171302387068598e-10,7.680119357327436e-08
	-1.109213532499584e-10,4.739568908821829e-13
	-1.109213531856111e-10,4.739719497695642e-13
	-1.109213531856111e-10,4.739719497695642e-13
	1.109223658327582e-10,0.0
	-1.990996175209469e+02,0.0
	3.137319634450996e+00,0.0

 54	4.731512589614821e-03,0.000000000000000e+00
	1.000000000000000e+00,0.000000000000000e+00
	2.436240912137646e-10,8.372744362371233e-08
