Title: * sky130 bjt 3-stage high-frequency output-isolation ac: riso=470k, cload=10p
Date: Fri May 22 22:02:51  2026
Command: ngspice-46, Build Mar 29 2026   15:02:07
Plotname: AC Analysis
Flags: complex
No. Variables: 9
No. Points: 721
Variables:
	0	frequency	frequency grid=3
	1	v(vin)	voltage
	2	v(b3_collector)	voltage
	3	v(vout_drv)	voltage
	4	v(vout_final)	voltage
	5	gain	notype
	6	gain_vv	notype
	7	gain_db	decibel
	8	phase_deg	phase
Values:
 0	1.000000000000000e-03,0.000000000000000e+00
	1.000000000000000e+00,0.000000000000000e+00
	4.861096667831021e-13,7.904423276608954e-10
	-2.483247083837999e-13,2.308073772647691e-16
	-2.483247083769837e-13,2.308147105345169e-16
	-2.483247083769837e-13,2.308147105345169e-16
	2.483248156466538e-13,0.0
	-2.520995975654219e+02,0.0
	3.140663166364891e+00,0.0

 1	1.029200527194428e-03,0.000000000000000e+00
	1.000000000000000e+00,0.000000000000000e+00
	5.454240123262721e-13,8.617279547834594e-10
	-2.786248964506952e-13,2.665321967875343e-16
	-2.786248964425942e-13,2.665406651150538e-16
	-2.786248964425942e-13,2.665406651150538e-16
	2.786250239328344e-13,0.0
	-2.510995976241491e+02,0.0
	3.140636024849107e+00,0.0

 2	1.059253725177289e-03,0.000000000000000e+00
	1.000000000000000e+00,0.000000000000000e+00
	6.119758017600773e-13,9.394424379971301e-10
	-3.126222649312928e-13,3.077865737941810e-16
	-3.126222649216647e-13,3.077963528659058e-16
	-3.126222649216647e-13,3.077963528659058e-16
	3.126224164440969e-13,0.0
	-2.500995976863537e+02,0.0
	3.140608090786861e+00,0.0

 3	1.090184492385128e-03,0.000000000000000e+00
	1.000000000000000e+00,0.000000000000000e+00
	6.866481366364465e-13,1.024165560113937e-09
	-3.507679377443649e-13,3.554263839464661e-16
	-3.507679377329218e-13,3.554376766419109e-16
	-3.507679377329218e-13,3.554376766419109e-16
	3.507681178176672e-13,0.0
	-2.490995977522487e+02,0.0
	3.140579341035389e+00,0.0

 4	1.122018454301964e-03,0.000000000000000e+00
	1.000000000000000e+00,0.000000000000000e+00
	7.704318731642739e-13,1.116529391318429e-09
	-3.935680841922429e-13,4.104399769914265e-16
	-3.935680841786429e-13,4.104530175921832e-16
	-3.935680841786429e-13,4.104530175921832e-16
	3.935682982097605e-13,0.0
	-2.480995978220422e+02,0.0
	3.140549751776147e+00,0.0

 5	1.154781984689459e-03,0.000000000000000e+00
	1.000000000000000e+00,0.000000000000000e+00
	8.644387702568041e-13,1.217223004666012e-09
	-4.415906355005386e-13,4.739686813505424e-16
	-4.415906354843749e-13,4.739837404007525e-16
	-4.415906354843749e-13,4.739837404007525e-16
	4.415908898608306e-13,0.0
	-2.470995978959749e+02,0.0
	3.140519298495076e+00,0.0

 6	1.188502227437019e-03,0.000000000000000e+00
	1.000000000000000e+00,0.000000000000000e+00
	9.699162418890615e-13,1.326997616853322e-09
	-4.954728209004285e-13,5.473304824508242e-16
	-4.954728208812178e-13,5.473478723699628e-16
	-4.954728208812178e-13,5.473478723699628e-16
	4.954731232081966e-13,0.0
	-2.460995979742885e+02,0.0
	3.140487955962296e+00,0.0

 7	1.223207119049932e-03,0.000000000000000e+00
	1.000000000000000e+00,0.000000000000000e+00
	1.088263909508945e-12,1.446672192599208e-09
	-5.559296232474527e-13,6.320473660295500e-16
	-5.559296232246208e-13,6.320674475939687e-16
	-5.559296232246208e-13,6.320674475939687e-16
	5.559299825409016e-13,0.0
	-2.450995980572418e+02,0.0
	3.140455698211203e+00,0.0

 8	1.258925411794168e-03,0.000000000000000e+00
	1.000000000000000e+00,0.000000000000000e+00
	1.221052174148822e-12,1.577139554454867e-09
	-6.237632663796962e-13,7.298768936875287e-16
	-6.237632663525606e-13,7.299000835152211e-16
	-6.237632663525606e-13,7.299000835152211e-16
	6.237636934007520e-13,0.0
	-2.440995981451071e+02,0.0
	3.140422498516954e+00,0.0

 9	1.295686697517020e-03,0.000000000000000e+00
	1.000000000000000e+00,0.000000000000000e+00
	1.370043054672197e-12,1.719373043619459e-09
	-6.998738601040112e-13,8.428486657628866e-16
	-6.998738600717604e-13,8.428754449567604e-16
	-6.998738600717604e-13,8.428754449567604e-16
	6.998743676194762e-13,0.0
	-2.430995982381834e+02,0.0
	3.140388329374328e+00,0.0

 10	1.333521432163325e-03,0.000000000000000e+00
	1.000000000000000e+00,0.000000000000000e+00
	1.537213568676280e-12,1.874433781462887e-09
	-7.852713440654827e-13,9.733064279994094e-16
	-7.852713440271526e-13,9.733373521283797e-16
	-7.852713440271526e-13,9.733373521283797e-16
	7.852719472487297e-13,0.0
	-2.420995983367727e+02,0.0
	3.140353162474941e+00,0.0

 11	1.372460961007563e-03,0.000000000000000e+00
	1.000000000000000e+00,0.000000000000000e+00
	1.724781966284475e-12,2.043478585913826e-09
	-8.810888889806540e-13,1.123956695556825e-15
	-8.810888889350984e-13,1.123992406181797e-15
	-8.810888889350984e-13,1.123992406181797e-15
	8.810896058652691e-13,0.0
	-2.410995984412042e+02,0.0
	3.140316968683788e+00,0.0

 12	1.412537544622755e-03,0.000000000000000e+00
	1.000000000000000e+00,0.000000000000000e+00
	1.935237164947117e-12,2.227768601785907e-09
	-9.885979330646073e-13,1.297924903136301e-15
	-9.885979330104646e-13,1.297966141120168e-15
	-9.885979330104646e-13,1.297966141120168e-15
	9.885987850835477e-13,0.0
	-2.400995985518288e+02,0.0
	3.140279718015109e+00,0.0

 13	1.453784385607663e-03,0.000000000000000e+00
	1.000000000000000e+00,0.000000000000000e+00
	2.171371775833023e-12,2.428678709426294e-09
	-1.109225053174304e-12,1.498820246127234e-15
	-1.109225053109956e-12,1.498867867005013e-15
	-1.109225053109956e-12,1.498867867005013e-15
	1.109226065800686e-12,0.0
	-2.390995986690022e+02,0.0
	3.140241379607547e+00,0.0

 14	1.496235656094435e-03,0.000000000000000e+00
	1.000000000000000e+00,0.000000000000000e+00
	2.436319160031802e-12,2.647707781862501e-09
	-1.244570894528777e-12,1.730810557974530e-15
	-1.244570894452298e-12,1.730865549702525e-15
	-1.244570894452298e-12,1.730865549702525e-15
	1.244572098037452e-12,0.0
	-2.380995987931149e+02,0.0
	3.140201921698578e+00,0.0

 15	1.539926526059493e-03,0.000000000000000e+00
	1.000000000000000e+00,0.000000000000000e+00
	2.733595006299316e-12,2.886489866987844e-09
	-1.396431410197354e-12,1.998708777202876e-15
	-1.396431410106459e-12,1.998772280655070e-15
	-1.396431410106459e-12,1.998772280655070e-15
	1.396432840570052e-12,0.0
	-2.370995989245899e+02,0.0
	3.140161311598199e+00,0.0

 16	1.584893192461115e-03,0.000000000000000e+00
	1.000000000000000e+00,0.000000000000000e+00
	3.067143982061371e-12,3.146806378212106e-09
	-1.566821692190513e-12,2.308072797968916e-15
	-1.566821692082484e-12,2.308146130605849e-15
	-1.566821692082484e-12,2.308146130605849e-15
	1.566823392191595e-12,0.0
	-2.360995990638532e+02,0.0
	3.140119515661842e+00,0.0

 17	1.631172909227840e-03,0.000000000000000e+00
	1.000000000000000e+00,0.000000000000000e+00
	3.441392076672475e-12,3.430599384495833e-09
	-1.758002710360521e-12,2.665320775643568e-15
	-1.758002710232128e-12,2.665405458844705e-15
	-1.758002710232128e-12,2.665405458844705e-15
	1.758004730815525e-12,0.0
	-2.350995992113620e+02,0.0
	3.140076499262506e+00,0.0

 18	1.678804018122562e-03,0.000000000000000e+00
	1.000000000000000e+00,0.000000000000000e+00
	3.861305331510314e-12,3.739986098935241e-09
	-1.972511313924917e-12,3.077864279593718e-15
	-1.972511313772321e-12,3.077962070220377e-15
	-1.972511313772321e-12,3.077962070220377e-15
	1.972513715240103e-12,0.0
	-2.340995993676191e+02,0.0
	3.140032226762064e+00,0.0

 19	1.727825980507865e-03,0.000000000000000e+00
	1.000000000000000e+00,0.000000000000000e+00
	4.332455736244943e-12,4.077274674008245e-09
	-2.213193893721194e-12,3.554262055603882e-15
	-2.213193893539835e-12,3.554374982447522e-15
	-2.213193893539835e-12,3.554374982447522e-15
	2.213196747689534e-12,0.0
	-2.330995995331332e+02,0.0
	3.139986661481739e+00,0.0

 20	1.778279410038925e-03,0.000000000000000e+00
	1.000000000000000e+00,0.000000000000000e+00
	4.861095165620758e-12,4.444981421269588e-09
	-2.483244151839062e-12,4.104397587883768e-15
	-2.483244151623515e-12,4.104527993755794e-15
	-2.483244151623515e-12,4.104527993755794e-15
	2.483247543786653e-12,0.0
	-2.320995997084499e+02,0.0
	3.139939765671719e+00,0.0

 21	1.830206106311058e-03,0.000000000000000e+00
	1.000000000000000e+00,0.000000000000000e+00
	5.454238337881860e-12,4.845849583992883e-09
	-2.786245479819652e-12,4.739684144429641e-15
	-2.786245479563474e-12,4.739834734765945e-15
	-2.786245479563474e-12,4.739834734765945e-15
	2.786249511156746e-12,0.0
	-2.310995998941601e+02,0.0
	3.139891500479885e+00,0.0

 22	1.883649089489803e-03,0.000000000000000e+00
	1.000000000000000e+00,0.000000000000000e+00
	6.119755895671539e-12,5.282869802822192e-09
	-3.126218507754390e-12,5.473301559677281e-15
	-3.126218507449923e-12,5.473475458665866e-15
	-3.126218507449923e-12,5.473475458665866e-15
	3.126223299007289e-12,0.0
	-2.300996000908718e+02,0.0
	3.139841825919613e+00,0.0

 23	1.938652635952210e-03,0.000000000000000e+00
	1.000000000000000e+00,0.000000000000000e+00
	6.866478844445362e-12,5.759302427060950e-09
	-3.507674455191796e-12,6.320469666727655e-15
	-3.507674454829936e-12,6.320670482123774e-15
	-3.507674454829936e-12,6.320670482123774e-15
	3.507680149606266e-12,0.0
	-2.290996002992449e+02,0.0
	3.139790700836659e+00,0.0

 24	1.995262314968882e-03,0.000000000000000e+00
	1.000000000000000e+00,0.000000000000000e+00
	7.704315734335597e-12,6.278701838118083e-09
	-3.935674991815108e-12,7.298764051913734e-15
	-3.935674991385036e-12,7.298995949887219e-15
	-3.935674991385036e-12,7.298995949887219e-15
	3.935681759639043e-12,0.0
	-2.280996005199582e+02,0.0
	3.139738082875055e+00,0.0

 25	2.053525026457149e-03,0.000000000000000e+00
	1.000000000000000e+00,0.000000000000000e+00
	8.644384140262646e-12,6.844942966484818e-09
	-4.415899402140385e-12,8.428480682310902e-15
	-4.415899401629243e-12,8.428748473878472e-15
	-4.415899401629243e-12,8.428748473878472e-15
	4.415907445713773e-12,0.0
	-2.270996007537521e+02,0.0
	3.139683928442023e+00,0.0

 26	2.113489039836650e-03,0.000000000000000e+00
	1.000000000000000e+00,0.000000000000000e+00
	9.699158185084264e-12,7.462250200161009e-09
	-4.954719945510033e-12,9.733056970942968e-15
	-4.954719944902540e-12,9.733366211778654e-15
	-4.954719944902540e-12,9.733366211778654e-15
	4.954729505314376e-12,0.0
	-2.260996010013983e+02,0.0
	3.139628192671858e+00,0.0

 27	2.175204034019526e-03,0.000000000000000e+00
	1.000000000000000e+00,0.000000000000000e+00
	1.088263406320265e-11,8.135228900115258e-09
	-5.559286411294328e-12,1.123955801508577e-14
	-5.559286410572321e-12,1.123991512078014e-14
	-5.559286410572321e-12,1.123991512078014e-14
	5.559297773142396e-12,0.0
	-2.250996012637184e+02,0.0
	3.139570829388760e+00,0.0

 28	2.238721138568343e-03,0.000000000000000e+00
	1.000000000000000e+00,0.000000000000000e+00
	1.221051576107637e-11,8.868899757939371e-09
	-6.237620991302132e-12,1.297923809531332e-14
	-6.237620990444026e-12,1.297965047447267e-14
	-6.237620990444026e-12,1.297965047447267e-14
	6.237634494883005e-12,0.0
	-2.240996015415809e+02,0.0
	3.139511791068579e+00,0.0

 29	2.304092976055850e-03,0.000000000000000e+00
	1.000000000000000e+00,0.000000000000000e+00
	1.370042343899328e-11,9.668736251990014e-09
	-6.998724728256574e-12,1.498818908421784e-14
	-6.998724727236713e-12,1.498866529216468e-14
	-6.998724727236713e-12,1.498866529216468e-14
	6.998740777291429e-12,0.0
	-2.230996018359091e+02,0.0
	3.139451028799441e+00,0.0

 30	2.371373705661660e-03,0.000000000000000e+00
	1.000000000000000e+00,0.000000000000000e+00
	1.537212723920766e-11,1.054070548146625e-08
	-7.852696952820184e-12,1.730808921682334e-14
	-7.852696951608076e-12,1.730863913308687e-14
	-7.852696951608076e-12,1.730863913308687e-14
	7.852716027132485e-12,0.0
	-2.220996021476790e+02,0.0
	3.139388492241228e+00,0.0

 31	2.440619068041985e-03,0.000000000000000e+00
	1.000000000000000e+00,0.000000000000000e+00
	1.724780962291055e-11,1.149131268304678e-08
	-8.810869293981700e-12,1.998706775680165e-14
	-8.810869292541110e-12,1.998770279008031e-14
	-8.810869292541110e-12,1.998770279008031e-14
	8.810891963842634e-12,0.0
	-2.210996024779192e+02,0.0
	3.139324129583873e+00,0.0

 32	2.511886431509585e-03,0.000000000000000e+00
	1.000000000000000e+00,0.000000000000000e+00
	1.935235971699792e-11,1.252764976216156e-08
	-9.885956040970905e-12,2.308070349692257e-14
	-9.885956039258759e-12,2.308143682177111e-14
	-9.885956039258759e-12,2.308143682177111e-14
	9.885982984148945e-12,0.0
	-2.200996028277306e+02,0.0
	3.139257887504439e+00,0.0

 33	2.585234839562196e-03,0.000000000000000e+00
	1.000000000000000e+00,0.000000000000000e+00
	2.171370357655329e-11,1.365744820102509e-08
	-1.109222285191258e-11,2.665317780892227e-14
	-1.109222284987768e-11,2.665402463907340e-14
	-1.109222284987768e-11,2.665402463907340e-14
	1.109225487393695e-11,0.0
	-2.190996031982689e+02,0.0
	3.139189711122941e+00,0.0

 34	2.660725059798815e-03,0.000000000000000e+00
	1.000000000000000e+00,0.000000000000000e+00
	2.436317474523227e-11,1.488913673804427e-08
	-1.244567604774516e-11,3.077860616394504e-14
	-1.244567604532669e-11,3.077958406793617e-14
	-1.244567604532669e-11,3.077958406793617e-14
	1.244571410598902e-11,0.0
	-2.180996035907614e+02,0.0
	3.139119543956880e+00,0.0

 35	2.738419634264367e-03,0.000000000000000e+00
	1.000000000000000e+00,0.000000000000000e+00
	2.733593003069374e-11,1.623190424895146e-08
	-1.396427500317788e-11,3.554257574752592e-14
	-1.396427500030353e-11,3.554370501317894e-14
	-1.396427500030353e-11,3.554370501317894e-14
	1.396432023548115e-11,0.0
	-2.170996040065131e+02,0.0
	3.139047327874454e+00,0.0

 36	2.818382931264460e-03,0.000000000000000e+00
	1.000000000000000e+00,0.000000000000000e+00
	3.067141601220555e-11,1.769576829879037e-08
	-1.566817045291431e-11,4.104392106875115e-14
	-1.566817044949814e-11,4.104522512406678e-14
	-1.566817044949814e-11,4.104522512406678e-14
	1.566822421160203e-11,0.0
	-2.160996044468939e+02,0.0
	3.138973003046392e+00,0.0

 37	2.900681198693160e-03,0.000000000000000e+00
	1.000000000000000e+00,0.000000000000000e+00
	3.441389247035540e-11,1.929164987604051e-08
	-1.757997187510286e-11,4.739677440022792e-14
	-1.757997187104272e-11,4.739828029942639e-14
	-1.757997187104272e-11,4.739828029942639e-14
	1.758003576741608e-11,0.0
	-2.150996049133728e+02,0.0
	3.138896507896396e+00,0.0

 38	2.985382618917966e-03,0.000000000000000e+00
	1.000000000000000e+00,0.000000000000000e+00
	3.861301968480485e-11,2.103145486659438e-08
	-1.972504750005888e-11,5.473293358796796e-14
	-1.972504749523341e-11,5.473467257275968e-14
	-1.972504749523341e-11,5.473467257275968e-14
	1.972512343620682e-11,0.0
	-2.140996054074955e+02,0.0
	3.138817779050122e+00,0.0

 39	3.072557365267454e-03,0.000000000000000e+00
	1.000000000000000e+00,0.000000000000000e+00
	4.332451739278590e-11,2.292816287524177e-08
	-2.213186092490565e-11,6.320459635358807e-14
	-2.213186091917056e-11,6.320660450131808e-14
	-2.213186091917056e-11,6.320660450131808e-14
	2.213195117517571e-11,0.0
	-2.130996059308920e+02,0.0
	3.138736751282679e+00,0.0

 40	3.162277660168387e-03,0.000000000000000e+00
	1.000000000000000e+00,0.000000000000000e+00
	4.861090415215055e-11,2.499592405726243e-08
	-2.483234880059488e-11,7.298751781471816e-14
	-2.483234879377872e-11,7.298983678683099e-14
	-2.483234879377872e-11,7.298983678683099e-14
	2.483245606322817e-11,0.0
	-2.120996064853030e+02,0.0
	3.138653357464597e+00,0.0

 41	3.254617834980467e-03,0.000000000000000e+00
	1.000000000000000e+00,0.000000000000000e+00
	5.454232692012102e-11,2.725016468264297e-08
	-2.786234460289634e-11,8.428465673015744e-14
	-2.786234459479532e-11,8.428733463650984e-14
	-2.786234459479532e-11,8.428733463650984e-14
	2.786247208475766e-11,0.0
	-2.110996070725701e+02,0.0
	3.138567528506210e+00,0.0

 42	3.349654391578285e-03,0.000000000000000e+00
	1.000000000000000e+00,0.000000000000000e+00
	6.119749185543132e-11,2.970770222035174e-08
	-3.126205411020620e-11,9.733038611469821e-14
	-3.126205410057811e-11,9.733347851165072e-14
	-3.126205410057811e-11,9.733347851165072e-14
	3.126220562266060e-11,0.0
	-2.100996076946289e+02,0.0
	3.138479193300420e+00,0.0

 43	3.447466065731503e-03,0.000000000000000e+00
	1.000000000000000e+00,0.000000000000000e+00
	6.866470869450808e-11,3.238687080105599e-08
	-3.507658889700265e-11,1.123953555765463e-13
	-3.507658888555966e-11,1.123989266195402e-13
	-3.507658888555966e-11,1.123989266195402e-13
	3.507676896986483e-11,0.0
	-2.090996083535452e+02,0.0
	3.138388278663792e+00,0.0

 44	3.548133892335764e-03,0.000000000000000e+00
	1.000000000000000e+00,0.000000000000000e+00
	7.704306256029573e-11,3.530765799446936e-08
	-3.935656492193823e-11,1.297921062521646e-13
	-3.935656490833820e-11,1.297962300266946e-13
	-3.935656490833820e-11,1.297962300266946e-13
	3.935677893890159e-11,0.0
	-2.080996090515130e+02,0.0
	3.138294709275924e+00,0.0

 45	3.651741272548387e-03,0.000000000000000e+00
	1.000000000000000e+00,0.000000000000000e+00
	8.644372875282946e-11,3.849185392170350e-08
	-4.415877415306629e-11,1.498815548261587e-13
	-4.415877413690264e-11,1.498863168847549e-13
	-4.415877413690264e-11,1.498863168847549e-13
	4.415902851266058e-11,0.0
	-2.070996097908270e+02,0.0
	3.138198407617047e+00,0.0

 46	3.758374042884452e-03,0.000000000000000e+00
	1.000000000000000e+00,0.000000000000000e+00
	9.699144796629517e-11,4.196321381446718e-08
	-4.954693814113333e-11,1.730804811511184e-13
	-4.954693812192279e-11,1.730859802882226e-13
	-4.954693812192279e-11,1.730859802882226e-13
	4.954724044802312e-11,0.0
	-2.060996105739554e+02,0.0
	3.138099293903807e+00,0.0

 47	3.868120546330533e-03,0.000000000000000e+00
	1.000000000000000e+00,0.000000000000000e+00
	1.088261815099438e-10,4.574763523470079e-08
	-5.559255354077533e-11,1.998701748089932e-13
	-5.559255351794357e-11,1.998765251105500e-13
	-5.559255351794357e-11,1.998765251105500e-13
	5.559291283311848e-11,0.0
	-2.050996114034855e+02,0.0
	3.137997286023174e+00,0.0

 48	3.981071705534985e-03,0.000000000000000e+00
	1.000000000000000e+00,0.000000000000000e+00
	1.221049684938051e-10,4.987335127575563e-08
	-6.237584079738021e-11,2.308064199909679e-13
	-6.237584077024461e-11,2.308137532012527e-13
	-6.237584077024461e-11,2.308137532012527e-13
	6.237626781704382e-11,0.0
	-2.040996122821685e+02,0.0
	3.137892299464408e+00,0.0

 49	4.097321098135428e-03,0.000000000000000e+00
	1.000000000000000e+00,0.000000000000000e+00
	1.370040096240320e-10,5.437114118698794e-08
	-6.998680858791286e-11,2.665310258436476e-13
	-6.998680855566213e-11,2.665394940984316e-13
	-6.998680855566213e-11,2.665394940984316e-13
	6.998731610162527e-11,0.0
	-2.030996132129160e+02,0.0
	3.137784247249058e+00,0.0

 50	4.216965034285836e-03,0.000000000000000e+00
	1.000000000000000e+00,0.000000000000000e+00
	1.537210052574085e-10,5.927455999270701e-08
	-7.852644813879870e-11,3.077851414875508e-13
	-7.852644810046868e-11,3.077949204703051e-13
	-7.852644810046868e-11,3.077949204703051e-13
	7.852705131983925e-11,0.0
	-2.020996141988118e+02,0.0
	3.137673039858901e+00,0.0

 51	4.340102636447452e-03,0.000000000000000e+00
	1.000000000000000e+00,0.000000000000000e+00
	1.724777787389653e-10,6.462018881841649e-08
	-8.810807326750662e-11,3.554246319392796e-13
	-8.810807322195130e-11,3.554359245258950e-13
	-8.810807322195130e-11,3.554359245258950e-13
	8.810879014934421e-11,0.0
	-2.010996152431274e+02,0.0
	3.137558585161789e+00,0.0

 52	4.466835921509646e-03,0.000000000000000e+00
	1.000000000000000e+00,0.000000000000000e+00
	1.935232198322767e-10,7.044790779182517e-08
	-9.885882392799898e-11,4.104378339239197e-13
	-9.885882387385641e-11,4.104508743915557e-13
	-9.885882387385641e-11,4.104508743915557e-13
	9.885967594344243e-11,0.0
	-2.000996163493247e+02,0.0
	3.137440788335318e+00,0.0

 53	4.597269885308737e-03,0.000000000000000e+00
	1.000000000000000e+00,0.000000000000000e+00
	2.171365872989614e-10,7.680119355427763e-08
	-1.109213532092661e-10,4.739660599357651e-13
	-1.109213531449175e-10,4.739811188231409e-13
	-1.109213531449175e-10,4.739811188231409e-13
	1.109223658312448e-10,0.0
	-1.990996175210654e+02,0.0
	3.137319551788283e+00,0.0

 54	4.731512589614821e-03,0.000000000000000e+00
	1.000000000000000e+00,0.000000000000000e+00
	2.436312144487523e-10,8.372744360178267e-08
