Title: * sky130 bjt 3-stage high-frequency output-isolation ac: riso=100k, cload=10p
Date: Fri May 22 22:02:48  2026
Command: ngspice-46, Build Mar 29 2026   15:02:07
Plotname: AC Analysis
Flags: complex
No. Variables: 9
No. Points: 721
Variables:
	0	frequency	frequency grid=3
	1	v(vin)	voltage
	2	v(b3_collector)	voltage
	3	v(vout_drv)	voltage
	4	v(vout_final)	voltage
	5	gain	notype
	6	gain_vv	notype
	7	gain_db	decibel
	8	phase_deg	phase
Values:
 0	1.000000000000000e-03,0.000000000000000e+00
	1.000000000000000e+00,0.000000000000000e+00
	4.861096667831021e-13,7.904423276608954e-10
	-2.483247083837991e-13,2.308073772647682e-16
	-2.483247083823489e-13,2.308089375349274e-16
	-2.483247083823489e-13,2.308089375349274e-16
	2.483248156466532e-13,0.0
	-2.520995975654219e+02,0.0
	3.140663189612677e+00,0.0

 1	1.029200527194428e-03,0.000000000000000e+00
	1.000000000000000e+00,0.000000000000000e+00
	5.454240123262721e-13,8.617279547834594e-10
	-2.786248964506964e-13,2.665321967875358e-16
	-2.786248964489728e-13,2.665339985593485e-16
	-2.786248964489728e-13,2.665339985593485e-16
	2.786250239328356e-13,0.0
	-2.510995976241490e+02,0.0
	3.140636048775740e+00,0.0

 2	1.059253725177289e-03,0.000000000000000e+00
	1.000000000000000e+00,0.000000000000000e+00
	6.119758017600773e-13,9.394424379971301e-10
	-3.126222649312937e-13,3.077865737941821e-16
	-3.126222649292453e-13,3.077886544477406e-16
	-3.126222649292453e-13,3.077886544477406e-16
	3.126224164440979e-13,0.0
	-2.500995976863537e+02,0.0
	3.140608115412165e+00,0.0

 3	1.090184492385128e-03,0.000000000000000e+00
	1.000000000000000e+00,0.000000000000000e+00
	6.866481366364465e-13,1.024165560113937e-09
	-3.507679377443650e-13,3.554263839464664e-16
	-3.507679377419304e-13,3.554287866476250e-16
	-3.507679377419304e-13,3.554287866476250e-16
	3.507681178176676e-13,0.0
	-2.490995977522487e+02,0.0
	3.140579366379765e+00,0.0

 4	1.122018454301964e-03,0.000000000000000e+00
	1.000000000000000e+00,0.000000000000000e+00
	7.704318731642739e-13,1.116529391318429e-09
	-3.935680841922426e-13,4.104399769914261e-16
	-3.935680841893491e-13,4.104427515873319e-16
	-3.935680841893491e-13,4.104427515873319e-16
	3.935682982097605e-13,0.0
	-2.480995978220422e+02,0.0
	3.140549777860592e+00,0.0

 5	1.154781984689459e-03,0.000000000000000e+00
	1.000000000000000e+00,0.000000000000000e+00
	8.644387702568041e-13,1.217223004666012e-09
	-4.415906355005417e-13,4.739686813505468e-16
	-4.415906354971027e-13,4.739718854037830e-16
	-4.415906354971027e-13,4.739718854037830e-16
	4.415908898608339e-13,0.0
	-2.470995978959748e+02,0.0
	3.140519325341200e+00,0.0

 6	1.188502227437019e-03,0.000000000000000e+00
	1.000000000000000e+00,0.000000000000000e+00
	9.699162418890615e-13,1.326997616853322e-09
	-4.954728209004322e-13,5.473304824508297e-16
	-4.954728208963450e-13,5.473341824336252e-16
	-4.954728208963450e-13,5.473341824336252e-16
	4.954731232082007e-13,0.0
	-2.460995979742885e+02,0.0
	3.140487983592341e+00,0.0

 7	1.223207119049932e-03,0.000000000000000e+00
	1.000000000000000e+00,0.000000000000000e+00
	1.088263909508945e-12,1.446672192599208e-09
	-5.559296232474529e-13,6.320473660295504e-16
	-5.559296232425952e-13,6.320516387028311e-16
	-5.559296232425952e-13,6.320516387028311e-16
	5.559299825409022e-13,0.0
	-2.450995980572418e+02,0.0
	3.140455726648060e+00,0.0

 8	1.258925411794168e-03,0.000000000000000e+00
	1.000000000000000e+00,0.000000000000000e+00
	1.221052174148822e-12,1.577139554454867e-09
	-6.237632663797013e-13,7.298768936875366e-16
	-6.237632663739279e-13,7.298818276934288e-16
	-6.237632663739279e-13,7.298818276934288e-16
	6.237636934007574e-13,0.0
	-2.440995981451070e+02,0.0
	3.140422527784182e+00,0.0

 9	1.295686697517020e-03,0.000000000000000e+00
	1.000000000000000e+00,0.000000000000000e+00
	1.370043054672197e-12,1.719373043619459e-09
	-6.998738601040144e-13,8.428486657628917e-16
	-6.998738600971527e-13,8.428543634637162e-16
	-6.998738600971527e-13,8.428543634637162e-16
	6.998743676194799e-13,0.0
	-2.430995982381833e+02,0.0
	3.140388359496175e+00,0.0

 10	1.333521432163325e-03,0.000000000000000e+00
	1.000000000000000e+00,0.000000000000000e+00
	1.537213568676280e-12,1.874433781462887e-09
	-7.852713440654897e-13,9.733064279994208e-16
	-7.852713440573347e-13,9.733130076013297e-16
	-7.852713440573347e-13,9.733130076013297e-16
	7.852719472487373e-13,0.0
	-2.420995983367726e+02,0.0
	3.140353193476361e+00,0.0

 11	1.372460961007563e-03,0.000000000000000e+00
	1.000000000000000e+00,0.000000000000000e+00
	1.724781966284475e-12,2.043478585913826e-09
	-8.810888889806629e-13,1.123956695556840e-15
	-8.810888889709706e-13,1.123964293562154e-15
	-8.810888889709706e-13,1.123964293562154e-15
	8.810896058652789e-13,0.0
	-2.410995984412041e+02,0.0
	3.140317000590466e+00,0.0

 12	1.412537544622755e-03,0.000000000000000e+00
	1.000000000000000e+00,0.000000000000000e+00
	1.935237164947117e-12,2.227768601785907e-09
	-9.885979330646168e-13,1.297924903136318e-15
	-9.885979330530975e-13,1.297933677175439e-15
	-9.885979330530975e-13,1.297933677175439e-15
	9.885987850835580e-13,0.0
	-2.400995985518287e+02,0.0
	3.140279750853479e+00,0.0

 13	1.453784385607663e-03,0.000000000000000e+00
	1.000000000000000e+00,0.000000000000000e+00
	2.171371775833023e-12,2.428678709426294e-09
	-1.109225053174317e-12,1.498820246127256e-15
	-1.109225053160626e-12,1.498830378228911e-15
	-1.109225053160626e-12,1.498830378228911e-15
	1.109226065800699e-12,0.0
	-2.390995986690021e+02,0.0
	3.140241413404815e+00,0.0

 14	1.496235656094435e-03,0.000000000000000e+00
	1.000000000000000e+00,0.000000000000000e+00
	2.436319160031802e-12,2.647707781862501e-09
	-1.244570894528793e-12,1.730810557974560e-15
	-1.244570894512522e-12,1.730822258342219e-15
	-1.244570894512522e-12,1.730822258342219e-15
	1.244572098037469e-12,0.0
	-2.380995987931148e+02,0.0
	3.140201956482744e+00,0.0

 15	1.539926526059493e-03,0.000000000000000e+00
	1.000000000000000e+00,0.000000000000000e+00
	2.733595006299316e-12,2.886489866987844e-09
	-1.396431410197379e-12,1.998708777202924e-15
	-1.396431410178040e-12,1.998722288575732e-15
	-1.396431410178040e-12,1.998722288575732e-15
	1.396432840570078e-12,0.0
	-2.370995989245898e+02,0.0
	3.140161347398081e+00,0.0

 16	1.584893192461115e-03,0.000000000000000e+00
	1.000000000000000e+00,0.000000000000000e+00
	3.067143982061371e-12,3.146806378212106e-09
	-1.566821692190534e-12,2.308072797968959e-15
	-1.566821692167550e-12,2.308088400657669e-15
	-1.566821692167550e-12,2.308088400657669e-15
	1.566823392191619e-12,0.0
	-2.360995990638531e+02,0.0
	3.140119552507100e+00,0.0

 17	1.631172909227840e-03,0.000000000000000e+00
	1.000000000000000e+00,0.000000000000000e+00
	3.441392076672475e-12,3.430599384495833e-09
	-1.758002710360552e-12,2.665320775643632e-15
	-1.758002710333236e-12,2.665338793346002e-15
	-1.758002710333236e-12,2.665338793346002e-15
	1.758004730815559e-12,0.0
	-2.350995992113618e+02,0.0
	3.140076537183664e+00,0.0

 18	1.678804018122562e-03,0.000000000000000e+00
	1.000000000000000e+00,0.000000000000000e+00
	3.861305331510314e-12,3.739986098935241e-09
	-1.972511313924932e-12,3.077864279593747e-15
	-1.972511313892465e-12,3.077885086110059e-15
	-1.972511313892465e-12,3.077885086110059e-15
	1.972513715240120e-12,0.0
	-2.340995993676191e+02,0.0
	3.140032265790540e+00,0.0

 19	1.727825980507865e-03,0.000000000000000e+00
	1.000000000000000e+00,0.000000000000000e+00
	4.332455736244943e-12,4.077274674008245e-09
	-2.213193893721214e-12,3.554262055603925e-15
	-2.213193893682628e-12,3.554286082591935e-15
	-2.213193893682628e-12,3.554286082591935e-15
	2.213196747689556e-12,0.0
	-2.330995995331331e+02,0.0
	3.139986701649867e+00,0.0

 20	1.778279410038925e-03,0.000000000000000e+00
	1.000000000000000e+00,0.000000000000000e+00
	4.861095165620758e-12,4.444981421269588e-09
	-2.483244151839082e-12,4.104397587883813e-15
	-2.483244151793222e-12,4.104425333814033e-15
	-2.483244151793222e-12,4.104425333814033e-15
	2.483247543786675e-12,0.0
	-2.320995997084499e+02,0.0
	3.139939807012778e+00,0.0

 21	1.830206106311058e-03,0.000000000000000e+00
	1.000000000000000e+00,0.000000000000000e+00
	5.454238337881860e-12,4.845849583992883e-09
	-2.786245479819681e-12,4.739684144429707e-15
	-2.786245479765176e-12,4.739716184926796e-15
	-2.786245479765176e-12,4.739716184926796e-15
	2.786249511156779e-12,0.0
	-2.310995998941601e+02,0.0
	3.139891543028124e+00,0.0

 22	1.883649089489803e-03,0.000000000000000e+00
	1.000000000000000e+00,0.000000000000000e+00
	6.119755895671539e-12,5.282869802822192e-09
	-3.126218507754429e-12,5.473301559677372e-15
	-3.126218507689650e-12,5.473338559462179e-15
	-3.126218507689650e-12,5.473338559462179e-15
	3.126223299007332e-12,0.0
	-2.300996000908717e+02,0.0
	3.139841869710283e+00,0.0

 23	1.938652635952210e-03,0.000000000000000e+00
	1.000000000000000e+00,0.000000000000000e+00
	6.866478844445362e-12,5.759302427060950e-09
	-3.507674455191839e-12,6.320469666727758e-15
	-3.507674455114849e-12,6.320512393407786e-15
	-3.507674455114849e-12,6.320512393407786e-15
	3.507680149606313e-12,0.0
	-2.290996002992448e+02,0.0
	3.139790745906040e+00,0.0

 24	1.995262314968882e-03,0.000000000000000e+00
	1.000000000000000e+00,0.000000000000000e+00
	7.704315734335597e-12,6.278701838118083e-09
	-3.935674991815185e-12,7.298764051913928e-15
	-3.935674991723682e-12,7.298813391908289e-15
	-3.935674991723682e-12,7.298813391908289e-15
	3.935681759639127e-12,0.0
	-2.280996005199580e+02,0.0
	3.139738129260485e+00,0.0

 25	2.053525026457149e-03,0.000000000000000e+00
	1.000000000000000e+00,0.000000000000000e+00
	8.644384140262646e-12,6.844942966484818e-09
	-4.415899402140491e-12,8.428480682311177e-15
	-4.415899402031740e-12,8.428537659240452e-15
	-4.415899402031740e-12,8.428537659240452e-15
	4.415907445713888e-12,0.0
	-2.270996007537518e+02,0.0
	3.139683976181932e+00,0.0

 26	2.113489039836650e-03,0.000000000000000e+00
	1.000000000000000e+00,0.000000000000000e+00
	9.699158185084264e-12,7.462250200161009e-09
	-4.954719945510152e-12,9.733056970943282e-15
	-4.954719945380902e-12,9.733122766865775e-15
	-4.954719945380902e-12,9.733122766865775e-15
	4.954729505314506e-12,0.0
	-2.260996010013981e+02,0.0
	3.139628241805798e+00,0.0

 27	2.175204034019526e-03,0.000000000000000e+00
	1.000000000000000e+00,0.000000000000000e+00
	1.088263406320265e-11,8.135228900115258e-09
	-5.559286411294447e-12,1.123955801508610e-14
	-5.559286411140833e-12,1.123963399502108e-14
	-5.559286411140833e-12,1.123963399502108e-14
	5.559297773142527e-12,0.0
	-2.250996012637182e+02,0.0
	3.139570879957438e+00,0.0

 28	2.238721138568343e-03,0.000000000000000e+00
	1.000000000000000e+00,0.000000000000000e+00
	1.221051576107637e-11,8.868899757939371e-09
	-6.237620991302301e-12,1.297923809531379e-14
	-6.237620991119729e-12,1.297932583556047e-14
	-6.237620991119729e-12,1.297932583556047e-14
	6.237634494883186e-12,0.0
	-2.240996015415806e+02,0.0
	3.139511843113888e+00,0.0

 29	2.304092976055850e-03,0.000000000000000e+00
	1.000000000000000e+00,0.000000000000000e+00
	1.370042343899328e-11,9.668736251990014e-09
	-6.998724728256777e-12,1.498818908421843e-14
	-6.998724728039791e-12,1.498829040505819e-14
	-6.998724728039791e-12,1.498829040505819e-14
	6.998740777291648e-12,0.0
	-2.230996018359088e+02,0.0
	3.139451082364500e+00,0.0

 30	2.371373705661660e-03,0.000000000000000e+00
	1.000000000000000e+00,0.000000000000000e+00
	1.537212723920766e-11,1.054070548146625e-08
	-7.852696952820428e-12,1.730808921682406e-14
	-7.852696952562539e-12,1.730820622028440e-14
	-7.852696952562539e-12,1.730820622028440e-14
	7.852716027132750e-12,0.0
	-2.220996021476787e+02,0.0
	3.139388547370415e+00,0.0

 31	2.440619068041985e-03,0.000000000000000e+00
	1.000000000000000e+00,0.000000000000000e+00
	1.724780962291055e-11,1.149131268304678e-08
	-8.810869293982020e-12,1.998706775680263e-14
	-8.810869293675518e-12,1.998720287026619e-14
	-8.810869293675518e-12,1.998720287026619e-14
	8.810891963842975e-12,0.0
	-2.210996024779189e+02,0.0
	3.139324186322862e+00,0.0

 32	2.511886431509585e-03,0.000000000000000e+00
	1.000000000000000e+00,0.000000000000000e+00
	1.935235971699792e-11,1.252764976216156e-08
	-9.885956040971270e-12,2.308070349692371e-14
	-9.885956040606994e-12,2.308085952348725e-14
	-9.885956040606994e-12,2.308085952348725e-14
	9.885982984149338e-12,0.0
	-2.200996028277302e+02,0.0
	3.139257945900236e+00,0.0

 33	2.585234839562196e-03,0.000000000000000e+00
	1.000000000000000e+00,0.000000000000000e+00
	2.171370357655329e-11,1.365744820102509e-08
	-1.109222285191305e-11,2.665317780892381e-14
	-1.109222285148011e-11,2.665335798555174e-14
	-1.109222285148011e-11,2.665335798555174e-14
	1.109225487393746e-11,0.0
	-2.190996031982685e+02,0.0
	3.139189771223926e+00,0.0

 34	2.660725059798815e-03,0.000000000000000e+00
	1.000000000000000e+00,0.000000000000000e+00
	2.436317474523227e-11,1.488913673804427e-08
	-1.244567604774573e-11,3.077860616394691e-14
	-1.244567604723117e-11,3.077881422862591e-14
	-1.244567604723117e-11,3.077881422862591e-14
	1.244571410598962e-11,0.0
	-2.180996035907610e+02,0.0
	3.139119605812846e+00,0.0

 35	2.738419634264367e-03,0.000000000000000e+00
	1.000000000000000e+00,0.000000000000000e+00
	2.733593003069374e-11,1.623190424895146e-08
	-1.396427500317861e-11,3.554257574752839e-14
	-1.396427500256706e-11,3.554281601681631e-14
	-1.396427500256706e-11,3.554281601681631e-14
	1.396432023548192e-11,0.0
	-2.170996040065127e+02,0.0
	3.139047391536646e+00,0.0

 36	2.818382931264460e-03,0.000000000000000e+00
	1.000000000000000e+00,0.000000000000000e+00
	3.067141601220555e-11,1.769576829879037e-08
	-1.566817045291519e-11,4.104392106875423e-14
	-1.566817045218836e-11,4.104419852733207e-14
	-1.566817045218836e-11,4.104419852733207e-14
	1.566822421160296e-11,0.0
	-2.160996044468934e+02,0.0
	3.138973068567554e+00,0.0

 37	2.900681198693160e-03,0.000000000000000e+00
	1.000000000000000e+00,0.000000000000000e+00
	3.441389247035540e-11,1.929164987604051e-08
	-1.757997187510392e-11,4.739677440023173e-14
	-1.757997187424008e-11,4.739709480431658e-14
	-1.757997187424008e-11,4.739709480431658e-14
	1.758003576741720e-11,0.0
	-2.150996049133722e+02,0.0
	3.138896575330811e+00,0.0

 38	2.985382618917966e-03,0.000000000000000e+00
	1.000000000000000e+00,0.000000000000000e+00
	3.861301968480485e-11,2.103145486659438e-08
	-1.972504750005987e-11,5.473293358797163e-14
	-1.972504749903320e-11,5.473330358473589e-14
	-1.972504749903320e-11,5.473330358473589e-14
	1.972512343620788e-11,0.0
	-2.140996054074951e+02,0.0
	3.138817848453657e+00,0.0

 39	3.072557365267454e-03,0.000000000000000e+00
	1.000000000000000e+00,0.000000000000000e+00
	4.332451739278590e-11,2.292816287524177e-08
	-2.213186092490682e-11,6.320459635359253e-14
	-2.213186092368661e-11,6.320502361906709e-14
	-2.213186092368661e-11,6.320502361906709e-14
	2.213195117517697e-11,0.0
	-2.130996059308915e+02,0.0
	3.138736822712834e+00,0.0

 40	3.162277660168387e-03,0.000000000000000e+00
	1.000000000000000e+00,0.000000000000000e+00
	4.861090415215055e-11,2.499592405726243e-08
	-2.483234880059652e-11,7.298751781472459e-14
	-2.483234879914630e-11,7.298801121304658e-14
	-2.483234879914630e-11,7.298801121304658e-14
	2.483245606322990e-11,0.0
	-2.120996064853024e+02,0.0
	3.138653430980550e+00,0.0

 41	3.254617834980467e-03,0.000000000000000e+00
	1.000000000000000e+00,0.000000000000000e+00
	5.454232692012102e-11,2.725016468264297e-08
	-2.786234460289821e-11,8.428465673016501e-14
	-2.786234460117463e-11,8.428522649747417e-14
	-2.786234460117463e-11,8.428522649747417e-14
	2.786247208475965e-11,0.0
	-2.110996070725695e+02,0.0
	3.138567604168867e+00,0.0

 42	3.349654391578285e-03,0.000000000000000e+00
	1.000000000000000e+00,0.000000000000000e+00
	6.119749185543132e-11,2.970770222035174e-08
	-3.126205411020838e-11,9.733038611470730e-14
	-3.126205410815991e-11,9.733104407150586e-14
	-3.126205410815991e-11,9.733104407150586e-14
	3.126220562266293e-11,0.0
	-2.100996076946282e+02,0.0
	3.138479271172467e+00,0.0

 43	3.447466065731503e-03,0.000000000000000e+00
	1.000000000000000e+00,0.000000000000000e+00
	6.866470869450808e-11,3.238687080105599e-08
	-3.507658889700535e-11,1.123953555765579e-13
	-3.507658889457073e-11,1.123961153729398e-13
	-3.507658889457073e-11,1.123961153729398e-13
	3.507676896986770e-11,0.0
	-2.090996083535445e+02,0.0
	3.138388358809745e+00,0.0

 44	3.548133892335764e-03,0.000000000000000e+00
	1.000000000000000e+00,0.000000000000000e+00
	7.704306256029573e-11,3.530765799446936e-08
	-3.935656492194171e-11,1.297921062521800e-13
	-3.935656491904817e-11,1.297929836510164e-13
	-3.935656491904817e-11,1.297929836510164e-13
	3.935677893890528e-11,0.0
	-2.080996090515121e+02,0.0
	3.138294791762180e+00,0.0

 45	3.651741272548387e-03,0.000000000000000e+00
	1.000000000000000e+00,0.000000000000000e+00
	8.644372875282946e-11,3.849185392170350e-08
	-4.415877415307043e-11,1.498815548261775e-13
	-4.415877414963144e-11,1.498825680301344e-13
	-4.415877414963144e-11,1.498825680301344e-13
	4.415902851266496e-11,0.0
	-2.070996097908262e+02,0.0
	3.138198492511945e+00,0.0

 46	3.758374042884452e-03,0.000000000000000e+00
	1.000000000000000e+00,0.000000000000000e+00
	9.699144796629517e-11,4.196321381446718e-08
	-4.954693814113776e-11,1.730804811511392e-13
	-4.954693813705050e-11,1.730816511803106e-13
	-4.954693813705050e-11,1.730816511803106e-13
	4.954724044802783e-11,0.0
	-2.060996105739546e+02,0.0
	3.138099381277681e+00,0.0

 47	3.868120546330533e-03,0.000000000000000e+00
	1.000000000000000e+00,0.000000000000000e+00
	1.088261815099438e-10,4.574763523470079e-08
	-5.559255354078063e-11,1.998701748090187e-13
	-5.559255353592292e-11,1.998715259370099e-13
	-5.559255353592292e-11,1.998715259370099e-13
	5.559291283312412e-11,0.0
	-2.050996114034846e+02,0.0
	3.137997375948411e+00,0.0

 48	3.981071705534985e-03,0.000000000000000e+00
	1.000000000000000e+00,0.000000000000000e+00
	1.221049684938051e-10,4.987335127575563e-08
	-6.237584079738697e-11,2.308064199910013e-13
	-6.237584079161359e-11,2.308079802485093e-13
	-6.237584079161359e-11,2.308079802485093e-13
	6.237626781705100e-11,0.0
	-2.040996122821675e+02,0.0
	3.137892392015509e+00,0.0

 49	4.097321098135428e-03,0.000000000000000e+00
	1.000000000000000e+00,0.000000000000000e+00
	1.370040096240320e-10,5.437114118698794e-08
	-6.998680858792091e-11,2.665310258436886e-13
	-6.998680858105924e-11,2.665328276000264e-13
	-6.998680858105924e-11,2.665328276000264e-13
	6.998731610163384e-11,0.0
	-2.030996132129149e+02,0.0
	3.137784342502700e+00,0.0

 50	4.216965034285836e-03,0.000000000000000e+00
	1.000000000000000e+00,0.000000000000000e+00
	1.537210052574085e-10,5.927455999270701e-08
	-7.852644813880847e-11,3.077851414876021e-13
	-7.852644813065335e-11,3.077872221222315e-13
	-7.852644813065335e-11,3.077872221222315e-13
	7.852705131984959e-11,0.0
	-2.020996141988107e+02,0.0
	3.137673137894001e+00,0.0

 51	4.340102636447452e-03,0.000000000000000e+00
	1.000000000000000e+00,0.000000000000000e+00
	1.724777787389653e-10,6.462018881841649e-08
	-8.810807326751858e-11,3.554246319393442e-13
	-8.810807325782621e-11,3.554270346173485e-13
	-8.810807325782621e-11,3.554270346173485e-13
	8.810879014935687e-11,0.0
	-2.010996152431262e+02,0.0
	3.137558686059565e+00,0.0

 52	4.466835921509646e-03,0.000000000000000e+00
	1.000000000000000e+00,0.000000000000000e+00
	1.935232198322767e-10,7.044790779182517e-08
	-9.885882392801280e-11,4.104378339239965e-13
	-9.885882391649339e-11,4.104406084915798e-13
	-9.885882391649339e-11,4.104406084915798e-13
	9.885967594345708e-11,0.0
	-2.000996163493234e+02,0.0
	3.137440892179362e+00,0.0

 53	4.597269885308737e-03,0.000000000000000e+00
	1.000000000000000e+00,0.000000000000000e+00
	2.171365872989614e-10,7.680119355427763e-08
	-1.109213532092825e-10,4.739660599358592e-13
	-1.109213531955917e-10,4.739692639544513e-13
	-1.109213531955917e-10,4.739692639544513e-13
	1.109223658312622e-10,0.0
	-1.990996175210640e+02,0.0
	3.137319658664627e+00,0.0

 54	4.731512589614821e-03,0.000000000000000e+00
	1.000000000000000e+00,0.000000000000000e+00
	2.436312144487523e-10,8.372744360178267e-08
