Title: * sky130 bjt 3-stage high-cutoff sweep ac candidate: ch=39p
Date: Fri May 22 19:48:05  2026
Command: ngspice-46, Build Mar 29 2026   15:02:07
Plotname: AC Analysis
Flags: complex
No. Variables: 7
No. Points: 481
Variables:
	0	frequency	frequency grid=3
	1	v(vin)	voltage
	2	v(vout_final)	voltage
	3	gain	notype
	4	gain_vv	notype
	5	gain_db	decibel
	6	phase_deg	phase
Values:
 0	1.000000000000000e+00,0.000000000000000e+00
	1.000000000000000e+00,0.000000000000000e+00
	-3.917127402296165e+01,-5.551207536788227e+01
	-3.917127402296165e+01,-5.551207536788227e+01
	6.794099808091865e+01,0.0
	3.664263845087199e+01,0.0
	-2.185294296026818e+00,0.0

 1	1.029200527194428e+00,0.000000000000000e+00
	1.000000000000000e+00,0.000000000000000e+00
	-4.090550850108908e+01,-5.495878526348935e+01
	-4.090550850108908e+01,-5.495878526348935e+01
	6.851079260504147e+01,0.0
	3.671517983849296e+01,0.0
	-2.210635750935591e+00,0.0

 2	1.059253725177289e+00,0.000000000000000e+00
	1.000000000000000e+00,0.000000000000000e+00
	-4.258996316860689e+01,-5.435857859820027e+01
	-4.258996316860689e+01,-5.435857859820027e+01
	6.905620920612431e+01,0.0
	3.678405468732105e+01,0.0
	-2.235395197456638e+00,0.0

 3	1.090184492385128e+00,0.000000000000000e+00
	1.000000000000000e+00,0.000000000000000e+00
	-4.422359497745847e+01,-5.371556105368164e+01
	-4.422359497745847e+01,-5.371556105368164e+01
	6.957792647127457e+01,0.0
	3.684942963928003e+01,0.0
	-2.259579266951759e+00,0.0

 4	1.122018454301964e+00,0.000000000000000e+00
	1.000000000000000e+00,0.000000000000000e+00
	-4.580566648307855e+01,-5.303373097405077e+01
	-4.580566648307855e+01,-5.303373097405077e+01
	7.007664163604744e+01,0.0
	3.691146560923890e+01,0.0
	-2.283195050110118e+00,0.0

 5	1.154781984689459e+00,0.000000000000000e+00
	1.000000000000000e+00,0.000000000000000e+00
	-4.733572194006477e+01,-5.231696199037138e+01
	-4.733572194006477e+01,-5.231696199037138e+01
	7.055306572707590e+01,0.0
	3.697031779608785e+01,0.0
	-2.306250049644079e+00,0.0

 6	1.188502227437019e+00,0.000000000000000e+00
	1.000000000000000e+00,0.000000000000000e+00
	-4.881356341158735e+01,-5.156898877205981e+01
	-4.881356341158735e+01,-5.156898877205981e+01
	7.100791910702559e+01,0.0
	3.702613571598634e+01,0.0
	-2.328752135142018e+00,0.0

 7	1.223207119049932e+00,0.000000000000000e+00
	1.000000000000000e+00,0.000000000000000e+00
	-5.023922718790220e+01,-5.079339567727727e+01
	-5.023922718790220e+01,-5.079339567727727e+01
	7.144192741567167e+01,0.0
	3.707906325543145e+01,0.0
	-2.350709500134275e+00,0.0

 8	1.258925411794168e+00,0.000000000000000e+00
	1.000000000000000e+00,0.000000000000000e+00
	-5.161296076103869e+01,-4.999360806205176e+01
	-5.161296076103869e+01,-4.999360806205176e+01
	7.185581789655285e+01,0.0
	3.712923874184150e+01,0.0
	-2.372130621405784e+00,0.0

 9	1.295686697517020e+00,0.000000000000000e+00
	1.000000000000000e+00,0.000000000000000e+00
	-5.293520055820779e+01,-4.917288600294717e+01
	-5.293520055820779e+01,-4.917288600294717e+01
	7.225031609617027e+01,0.0
	3.717679502954671e+01,0.0
	-2.393024220567524e+00,0.0

 10	1.333521432163325e+00,0.000000000000000e+00
	1.000000000000000e+00,0.000000000000000e+00
	-5.420655059456364e+01,-4.833432018774383e+01
	-5.420655059456364e+01,-4.833432018774383e+01
	7.262614291955981e+01,0.0
	3.722185959912159e+01,0.0
	-2.413399227879065e+00,0.0

 11	1.372460961007563e+00,0.000000000000000e+00
	1.000000000000000e+00,0.000000000000000e+00
	-5.542776216874042e+01,-4.748082973357218e+01
	-5.542776216874042e+01,-4.748082973357218e+01
	7.298401202470939e+01,0.0
	3.726455466818582e+01,0.0
	-2.433264748297642e+00,0.0

 12	1.412537544622755e+00,0.000000000000000e+00
	1.000000000000000e+00,0.000000000000000e+00
	-5.659971469090706e+01,-4.661516169975407e+01
	-5.659971469090706e+01,-4.661516169975407e+01
	7.332462753663532e+01,0.0
	3.730499731189398e+01,0.0
	-2.452630029717495e+00,0.0

 13	1.453784385607663e+00,0.000000000000000e+00
	1.000000000000000e+00,0.000000000000000e+00
	-5.772339770341757e+01,-4.573989207374853e+01
	-5.772339770341757e+01,-4.573989207374853e+01
	7.364868206115487e+01,0.0
	3.734329959147817e+01,0.0
	-2.471504433348483e+00,0.0

 14	1.496235656094435e+00,0.000000000000000e+00
	1.000000000000000e+00,0.000000000000000e+00
	-5.879989412863100e+01,-4.485742802159216e+01
	-5.879989412863100e+01,-4.485742802159216e+01
	7.395685497809204e+01,0.0
	3.737956868935832e+01,0.0
	-2.489897406174350e+00,0.0

 15	1.539926526059493e+00,0.000000000000000e+00
	1.000000000000000e+00,0.000000000000000e+00
	-5.983036475615479e+01,-4.397001120818694e+01
	-5.983036475615479e+01,-4.397001120818694e+01
	7.424981099304304e+01,0.0
	3.741390704940576e+01,0.0
	-2.507818455424184e+00,0.0

 16	1.584893192461115e+00,0.000000000000000e+00
	1.000000000000000e+00,0.000000000000000e+00
	-6.081603396374035e+01,-4.307972200855901e+01
	-6.081603396374035e+01,-4.307972200855901e+01
	7.452819892774508e+01,0.0
	3.744641252115858e+01,0.0
	-2.525277124982208e+00,0.0

 17	1.631172909227840e+00,0.000000000000000e+00
	1.000000000000000e+00,0.000000000000000e+00
	-6.175817665015678e+01,-4.218848444618941e+01
	-6.175817665015678e+01,-4.218848444618941e+01
	7.479265072865338e+01,0.0
	3.747717850680784e+01,0.0
	-2.542282973657428e+00,0.0

 18	1.678804018122562e+00,0.000000000000000e+00
	1.000000000000000e+00,0.000000000000000e+00
	-6.265810634652558e+01,-4.129807171052901e+01
	-6.265810634652558e+01,-4.129807171052901e+01
	7.504378067462024e+01,0.0
	3.750629410996946e+01,0.0
	-2.558845555231121e+00,0.0

 19	1.727825980507865e+00,0.000000000000000e+00
	1.000000000000000e+00,0.000000000000000e+00
	-6.351716446254024e+01,-4.041011212086764e+01
	-6.351716446254024e+01,-4.041011212086764e+01
	7.528218476493943e+01,0.0
	3.753384428532059e+01,0.0
	-2.574974400197720e+00,0.0

 20	1.778279410038925e+00,0.000000000000000e+00
	1.000000000000000e+00,0.000000000000000e+00
	-6.433671061660816e+01,-3.952609541852161e+01
	-6.433671061660816e+01,-3.952609541852161e+01
	7.550844026994106e+01,0.0
	3.755990998828887e+01,0.0
	-2.590678999113598e+00,0.0

 21	1.830206106311058e+00,0.000000000000000e+00
	1.000000000000000e+00,0.000000000000000e+00
	-6.511811399364103e+01,-3.864737928341724e+01
	-6.511811399364103e+01,-3.864737928341724e+01
	7.572310542737360e+01,0.0
	3.758456832409119e+01,0.0
	-2.605968787467947e+00,0.0

 22	1.883649089489803e+00,0.000000000000000e+00
	1.000000000000000e+00,0.000000000000000e+00
	-6.586274567034631e+01,-3.777519598434490e+01
	-6.586274567034631e+01,-3.777519598434490e+01
	7.592671926859734e+01,0.0
	3.760789269548362e+01,0.0
	-2.620853131989139e+00,0.0

 23	1.938652635952210e+00,0.000000000000000e+00
	1.000000000000000e+00,0.000000000000000e+00
	-6.657197184604955e+01,-3.691065908440540e+01
	-6.657197184604955e+01,-3.691065908440540e+01
	7.611980155988594e+01,0.0
	3.762995294869513e+01,0.0
	-2.635341318304239e+00,0.0

 24	1.995262314968882e+00,0.000000000000000e+00
	1.000000000000000e+00,0.000000000000000e+00
	-6.724714791586302e+01,-3.605477013469504e+01
	-6.724714791586302e+01,-3.605477013469504e+01
	7.630285284498646e+01,0.0
	3.765081551707228e+01,0.0
	-2.649442539866823e+00,0.0

 25	2.053525026457149e+00,0.000000000000000e+00
	1.000000000000000e+00,0.000000000000000e+00
	-6.788961332331752e+01,-3.520842529943481e+01
	-6.788961332331752e+01,-3.520842529943481e+01
	7.647635457613976e+01,0.0
	3.767054356203471e+01,0.0
	-2.663165888074066e+00,0.0

 26	2.113489039836650e+00,0.000000000000000e+00
	1.000000000000000e+00,0.000000000000000e+00
	-6.850068713046548e+01,-3.437242186537609e+01
	-6.850068713046548e+01,-3.437242186537609e+01
	7.664076932179964e+01,0.0
	3.768919711100670e+01,0.0
	-2.676520343493421e+00,0.0

 27	2.175204034019526e+00,0.000000000000000e+00
	1.000000000000000e+00,0.000000000000000e+00
	-6.908166424535062e+01,-3.354746459663259e+01
	-6.908166424535062e+01,-3.354746459663259e+01
	7.679654104039889e+01,0.0
	3.770683319206319e+01,0.0
	-2.689514768124988e+00,0.0

 28	2.238721138568343e+00,0.000000000000000e+00
	1.000000000000000e+00,0.000000000000000e+00
	-6.963381224856201e+01,-3.273417190369371e+01
	-6.963381224856201e+01,-3.273417190369371e+01
	7.694409541016488e+01,0.0
	3.772350596504651e+01,0.0
	-2.702157898625787e+00,0.0

 29	2.304092976055850e+00,0.000000000000000e+00
	1.000000000000000e+00,0.000000000000000e+00
	-7.015836876339714e+01,-3.193308180205767e+01
	-7.015836876339714e+01,-3.193308180205767e+01
	7.708384020608811e+01,0.0
	3.773926684898059e+01,0.0
	-2.714458340426829e+00,0.0

 30	2.371373705661660e+00,0.000000000000000e+00
	1.000000000000000e+00,0.000000000000000e+00
	-7.065653931706485e+01,-3.114465764180151e+01
	-7.065653931706485e+01,-3.114465764180151e+01
	7.721616571605298e+01,0.0
	3.775416464565603e+01,0.0
	-2.726424562677295e+00,0.0

 31	2.440619068041985e+00,0.000000000000000e+00
	1.000000000000000e+00,0.000000000000000e+00
	-7.112949564325315e+01,-3.036929359458399e+01
	-7.112949564325315e+01,-3.036929359458399e+01
	7.734144518883527e+01,0.0
	3.776824565928514e+01,0.0
	-2.738064893951940e+00,0.0

 32	2.511886431509585e+00,0.000000000000000e+00
	1.000000000000000e+00,0.000000000000000e+00
	-7.157837437943213e+01,-2.960731988884573e+01
	-7.157837437943213e+01,-2.960731988884573e+01
	7.746003530726401e+01,0.0
	3.778155381214056e+01,0.0
	-2.749387518662713e+00,0.0

 33	2.585234839562196e+00,0.000000000000000e+00
	1.000000000000000e+00,0.000000000000000e+00
	-7.200427611590636e+01,-2.885900778806750e+01
	-7.200427611590636e+01,-2.885900778806750e+01
	7.757227668108899e+01,0.0
	3.779413075618147e+01,0.0
	-2.760400474117758e+00,0.0

 34	2.660725059798815e+00,0.000000000000000e+00
	1.000000000000000e+00,0.000000000000000e+00
	-7.240826475606686e+01,-2.812457430982343e+01
	-7.240826475606686e+01,-2.812457430982343e+01
	7.767849435392948e+01,0.0
	3.780601598060522e+01,0.0
	-2.771111648174711e+00,0.0

 35	2.738419634264367e+00,0.000000000000000e+00
	1.000000000000000e+00,0.000000000000000e+00
	-7.279136715126926e+01,-2.740418668647113e+01
	-7.279136715126926e+01,-2.740418668647113e+01
	7.777899832022679e+01,0.0
	3.781724691539072e+01,0.0
	-2.781528777438169e+00,0.0

 36	2.818382931264460e+00,0.000000000000000e+00
	1.000000000000000e+00,0.000000000000000e+00
	-7.315457297587832e+01,-2.669796657022396e+01
	-7.315457297587832e+01,-2.669796657022396e+01
	7.787408404769782e+01,0.0
	3.782785903080971e+01,0.0
	-2.791659445954109e+00,0.0

 37	2.900681198693160e+00,0.000000000000000e+00
	1.000000000000000e+00,0.000000000000000e+00
	-7.349883481179933e+01,-2.600599398750817e+01
	-7.349883481179933e+01,-2.600599398750817e+01
	7.796403300221503e+01,0.0
	3.783788593300217e+01,0.0
	-2.801511084357641e+00,0.0

 38	2.985382618917967e+00,0.000000000000000e+00
	1.000000000000000e+00,0.000000000000000e+00
	-7.382506841379808e+01,-2.532831104876779e+01
	-7.382506841379808e+01,-2.532831104876779e+01
	7.804911317167607e+01,0.0
	3.784735945563418e+01,0.0
	-2.811090969432497e+00,0.0

 39	3.072557365267454e+00,0.000000000000000e+00
	1.000000000000000e+00,0.000000000000000e+00
	-7.413415313022232e+01,-2.466492542126792e+01
	-7.413415313022232e+01,-2.466492542126792e+01
	7.812957958655582e+01,0.0
	3.785630974774786e+01,0.0
	-2.820406224044109e+00,0.0

 40	3.162277660168388e+00,0.000000000000000e+00
	1.000000000000000e+00,0.000000000000000e+00
	-7.442693245563727e+01,-2.401581357318700e+01
	-7.442693245563727e+01,-2.401581357318700e+01
	7.820567483461839e+01,0.0
	3.786476535785702e+01,0.0
	-2.829463817410300e+00,0.0

 41	3.254617834980468e+00,0.000000000000000e+00
	1.000000000000000e+00,0.000000000000000e+00
	-7.470421469462896e+01,-2.338092379807557e+01
	-7.470421469462896e+01,-2.338092379807557e+01
	7.827762956804858e+01,0.0
	3.787275331439903e+01,0.0
	-2.838270565676642e+00,0.0

 42	3.349654391578286e+00,0.000000000000000e+00
	1.000000000000000e+00,0.000000000000000e+00
	-7.496677371787004e+01,-2.276017902918473e+01
	-7.496677371787004e+01,-2.276017902918473e+01
	7.834566300125917e+01,0.0
	3.788029920262598e+01,0.0
	-2.846833132765189e+00,0.0

 43	3.447466065731504e+00,0.000000000000000e+00
	1.000000000000000e+00,0.000000000000000e+00
	-7.521534979381545e+01,-2.215347945350589e+01
	-7.521534979381545e+01,-2.215347945350589e+01
	7.840998339818037e+01,0.0
	3.788742723805336e+01,0.0
	-2.855158031468206e+00,0.0

 44	3.548133892335765e+00,0.000000000000000e+00
	1.000000000000000e+00,0.000000000000000e+00
	-7.545065048091264e+01,-2.156070493540285e+01
	-7.545065048091264e+01,-2.156070493540285e+01
	7.847078854774144e+01,0.0
	3.789416033655115e+01,0.0
	-2.863251624760810e+00,0.0

 45	3.651741272548388e+00,0.000000000000000e+00
	1.000000000000000e+00,0.000000000000000e+00
	-7.567335156726874e+01,-2.098171725997236e+01
	-7.567335156726874e+01,-2.098171725997236e+01
	7.852826622688723e+01,0.0
	3.790052018121051e+01,0.0
	-2.871120127307139e+00,0.0

 46	3.758374042884453e+00,0.000000000000000e+00
	1.000000000000000e+00,0.000000000000000e+00
	-7.588409804592445e+01,-2.041636220593444e+01
	-7.588409804592445e+01,-2.041636220593444e+01
	7.858259465026198e+01,0.0
	3.790652728607669e+01,0.0
	-2.878769607138512e+00,0.0

 47	3.868120546330533e+00,0.000000000000000e+00
	1.000000000000000e+00,0.000000000000000e+00
	-7.608350511548234e+01,-1.986447145789699e+01
	-7.608350511548234e+01,-1.986447145789699e+01
	7.863394290609642e+01,0.0
	3.791220105686538e+01,0.0
	-2.886205987482212e+00,0.0

 48	3.981071705534985e+00,0.000000000000000e+00
	1.000000000000000e+00,0.000000000000000e+00
	-7.627215919715690e+01,-1.932586436755123e+01
	-7.627215919715690e+01,-1.932586436755123e+01
	7.868247137799773e+01,0.0
	3.791755984878201e+01,0.0
	-2.893435048722090e+00,0.0

 49	4.097321098135428e+00,0.000000000000000e+00
	1.000000000000000e+00,0.000000000000000e+00
	-7.645061896033840e+01,-1.880034957308961e+01
	-7.645061896033840e+01,-1.880034957308961e+01
	7.872833215234033e+01,0.0
	3.792262102154770e+01,0.0
	-2.900462430473236e+00,0.0

 50	4.216965034285836e+00,0.000000000000000e+00
	1.000000000000000e+00,0.000000000000000e+00
	-7.661941634981244e+01,-1.828772648578617e+01
	-7.661941634981244e+01,-1.828772648578617e+01
	7.877166941105686e+01,0.0
	3.792740099173426e+01,0.0
	-2.907293633754975e+00,0.0

 51	4.340102636447452e+00,0.000000000000000e+00
	1.000000000000000e+00,0.000000000000000e+00
	-7.677905760899554e+01,-1.778778665245445e+01
	-7.677905760899554e+01,-1.778778665245445e+01
	7.881261981001960e+01,0.0
	3.793191528254065e+01,0.0
	-2.913934023247189e+00,0.0

 52	4.466835921509645e+00,0.000000000000000e+00
	1.000000000000000e+00,0.000000000000000e+00
	-7.693002429395962e+01,-1.730031500198233e+01
	-7.693002429395962e+01,-1.730031500198233e+01
	7.885131284282483e+01,0.0
	3.793617857109118e+01,0.0
	-2.920388829616769e+00,0.0

 53	4.597269885308736e+00,0.000000000000000e+00
	1.000000000000000e+00,0.000000000000000e+00
	-7.707277427415603e+01,-1.682509098389066e+01
	-7.707277427415603e+01,-1.682509098389066e+01
	7.888787119026097e+01,0.0
	3.794020473337689e+01,0.0
	-2.926663151901824e+00,0.0

 54	4.731512589614820e+00,0.000000000000000e+00
	1.000000000000000e+00,0.000000000000000e+00
	-7.720774271618268e+01,-1.636188960640628e+01
	-7.720774271618268e+01,-1.636188960640628e+01
	7.892241105554547e+01,0.0
	3.794400688693110e+01,0.0
	-2.932761959942517e+00,0.0

 55	4.869675251658648e+00,0.000000000000000e+00
	1.000000000000000e+00,0.000000000000000e+00
	-7.733534304783187e+01,-1.591048238121723e+01
	-7.733534304783187e+01,-1.591048238121723e+01
	7.895504248576439e+01,0.0
	3.794759743136024e+01,0.0
	-2.938690096848423e+00,0.0

 56	5.011872336272740e+00,0.000000000000000e+00
	1.000000000000000e+00,0.000000000000000e+00
	-7.745596789968249e+01,-1.547063818158004e+01
	-7.745596789968249e+01,-1.547063818158004e+01
	7.898586967946866e+01,0.0
	3.795098808679075e+01,0.0
	-2.944452281493241e+00,0.0

 57	5.158221650723075e+00,0.000000000000000e+00
	1.000000000000000e+00,0.000000000000000e+00
	-7.756999002259259e+01,-1.504212402021870e+01
	-7.756999002259259e+01,-1.504212402021870e+01
	7.901499128105219e+01,0.0
	3.795418993036002e+01,0.0
	-2.950053111028424e+00,0.0

 58	5.308844442309902e+00,0.000000000000000e+00
	1.000000000000000e+00,0.000000000000000e+00
	-7.767776317943196e+01,-1.462470575296800e+01
	-7.767776317943196e+01,-1.462470575296800e+01
	7.904250066211728e+01,0.0
	3.795721343082707e+01,0.0
	-2.955497063408272e+00,0.0

 59	5.463865498818562e+00,0.000000000000000e+00
	1.000000000000000e+00,0.000000000000000e+00
	-7.777962300989957e+01,-1.421814871378166e+01
	-7.777962300989957e+01,-1.421814871378166e+01
	7.906848619019659e+01,0.0
	3.796006848139135e+01,0.0
	-2.960788499919850e+00,0.0

 60	5.623413251903512e+00,0.000000000000000e+00
	1.000000000000000e+00,0.000000000000000e+00
	-7.787588786756305e+01,-1.382221828640851e+01
	-7.787588786756305e+01,-1.382221828640851e+01
	7.909303148519710e+01,0.0
	3.796276443080247e+01,0.0
	-2.965931667711271e+00,0.0

 61	5.787619883491228e+00,0.000000000000000e+00
	1.000000000000000e+00,0.000000000000000e+00
	-7.796685962867292e+01,-1.343668041766399e+01
	-7.796685962867292e+01,-1.343668041766399e+01
	7.911621566406991e+01,0.0
	3.796531011285467e+01,0.0
	-2.970930702313293e+00,0.0

 62	5.956621435290127e+00,0.000000000000000e+00
	1.000000000000000e+00,0.000000000000000e+00
	-7.805282447219585e+01,-1.306130207691054e+01
	-7.805282447219585e+01,-1.306130207691054e+01
	7.913811357387617e+01,0.0
	3.796771387431904e+01,0.0
	-2.975789630148888e+00,0.0

 63	6.130557921498230e+00,0.000000000000000e+00
	1.000000000000000e+00,0.000000000000000e+00
	-7.813405363131434e+01,-1.269585166606645e+01
	-7.813405363131434e+01,-1.269585166606645e+01
	7.915879601401141e+01,0.0
	3.796998360142805e+01,0.0
	-2.980512371027059e+00,0.0

 64	6.309573444801956e+00,0.000000000000000e+00
	1.000000000000000e+00,0.000000000000000e+00
	-7.821080411605180e+01,-1.234009938415091e+01
	-7.821080411605180e+01,-1.234009938415091e+01
	7.917832994759455e+01,0.0
	3.797212674494074e+01,0.0
	-2.985102740616277e+00,0.0

 65	6.493816315762138e+00,0.000000000000000e+00
	1.000000000000000e+00,0.000000000000000e+00
	-7.828331940756114e+01,-1.199381755010560e+01
	-7.828331940756114e+01,-1.199381755010560e+01
	7.919677870274434e+01,0.0
	3.797415034389239e+01,0.0
	-2.989564452894730e+00,0.0

 66	6.683439175686172e+00,0.000000000000000e+00
	1.000000000000000e+00,0.000000000000000e+00
	-7.835183012423617e+01,-1.165678088737132e+01
	-7.835183012423617e+01,-1.165678088737132e+01
	7.921420216396393e+01,0.0
	3.797606104807525e+01,0.0
	-2.993901122573925e+00,0.0

 67	6.878599123088104e+00,0.000000000000000e+00
	1.000000000000000e+00,0.000000000000000e+00
	-7.841655466021292e+01,-1.132876677342590e+01
	-7.841655466021292e+01,-1.132876677342590e+01
	7.923065695414142e+01,0.0
	3.797786513932578e+01,0.0
	-2.998116267493459e+00,0.0

 68	7.079457843841408e+00,0.000000000000000e+00
	1.000000000000000e+00,0.000000000000000e+00
	-7.847769979671577e+01,-1.100955545729337e+01
	-7.847769979671577e+01,-1.100955545729337e+01
	7.924619660747550e+01,0.0
	3.797956855166989e+01,0.0
	-3.002213310984223e+00,0.0

 69	7.286181745132307e+00,0.000000000000000e+00
	1.000000000000000e+00,0.000000000000000e+00
	-7.853546128689256e+01,-1.069893024778675e+01
	-7.853546128689256e+01,-1.069893024778675e+01
	7.926087173373762e+01,0.0
	3.798117689038734e+01,0.0
	-3.006195584198218e+00,0.0

 70	7.498942093324589e+00,0.000000000000000e+00
	1.000000000000000e+00,0.000000000000000e+00
	-7.859002441487262e+01,-1.039667767503579e+01
	-7.859002441487262e+01,-1.039667767503579e+01
	7.927473017430499e+01,0.0
	3.798269545005699e+01,0.0
	-3.010066328403532e+00,0.0

 71	7.717915155850156e+00,0.000000000000000e+00
	1.000000000000000e+00,0.000000000000000e+00
	-7.864156452965892e+01,-1.010258762769099e+01
	-7.864156452965892e+01,-1.010258762769099e+01
	7.928781715022606e+01,0.0
	3.798412923162423e+01,0.0
	-3.013828697242555e+00,0.0

 72	7.943282347242849e+00,0.000000000000000e+00
	1.000000000000000e+00,0.000000000000000e+00
	-7.869024755470805e+01,-9.816453467973719e+00
	-7.869024755470805e+01,-9.816453467973719e+00
