Title: * sky130 bjt 3-stage high-frequency ch/riso sweep ac: ch=15p, riso=680k
Date: Fri May 22 22:49:31  2026
Command: ngspice-46, Build Mar 29 2026   15:02:07
Plotname: AC Analysis
Flags: complex
No. Variables: 9
No. Points: 721
Variables:
	0	frequency	frequency grid=3
	1	v(vin)	voltage
	2	v(b3_collector)	voltage
	3	v(vout_drv)	voltage
	4	v(vout_final)	voltage
	5	gain	notype
	6	gain_vv	notype
	7	gain_db	decibel
	8	phase_deg	phase
Values:
 0	1.000000000000000e-03,0.000000000000000e+00
	1.000000000000000e+00,0.000000000000000e+00
	4.860830177670129e-13,7.904423276782344e-10
	-2.483247083918789e-13,2.307990052319917e-16
	-2.483247083820174e-13,2.308096150690737e-16
	-2.483247083820174e-13,2.308096150690737e-16
	2.483248156469514e-13,0.0
	-2.520995975654114e+02,0.0
	3.140663186884257e+00,0.0

 1	1.029200527194428e-03,0.000000000000000e+00
	1.000000000000000e+00,0.000000000000000e+00
	5.453941116389337e-13,8.617279548034821e-10
	-2.786248964602966e-13,2.665225289152432e-16
	-2.786248964485762e-13,2.665347809635695e-16
	-2.786248964485762e-13,2.665347809635695e-16
	2.786250239331874e-13,0.0
	-2.510995976241381e+02,0.0
	3.140636045967649e+00,0.0

 2	1.059253725177289e-03,0.000000000000000e+00
	1.000000000000000e+00,0.000000000000000e+00
	6.119422526376847e-13,9.394424380202523e-10
	-3.126222649427045e-13,3.077754095098409e-16
	-3.126222649287748e-13,3.077895579540388e-16
	-3.126222649287748e-13,3.077895579540388e-16
	3.126224164445170e-13,0.0
	-2.500995976863421e+02,0.0
	3.140608112522076e+00,0.0

 3	1.090184492385128e-03,0.000000000000000e+00
	1.000000000000000e+00,0.000000000000000e+00
	6.866104939027068e-13,1.024165560140638e-09
	-3.507679377579275e-13,3.554134916325414e-16
	-3.507679377413719e-13,3.554298300004193e-16
	-3.507679377413719e-13,3.554298300004193e-16
	3.507681178181664e-13,0.0
	-2.490995977522364e+02,0.0
	3.140579363405284e+00,0.0

 4	1.122018454301964e-03,0.000000000000000e+00
	1.000000000000000e+00,0.000000000000000e+00
	7.703896373231917e-13,1.116529391349263e-09
	-3.935680842083618e-13,4.104250891801802e-16
	-3.935680841886855e-13,4.104439564323395e-16
	-3.935680841886855e-13,4.104439564323395e-16
	3.935682982103533e-13,0.0
	-2.480995978220291e+02,0.0
	3.140549774799255e+00,0.0

 5	1.154781984689459e-03,0.000000000000000e+00
	1.000000000000000e+00,0.000000000000000e+00
	8.643913808646796e-13,1.217223004701618e-09
	-4.415906355196961e-13,4.739514891750769e-16
	-4.415906354963108e-13,4.739732767370834e-16
	-4.415906354963108e-13,4.739732767370834e-16
	4.415908898615354e-13,0.0
	-2.470995978959610e+02,0.0
	3.140519322190471e+00,0.0

 6	1.188502227437019e-03,0.000000000000000e+00
	1.000000000000000e+00,0.000000000000000e+00
	9.698630701177514e-13,1.326997616894440e-09
	-4.954728209231965e-13,5.473106292372384e-16
	-4.954728208954029e-13,5.473357891202482e-16
	-4.954728208954029e-13,5.473357891202482e-16
	4.954731232090334e-13,0.0
	-2.460995979742739e+02,0.0
	3.140487980349609e+00,0.0

 7	1.223207119049932e-03,0.000000000000000e+00
	1.000000000000000e+00,0.000000000000000e+00
	1.088204249801705e-12,1.446672192646690e-09
	-5.559296232745132e-13,6.320244398972909e-16
	-5.559296232414807e-13,6.320534940755995e-16
	-5.559296232414807e-13,6.320534940755995e-16
	5.559299825418971e-13,0.0
	-2.450995980572263e+02,0.0
	3.140455723310638e+00,0.0

 8	1.258925411794168e-03,0.000000000000000e+00
	1.000000000000000e+00,0.000000000000000e+00
	1.220985234858003e-12,1.577139554509698e-09
	-6.237632664118588e-13,7.298504190043969e-16
	-6.237632663725995e-13,7.298839702444635e-16
	-6.237632663725995e-13,7.298839702444635e-16
	6.237636934019362e-13,0.0
	-2.440995981450906e+02,0.0
	3.140422524349305e+00,0.0

 9	1.295686697517020e-03,0.000000000000000e+00
	1.000000000000000e+00,0.000000000000000e+00
	1.369967947554582e-12,1.719373043682778e-09
	-6.998738601422373e-13,8.428180932774418e-16
	-6.998738600955774e-13,8.428568376430478e-16
	-6.998738600955774e-13,8.428568376430478e-16
	6.998743676208842e-13,0.0
	-2.430995982381660e+02,0.0
	3.140388355960998e+00,0.0

 10	1.333521432163325e-03,0.000000000000000e+00
	1.000000000000000e+00,0.000000000000000e+00
	1.537129297106646e-12,1.874433781536007e-09
	-7.852713441109144e-13,9.732711234460516e-16
	-7.852713440554591e-13,9.733158647390312e-16
	-7.852713440554591e-13,9.733158647390312e-16
	7.852719472504030e-13,0.0
	-2.420995983367542e+02,0.0
	3.140353189837956e+00,0.0

 11	1.372460961007563e-03,0.000000000000000e+00
	1.000000000000000e+00,0.000000000000000e+00
	1.724687412030999e-12,2.043478585998261e-09
	-8.810888890346500e-13,1.123915926497154e-15
	-8.810888889687413e-13,1.123967592933286e-15
	-8.810888889687413e-13,1.123967592933286e-15
	8.810896058672584e-13,0.0
	-2.410995984411846e+02,0.0
	3.140316996845817e+00,0.0

 12	1.412537544622755e-03,0.000000000000000e+00
	1.000000000000000e+00,0.000000000000000e+00
	1.935131073333143e-12,2.227768601883412e-09
	-9.885979331287795e-13,1.297877823763742e-15
	-9.885979330504469e-13,1.297937487229764e-15
	-9.885979330504469e-13,1.297937487229764e-15
	9.885987850859097e-13,0.0
	-2.400995985518081e+02,0.0
	3.140279746999484e+00,0.0

 13	1.453784385607663e-03,0.000000000000000e+00
	1.000000000000000e+00,0.000000000000000e+00
	2.171252739088292e-12,2.428678709538892e-09
	-1.109225053250574e-12,1.498765879719726e-15
	-1.109225053157476e-12,1.498834778010985e-15
	-1.109225053157476e-12,1.498834778010985e-15
	1.109226065803494e-12,0.0
	-2.390995986689802e+02,0.0
	3.140241409438281e+00,0.0

 14	1.496235656094435e-03,0.000000000000000e+00
	1.000000000000000e+00,0.000000000000000e+00
	2.436185598612219e-12,2.647707781992524e-09
	-1.244570894619421e-12,1.730747776631180e-15
	-1.244570894508774e-12,1.730827339131260e-15
	-1.244570894508774e-12,1.730827339131260e-15
	1.244572098040787e-12,0.0
	-2.380995987930916e+02,0.0
	3.140201952400385e+00,0.0

 15	1.539926526059493e-03,0.000000000000000e+00
	1.000000000000000e+00,0.000000000000000e+00
	2.733445147927400e-12,2.886489867137994e-09
	-1.396431410305087e-12,1.998636278444249e-15
	-1.396431410173582e-12,1.998728155779344e-15
	-1.396431410173582e-12,1.998728155779344e-15
	1.396432840574017e-12,0.0
	-2.370995989245652e+02,0.0
	3.140161343196515e+00,0.0

 16	1.584893192461115e-03,0.000000000000000e+00
	1.000000000000000e+00,0.000000000000000e+00
	3.066975838209254e-12,3.146806378385495e-09
	-1.566821692318553e-12,2.307989077715448e-15
	-1.566821692162259e-12,2.308095175998676e-15
	-1.566821692162259e-12,2.308095175998676e-15
	1.566823392196309e-12,0.0
	-2.360995990638270e+02,0.0
	3.140119548182847e+00,0.0

 17	1.631172909227840e-03,0.000000000000000e+00
	1.000000000000000e+00,0.000000000000000e+00
	3.441203416175390e-12,3.430599384696061e-09
	-1.758002710512699e-12,2.665224097011559e-15
	-1.758002710326943e-12,2.665346617387678e-15
	-1.758002710326943e-12,2.665346617387678e-15
	1.758004730821129e-12,0.0
	-2.350995992113343e+02,0.0
	3.140076532733140e+00,0.0

 18	1.678804018122562e-03,0.000000000000000e+00
	1.000000000000000e+00,0.000000000000000e+00
	3.861093650960456e-12,3.739986099166460e-09
	-1.972511314105782e-12,3.077752636861505e-15
	-1.972511313885011e-12,3.077894121172425e-15
	-1.972511313885011e-12,3.077894121172425e-15
	1.972513715246764e-12,0.0
	-2.340995993675898e+02,0.0
	3.140032261210058e+00,0.0

 19	1.727825980507865e-03,0.000000000000000e+00
	1.000000000000000e+00,0.000000000000000e+00
	4.332218226772839e-12,4.077274674275254e-09
	-2.213193893936148e-12,3.554133132600631e-15
	-2.213193893673761e-12,3.554296516119098e-15
	-2.213193893673761e-12,3.554296516119098e-15
	2.213196747697445e-12,0.0
	-2.330995995331021e+02,0.0
	3.139986696935632e+00,0.0

 20	1.778279410038925e-03,0.000000000000000e+00
	1.000000000000000e+00,0.000000000000000e+00
	4.860828675623361e-12,4.444981421577929e-09
	-2.483244152094541e-12,4.104248709937675e-15
	-2.483244151782694e-12,4.104437382263172e-15
	-2.483244151782694e-12,4.104437382263172e-15
	2.483247543796062e-12,0.0
	-2.320995997084171e+02,0.0
	3.139939802160886e+00,0.0

 21	1.830206106311058e-03,0.000000000000000e+00
	1.000000000000000e+00,0.000000000000000e+00
	5.453939331202790e-12,4.845849584348948e-09
	-2.786245480123290e-12,4.739512222878486e-15
	-2.786245479752658e-12,4.739730098258687e-15
	-2.786245479752658e-12,4.739730098258687e-15
	2.786249511167929e-12,0.0
	-2.310995998941253e+02,0.0
	3.139891538034554e+00,0.0

 22	1.883649089489803e-03,0.000000000000000e+00
	1.000000000000000e+00,0.000000000000000e+00
	6.119420404678554e-12,5.282869803233367e-09
	-3.126218508115263e-12,5.473103027790360e-15
	-3.126218507674767e-12,5.473354626327055e-15
	-3.126218507674767e-12,5.473354626327055e-15
	3.126223299020578e-12,0.0
	-2.300996000908349e+02,0.0
	3.139841864570898e+00,0.0

 23	1.938652635952210e-03,0.000000000000000e+00
	1.000000000000000e+00,0.000000000000000e+00
	6.866102417382435e-12,5.759302427535768e-09
	-3.507674455620699e-12,6.320240405709556e-15
	-3.507674455097168e-12,6.320530947133750e-15
	-3.507674455097168e-12,6.320530947133750e-15
	3.507680149622064e-12,0.0
	-2.290996002992057e+02,0.0
	3.139790740616582e+00,0.0

 24	1.995262314968882e-03,0.000000000000000e+00
	1.000000000000000e+00,0.000000000000000e+00
	7.703893376250982e-12,6.278701838666391e-09
	-3.935674992324856e-12,7.298499305454853e-15
	-3.935674991702639e-12,7.298834817416519e-15
	-3.935674991702639e-12,7.298834817416519e-15
	3.935681759657817e-12,0.0
	-2.280996005199167e+02,0.0
	3.139738123816572e+00,0.0

 25	2.053525026457149e-03,0.000000000000000e+00
	1.000000000000000e+00,0.000000000000000e+00
	8.643910246729106e-12,6.844942967117996e-09
	-4.415899402746217e-12,8.428174957912006e-15
	-4.415899402006709e-12,8.428562401031076e-15
	-4.415899402006709e-12,8.428562401031076e-15
	4.415907445736082e-12,0.0
	-2.270996007537082e+02,0.0
	3.139683970579054e+00,0.0

 26	2.113489039836650e-03,0.000000000000000e+00
	1.000000000000000e+00,0.000000000000000e+00
	9.698626467831960e-12,7.462250200892193e-09
	-4.954719946230072e-12,9.732703925966645e-15
	-4.954719945351165e-12,9.733151338239593e-15
	-4.954719945351165e-12,9.733151338239593e-15
	4.954729505340895e-12,0.0
	-2.260996010013518e+02,0.0
	3.139628236039312e+00,0.0

 27	2.175204034019526e-03,0.000000000000000e+00
	1.000000000000000e+00,0.000000000000000e+00
	1.088203746667790e-11,8.135228900959622e-09
	-5.559286412150098e-12,1.123915032517068e-14
	-5.559286411105516e-12,1.123966698872854e-14
	-5.559286411105516e-12,1.123966698872854e-14
	5.559297773173916e-12,0.0
	-2.250996012636691e+02,0.0
	3.139570874022567e+00,0.0

 28	2.238721138568343e-03,0.000000000000000e+00
	1.000000000000000e+00,0.000000000000000e+00
	1.220984636881907e-11,8.868899758914423e-09
	-6.237620992319211e-12,1.297876730242151e-14
	-6.237620991077725e-12,1.297936393609893e-14
	-6.237620991077725e-12,1.297936393609893e-14
	6.237634494920461e-12,0.0
	-2.240996015415287e+02,0.0
	3.139511837005716e+00,0.0

 29	2.304092976055850e-03,0.000000000000000e+00
	1.000000000000000e+00,0.000000000000000e+00
	1.369967236859070e-11,9.668736253115981e-09
	-6.998724729465356e-12,1.498764542116259e-14
	-6.998724727989846e-12,1.498833440287301e-14
	-6.998724727989846e-12,1.498833440287301e-14
	6.998740777335928e-12,0.0
	-2.230996018358538e+02,0.0
	3.139451076077966e+00,0.0

 30	2.371373705661660e-03,0.000000000000000e+00
	1.000000000000000e+00,0.000000000000000e+00
	1.537128452443071e-11,1.054070548276650e-08
	-7.852696954256828e-12,1.730746140463735e-14
	-7.852696952503181e-12,1.730825702816765e-14
	-7.852696952503181e-12,1.730825702816765e-14
	7.852716027185378e-12,0.0
	-2.220996021476205e+02,0.0
	3.139388540900311e+00,0.0

 31	2.440619068041985e-03,0.000000000000000e+00
	1.000000000000000e+00,0.000000000000000e+00
	1.724686408146850e-11,1.149131268454829e-08
	-8.810869295689164e-12,1.998634277074135e-14
	-8.810869293604951e-12,1.998726154229356e-14
	-8.810869293604951e-12,1.998726154229356e-14
	8.810891963905503e-12,0.0
	-2.210996024778572e+02,0.0
	3.139324179663827e+00,0.0

 32	2.511886431509585e-03,0.000000000000000e+00
	1.000000000000000e+00,0.000000000000000e+00
	1.935129880215931e-11,1.252764976389703e-08
	-9.885956043001458e-12,2.307986629625735e-14
	-9.885956040524368e-12,2.308092727688941e-14
	-9.885956040524368e-12,2.308092727688941e-14
	9.885982984224897e-12,0.0
	-2.200996028276638e+02,0.0
	3.139257939046754e+00,0.0

 33	2.585234839562196e-03,0.000000000000000e+00
	1.000000000000000e+00,0.000000000000000e+00
	2.171251321064751e-11,1.365744820302624e-08
	-1.109222285432354e-11,2.665221102488312e-14
	-1.109222285137951e-11,2.665343622595299e-14
	-1.109222285137951e-11,2.665343622595299e-14
	1.109225487402486e-11,0.0
	-2.190996031982000e+02,0.0
	3.139189764170318e+00,0.0

 34	2.660725059798815e-03,0.000000000000000e+00
	1.000000000000000e+00,0.000000000000000e+00
	2.436183913287087e-11,1.488913674035648e-08
	-1.244567605061168e-11,3.077748973941577e-14
	-1.244567604711269e-11,3.077890457923293e-14
	-1.244567604711269e-11,3.077890457923293e-14
	1.244571410609458e-11,0.0
	-2.180996035906877e+02,0.0
	3.139119598553268e+00,0.0

 35	2.738419634264367e-03,0.000000000000000e+00
	1.000000000000000e+00,0.000000000000000e+00
	2.733443144915482e-11,1.623190425162155e-08
	-1.396427500658473e-11,3.554128652090967e-14
	-1.396427500242618e-11,3.554292035206749e-14
	-1.396427500242618e-11,3.554292035206749e-14
	1.396432023560660e-11,0.0
	-2.170996040064351e+02,0.0
	3.139047384065085e+00,0.0

 36	2.818382931264460e-03,0.000000000000000e+00
	1.000000000000000e+00,0.000000000000000e+00
	3.066973457627818e-11,1.769576830187520e-08
	-1.566817045696467e-11,4.104243229347241e-14
	-1.566817045202223e-11,4.104431901180171e-14
	-1.566817045202223e-11,4.104431901180171e-14
	1.566822421175244e-11,0.0
	-2.160996044468105e+02,0.0
	3.138973060877819e+00,0.0

 37	2.900681198693160e-03,0.000000000000000e+00
	1.000000000000000e+00,0.000000000000000e+00
	3.441200586846420e-11,1.929164987960113e-08
	-1.757997187991517e-11,4.739505518982785e-14
	-1.757997187404107e-11,4.739723393760473e-14
	-1.757997187404107e-11,4.739723393760473e-14
	1.758003576759331e-11,0.0
	-2.150996049132852e+02,0.0
	3.138896567416531e+00,0.0

 38	2.985382618917966e-03,0.000000000000000e+00
	1.000000000000000e+00,0.000000000000000e+00
	3.861090288296644e-11,2.103145487070615e-08
	-1.972504750577835e-11,5.473094827535120e-14
	-1.972504749879697e-11,5.473346425334818e-14
	-1.972504749879697e-11,5.473346425334818e-14
	1.972512343641747e-11,0.0
	-2.140996054074028e+02,0.0
	3.138817840308276e+00,0.0

 39	3.072557365267454e-03,0.000000000000000e+00
	1.000000000000000e+00,0.000000000000000e+00
	4.332214230241502e-11,2.292816287998995e-08
	-2.213186093170321e-11,6.320230375105494e-14
	-2.213186092340582e-11,6.320520915628189e-14
	-2.213186092340582e-11,6.320520915628189e-14
	2.213195117542604e-11,0.0
	-2.130996059307938e+02,0.0
	3.138736814329603e+00,0.0

 40	3.162277660168387e-03,0.000000000000000e+00
	1.000000000000000e+00,0.000000000000000e+00
	4.860823925734674e-11,2.499592406274552e-08
	-2.483234880867382e-11,7.298487035948442e-14
	-2.483234879881236e-11,7.298822546807386e-14
	-2.483234879881236e-11,7.298822546807386e-14
	2.483245606352571e-11,0.0
	-2.120996064851989e+02,0.0
	3.138653422352524e+00,0.0

 41	3.254617834980467e-03,0.000000000000000e+00
	1.000000000000000e+00,0.000000000000000e+00
	5.453933685947503e-11,2.725016468897476e-08
	-2.786234461249815e-11,8.428159949761160e-14
	-2.786234460077778e-11,8.428547391531376e-14
	-2.786234460077778e-11,8.428547391531376e-14
	2.786247208511125e-11,0.0
	-2.110996070724599e+02,0.0
	3.138567595288898e+00,0.0

 42	3.349654391578285e-03,0.000000000000000e+00
	1.000000000000000e+00,0.000000000000000e+00
	6.119413695280453e-11,2.970770222766359e-08
	-3.126205412161807e-11,9.732685567893256e-14
	-3.126205410768839e-11,9.733132978516276e-14
	-3.126205410768839e-11,9.733132978516276e-14
	3.126220562308095e-11,0.0
	-2.100996076945121e+02,0.0
	3.138479262033198e+00,0.0

 43	3.447466065731503e-03,0.000000000000000e+00
	1.000000000000000e+00,0.000000000000000e+00
	6.866094443255853e-11,3.238687080949958e-08
	-3.507658891056564e-11,1.123912786945172e-13
	-3.507658889401018e-11,1.123964453099137e-13
	-3.507658889401018e-11,1.123964453099137e-13
	3.507676897036437e-11,0.0
	-2.090996083534216e+02,0.0
	3.138388349403602e+00,0.0

 44	3.548133892335764e-03,0.000000000000000e+00
	1.000000000000000e+00,0.000000000000000e+00
	7.703883898977235e-11,3.530765800422281e-08
	-3.935656493806113e-11,1.297873983442014e-13
	-3.935656491838493e-11,1.297933646562888e-13
	-3.935656491838493e-11,1.297933646562888e-13
	3.935677893949855e-11,0.0
	-2.080996090513812e+02,0.0
	3.138294782081374e+00,0.0

 45	3.651741272548387e-03,0.000000000000000e+00
	1.000000000000000e+00,0.000000000000000e+00
	8.643898982975439e-11,3.849185393296318e-08
	-4.415877417222445e-11,1.498761182212248e-13
	-4.415877414883925e-11,1.498830080081318e-13
	-4.415877414883925e-11,1.498830080081318e-13
	4.415902851336613e-11,0.0
	-2.070996097906882e+02,0.0
	3.138198482548452e+00,0.0

 46	3.758374042884452e-03,0.000000000000000e+00
	1.000000000000000e+00,0.000000000000000e+00
	9.698613080834352e-11,4.196321382746966e-08
	-4.954693816390279e-11,1.730742030605950e-13
	-4.954693813610943e-11,1.730821592589607e-13
	-4.954693813610943e-11,1.730821592589607e-13
	4.954724044886161e-11,0.0
	-2.060996105738085e+02,0.0
	3.138099371023249e+00,0.0

 47	3.868120546330533e-03,0.000000000000000e+00
	1.000000000000000e+00,0.000000000000000e+00
	1.088202155620144e-10,4.574763524971581e-08
	-5.559255356783696e-11,1.998629249867213e-13
	-5.559255353480450e-11,1.998721126570615e-13
	-5.559255353480450e-11,1.998721126570615e-13
	5.559291283411513e-11,0.0
	-2.050996114033298e+02,0.0
	3.137997365394543e+00,0.0

 48	3.981071705534985e-03,0.000000000000000e+00
	1.000000000000000e+00,0.000000000000000e+00
	1.220982745918148e-10,4.987335129309469e-08
	-6.237584082954328e-11,2.307980480311750e-13
	-6.237584079028413e-11,2.308086577822287e-13
	-6.237584079028413e-11,2.308086577822287e-13
	6.237626781822860e-11,0.0
	-2.040996122820035e+02,0.0
	3.137892381153461e+00,0.0

 49	4.097321098135428e-03,0.000000000000000e+00
	1.000000000000000e+00,0.000000000000000e+00
	1.369964989444689e-10,5.437114120701080e-08
	-6.998680862613841e-11,2.665213580606308e-13
	-6.998680857947883e-11,2.665336100037268e-13
	-6.998680857947883e-11,2.665336100037268e-13
	6.998731610303308e-11,0.0
	-2.030996132127412e+02,0.0
	3.137784331323474e+00,0.0

 50	4.216965034285836e-03,0.000000000000000e+00
	1.000000000000000e+00,0.000000000000000e+00
	1.537125781387128e-10,5.927456001582903e-08
	-7.852644818422990e-11,3.077739773124114e-13
	-7.852644812877491e-11,3.077881256278908e-13
	-7.852644812877491e-11,3.077881256278908e-13
	7.852705132151247e-11,0.0
	-2.020996141986268e+02,0.0
	3.137673126388334e+00,0.0

 51	4.340102636447452e-03,0.000000000000000e+00
	1.000000000000000e+00,0.000000000000000e+00
	1.724683233590990e-10,6.462018884511741e-08
	-8.810807332150181e-11,3.554117397589305e-13
	-8.810807325559344e-11,3.554280779693592e-13
	-8.810807325559344e-11,3.554280779693592e-13
	8.810879015133297e-11,0.0
	-2.010996152429313e+02,0.0
	3.137558674217925e+00,0.0

 52	4.466835921509646e-03,0.000000000000000e+00
	1.000000000000000e+00,0.000000000000000e+00
	1.935126107249340e-10,7.044790782265888e-08
	-9.885882399217221e-11,4.104229462760636e-13
	-9.885882391383999e-11,4.104418133356297e-13
	-9.885882391383999e-11,4.104418133356297e-13
	9.885967594580591e-11,0.0
	-2.000996163491170e+02,0.0
	3.137440879991939e+00,0.0

 53	4.597269885308737e-03,0.000000000000000e+00
	1.000000000000000e+00,0.000000000000000e+00
	2.171246836887702e-10,7.680119358989668e-08
	-1.109213532855547e-10,4.739488679602419e-13
	-1.109213531924568e-10,4.739706552866672e-13
	-1.109213531924568e-10,4.739706552866672e-13
	1.109223658340725e-10,0.0
	-1.990996175208440e+02,0.0
	3.137319646121324e+00,0.0

 54	4.731512589614821e-03,0.000000000000000e+00
	1.000000000000000e+00,0.000000000000000e+00
	2.436178583831481e-10,8.372744364290006e-08
