Title: * sky130 bjt 3-stage low-cutoff sweep ac candidate: ccpl=22n, ch=30p
Date: Fri May 22 20:31:42  2026
Command: ngspice-46, Build Mar 29 2026   15:02:07
Plotname: AC Analysis
Flags: complex
No. Variables: 7
No. Points: 721
Variables:
	0	frequency	frequency grid=3
	1	v(vin)	voltage
	2	v(vout_final)	voltage
	3	gain	notype
	4	gain_vv	notype
	5	gain_db	decibel
	6	phase_deg	phase
Values:
 0	1.000000000000000e-03,0.000000000000000e+00
	1.000000000000000e+00,0.000000000000000e+00
	4.845747721920700e-15,2.393579457075555e-11
	4.845747721920700e-15,2.393579457075555e-11
	2.393579506126090e-11,0.0
	-2.124190428447490e+02,0.0
	1.570593879049057e+00,0.0

 1	1.029200527194428e-03,0.000000000000000e+00
	1.000000000000000e+00,0.000000000000000e+00
	5.437018363954526e-15,2.609443201158601e-11
	5.437018363954526e-15,2.609443201158601e-11
	2.609443257801275e-11,0.0
	-2.116690428483047e+02,0.0
	1.570587967468169e+00,0.0

 2	1.059253725177289e-03,0.000000000000000e+00
	1.000000000000000e+00,0.000000000000000e+00
	6.100434934876607e-15,2.844774506771389e-11
	6.100434934876607e-15,2.844774506771389e-11
	2.844774572181329e-11,0.0
	-2.109190428520681e+02,0.0
	1.570581883266004e+00,0.0

 3	1.090184492385128e-03,0.000000000000000e+00
	1.000000000000000e+00,0.000000000000000e+00
	6.844800569230301e-15,3.101329045963896e-11
	6.844800569230301e-15,3.101329045963896e-11
	3.101329121498116e-11,0.0
	-2.101690428560605e+02,0.0
	1.570575621401930e+00,0.0

 4	1.122018454301964e-03,0.000000000000000e+00
	1.000000000000000e+00,0.000000000000000e+00
	7.679992546414080e-15,3.381020825169461e-11
	7.679992546414080e-15,3.381020825169461e-11
	3.381020912395018e-11,0.0
	-2.094190428602855e+02,0.0
	1.570569176688126e+00,0.0

 5	1.154781984689459e-03,0.000000000000000e+00
	1.000000000000000e+00,0.000000000000000e+00
	8.617093356130244e-15,3.685936464494393e-11
	8.617093356130244e-15,3.685936464494393e-11
	3.685936565220894e-11,0.0
	-2.086690428647674e+02,0.0
	1.570562543785283e+00,0.0

 6	1.188502227437019e-03,0.000000000000000e+00
	1.000000000000000e+00,0.000000000000000e+00
	9.668537756332031e-15,4.018350764810579e-11
	9.668537756332031e-15,4.018350764810579e-11
	4.018350881127728e-11,0.0
	-2.079190428695043e+02,0.0
	1.570555717198183e+00,0.0

 7	1.223207119049932e-03,0.000000000000000e+00
	1.000000000000000e+00,0.000000000000000e+00
	1.084827777481678e-14,4.380743678712676e-11
	1.084827777481678e-14,4.380743678712676e-11
	4.380743813033625e-11,0.0
	-2.071690428745285e+02,0.0
	1.570548691271143e+00,0.0

 8	1.258925411794168e-03,0.000000000000000e+00
	1.000000000000000e+00,0.000000000000000e+00
	1.217196784422283e-14,4.775818812046388e-11
	1.217196784422283e-14,4.775818812046388e-11
	4.775818967157799e-11,0.0
	-2.064190428798456e+02,0.0
	1.570541460183333e+00,0.0

 9	1.295686697517020e-03,0.000000000000000e+00
	1.000000000000000e+00,0.000000000000000e+00
	1.365717252675128e-14,5.206523593935824e-11
	1.365717252675128e-14,5.206523593935824e-11
	5.206523773055686e-11,0.0
	-2.056690428854818e+02,0.0
	1.570534017943950e+00,0.0

 10	1.333521432163325e-03,0.000000000000000e+00
	1.000000000000000e+00,0.000000000000000e+00
	1.532359958526930e-14,5.676071265875909e-11
	1.532359958526930e-14,5.676071265875909e-11
	5.676071472720299e-11,0.0
	-2.049190428914491e+02,0.0
	1.570526358387257e+00,0.0

 11	1.372460961007563e-03,0.000000000000000e+00
	1.000000000000000e+00,0.000000000000000e+00
	1.719336149325801e-14,6.187964853860899e-11
	1.719336149325801e-14,6.187964853860899e-11
	6.187965092721074e-11,0.0
	-2.041690428977772e+02,0.0
	1.570518475167474e+00,0.0

 12	1.412537544622755e-03,0.000000000000000e+00
	1.000000000000000e+00,0.000000000000000e+00
	1.929126885395502e-14,6.746023302470954e-11
	1.929126885395502e-14,6.746023302470954e-11
	6.746023578302382e-11,0.0
	-2.034190429044759e+02,0.0
	1.570510361753521e+00,0.0

 13	1.453784385607663e-03,0.000000000000000e+00
	1.000000000000000e+00,0.000000000000000e+00
	2.164515962186083e-14,7.354409965797498e-11
	2.164515962186083e-14,7.354409965797498e-11
	7.354410284322660e-11,0.0
	-2.026690429115704e+02,0.0
	1.570502011423609e+00,0.0

 14	1.496235656094435e-03,0.000000000000000e+00
	1.000000000000000e+00,0.000000000000000e+00
	2.428626849547693e-14,8.017663667842179e-11
	2.428626849547693e-14,8.017663667842179e-11
	8.017664035669297e-11,0.0
	-2.019190429190855e+02,0.0
	1.570493417259665e+00,0.0

 15	1.539926526059493e-03,0.000000000000000e+00
	1.000000000000000e+00,0.000000000000000e+00
	2.724964138272180e-14,8.740732564070845e-11
	2.724964138272180e-14,8.740732564070845e-11
	8.740732988830973e-11,0.0
	-2.011690429270449e+02,0.0
	1.570484572141609e+00,0.0

 16	1.584893192461115e-03,0.000000000000000e+00
	1.000000000000000e+00,0.000000000000000e+00
	3.057460043875995e-14,9.529011056748205e-11
	3.057460043875995e-14,9.529011056748205e-11
	9.529011547253549e-11,0.0
	-2.004190429354757e+02,0.0
	1.570475468741448e+00,0.0

 17	1.631172909227840e-03,0.000000000000000e+00
	1.000000000000000e+00,0.000000000000000e+00
	3.430526584700674e-14,1.038838003946032e-10
	3.430526584700674e-14,1.038838003946032e-10
	1.038838060588706e-10,0.0
	-1.996690429444117e+02,0.0
	1.570466099517210e+00,0.0

 18	1.678804018122562e-03,0.000000000000000e+00
	1.000000000000000e+00,0.000000000000000e+00
	3.849114126717535e-14,1.132525077109814e-10
	3.849114126717535e-14,1.132525077109814e-10
	1.132525142519753e-10,0.0
	-1.989190429538720e+02,0.0
	1.570456456706692e+00,0.0

 19	1.727825980507865e-03,0.000000000000000e+00
	1.000000000000000e+00,0.000000000000000e+00
	4.318777071850763e-14,1.234661270652779e-10
	4.318777071850763e-14,1.234661270652779e-10
	1.234661346186998e-10,0.0
	-1.981690429638920e+02,0.0
	1.570446532321031e+00,0.0

 20	1.778279410038925e-03,0.000000000000000e+00
	1.000000000000000e+00,0.000000000000000e+00
	4.845747561507500e-14,1.346008564089339e-10
	4.845747561507500e-14,1.346008564089339e-10
	1.346008651314893e-10,0.0
	-1.974190429745106e+02,0.0
	1.570436318138084e+00,0.0

 21	1.830206106311058e-03,0.000000000000000e+00
	1.000000000000000e+00,0.000000000000000e+00
	5.437018173305070e-14,1.467397655653969e-10
	5.437018173305070e-14,1.467397655653969e-10
	1.467397756380468e-10,0.0
	-1.966690429857527e+02,0.0
	1.570425805695620e+00,0.0

 22	1.883649089489803e-03,0.000000000000000e+00
	1.000000000000000e+00,0.000000000000000e+00
	6.100434708285074e-14,1.599734159655603e-10
	6.100434708285074e-14,1.599734159655603e-10
	1.599734275972749e-10,0.0
	-1.959190429976650e+02,0.0
	1.570414986284303e+00,0.0

 23	1.938652635952210e-03,0.000000000000000e+00
	1.000000000000000e+00,0.000000000000000e+00
	6.844800299928292e-14,1.744005362748153e-10
	6.844800299928292e-14,1.744005362748153e-10
	1.744005497069097e-10,0.0
	-1.951690430102822e+02,0.0
	1.570403850940482e+00,0.0

 24	1.995262314968882e-03,0.000000000000000e+00
	1.000000000000000e+00,0.000000000000000e+00
	7.679992226345889e-14,1.901287589502223e-10
	7.679992226345889e-14,1.901287589502223e-10
	1.901287744613629e-10,0.0
	-1.944190430236472e+02,0.0
	1.570392390438764e+00,0.0

 25	2.053525026457149e-03,0.000000000000000e+00
	1.000000000000000e+00,0.000000000000000e+00
	8.617092975736413e-14,2.072754232241796e-10
	8.617092975736413e-14,2.072754232241796e-10
	2.072754411361653e-10,0.0
	-1.936690430378028e+02,0.0
	1.570380595284365e+00,0.0

 26	2.113489039836650e-03,0.000000000000000e+00
	1.000000000000000e+00,0.000000000000000e+00
	9.668537304230124e-14,2.259684505044735e-10
	9.668537304230124e-14,2.259684505044735e-10
	2.259684711889117e-10,0.0
	-1.929190430527947e+02,0.0
	1.570368455705254e+00,0.0

 27	2.175204034019526e-03,0.000000000000000e+00
	1.000000000000000e+00,0.000000000000000e+00
	1.084827723748988e-13,2.463472987215405e-10
	1.084827723748988e-13,2.463472987215405e-10
	2.463473226075571e-10,0.0
	-1.921690430686812e+02,0.0
	1.570355961644049e+00,0.0

 28	2.238721138568343e-03,0.000000000000000e+00
	1.000000000000000e+00,0.000000000000000e+00
	1.217196720560564e-13,2.685640027440489e-10
	1.217196720560564e-13,2.685640027440489e-10
	2.685640303271905e-10,0.0
	-1.914190430855043e+02,0.0
	1.570343102749685e+00,0.0

 29	2.304092976055850e-03,0.000000000000000e+00
	1.000000000000000e+00,0.000000000000000e+00
	1.365717176775394e-13,2.927843086218887e-10
	1.365717176775394e-13,2.927843086218887e-10
	2.927843404744035e-10,0.0
	-1.906690431033265e+02,0.0
	1.570329868368845e+00,0.0

 30	2.371373705661660e-03,0.000000000000000e+00
	1.000000000000000e+00,0.000000000000000e+00
	1.532359868320083e-13,3.191889101220852e-10
	1.532359868320083e-13,3.191889101220852e-10
	3.191889469047953e-10,0.0
	-1.899190431222011e+02,0.0
	1.570316247537127e+00,0.0

 31	2.440619068041985e-03,0.000000000000000e+00
	1.000000000000000e+00,0.000000000000000e+00
	1.719336042114907e-13,3.479747967790764e-10
	1.719336042114907e-13,3.479747967790764e-10
	3.479748392550872e-10,0.0
	-1.891690431422016e+02,0.0
	1.570302228969964e+00,0.0

 32	2.511886431509585e-03,0.000000000000000e+00
	1.000000000000000e+00,0.000000000000000e+00
	1.929126757974874e-13,3.793567235204326e-10
	1.929126757974874e-13,3.793567235204326e-10
	3.793567725709645e-10,0.0
	-1.884190431633839e+02,0.0
	1.570287801053272e+00,0.0

 33	2.585234839562196e-03,0.000000000000000e+00
	1.000000000000000e+00,0.000000000000000e+00
	2.164515810747636e-13,4.135688128273925e-10
	2.164515810747636e-13,4.135688128273925e-10
	4.135688694700627e-10,0.0
	-1.876690431858159e+02,0.0
	1.570272951833832e+00,0.0

 34	2.660725059798815e-03,0.000000000000000e+00
	1.000000000000000e+00,0.000000000000000e+00
	2.428626669562089e-13,4.508663013858709e-10
	2.428626669562089e-13,4.508663013858709e-10
	4.508663667958057e-10,0.0
	-1.869190432095831e+02,0.0
	1.570257669009383e+00,0.0

 35	2.738419634264367e-03,0.000000000000000e+00
	1.000000000000000e+00,0.000000000000000e+00
	2.724963924358358e-13,4.915274442600407e-10
	2.724963924358358e-13,4.915274442600407e-10
	4.915275197942545e-10,0.0
	-1.861690432347568e+02,0.0
	1.570241939918434e+00,0.0

 36	2.818382931264460e-03,0.000000000000000e+00
	1.000000000000000e+00,0.000000000000000e+00
	3.057459789637640e-13,5.358555907895339e-10
	3.057459789637640e-13,5.358555907895339e-10
	5.358556780150828e-10,0.0
	-1.854190432614234e+02,0.0
	1.570225751529770e+00,0.0

 37	2.900681198693160e-03,0.000000000000000e+00
	1.000000000000000e+00,0.000000000000000e+00
	3.430526282541003e-13,5.841814477025263e-10
	3.430526282541003e-13,5.841814477025263e-10
	5.841815484290181e-10,0.0
	-1.846690432896668e+02,0.0
	1.570209090431657e+00,0.0

 38	2.985382618917966e-03,0.000000000000000e+00
	1.000000000000000e+00,0.000000000000000e+00
	3.849113767599131e-13,6.368655463239353e-10
	3.849113767599131e-13,6.368655463239353e-10
	6.368656626410726e-10,0.0
	-1.839190433195866e+02,0.0
	1.570191942820736e+00,0.0

 39	3.072557365267454e-03,0.000000000000000e+00
	1.000000000000000e+00,0.000000000000000e+00
	4.318776645036794e-13,6.943009322896998e-10
	4.318776645036794e-13,6.943009322896998e-10
	6.943010666106335e-10,0.0
	-1.831690433512781e+02,0.0
	1.570174294490579e+00,0.0

 40	3.162277660168387e-03,0.000000000000000e+00
	1.000000000000000e+00,0.000000000000000e+00
	4.845747054239031e-13,7.569160978284641e-10
	4.845747054239031e-13,7.569160978284641e-10
	7.569162529398573e-10,0.0
	-1.824190433848494e+02,0.0
	1.570156130819923e+00,0.0

 41	3.254617834980467e-03,0.000000000000000e+00
	1.000000000000000e+00,0.000000000000000e+00
	5.437017570416022e-13,8.251781784916102e-10
	5.437017570416022e-13,8.251781784916102e-10
	8.251783576114513e-10,0.0
	-1.816690434204048e+02,0.0
	1.570137436760559e+00,0.0

 42	3.349654391578285e-03,0.000000000000000e+00
	1.000000000000000e+00,0.000000000000000e+00
	6.100433991750358e-13,8.995964381743246e-10
	6.100433991750358e-13,8.995964381743246e-10
	8.995966450186886e-10,0.0
	-1.809190434580715e+02,0.0
	1.570118196824861e+00,0.0

 43	3.447466065731503e-03,0.000000000000000e+00
	1.000000000000000e+00,0.000000000000000e+00
	6.844799448323231e-13,9.807260684358303e-10
	6.844799448323231e-13,9.807260684358303e-10
	9.807263072959731e-10,0.0
	-1.801690434979713e+02,0.0
	1.570098395072958e+00,0.0

 44	3.548133892335764e-03,0.000000000000000e+00
	1.000000000000000e+00,0.000000000000000e+00
	7.679991214208844e-13,1.069172330454293e-09
	7.679991214208844e-13,1.069172330454293e-09
	1.069172606285680e-09,0.0
	-1.794190435402362e+02,0.0
	1.570078015099526e+00,0.0

 45	3.651741272548387e-03,0.000000000000000e+00
	1.000000000000000e+00,0.000000000000000e+00
	8.617091772810578e-13,1.165595070523415e-09
	8.617091772810578e-13,1.165595070523415e-09
	1.165595389048529e-09,0.0
	-1.786690435850005e+02,0.0
	1.570057040020197e+00,0.0

 46	3.758374042884452e-03,0.000000000000000e+00
	1.000000000000000e+00,0.000000000000000e+00
	9.668535874545407e-13,1.270713642772092e-09
	9.668535874545407e-13,1.270713642772092e-09
	1.270714010599151e-09,0.0
	-1.779190436324191e+02,0.0
	1.570035452457571e+00,0.0

 47	3.868120546330533e-03,0.000000000000000e+00
	1.000000000000000e+00,0.000000000000000e+00
	1.084827553831285e-12,1.385312275840842e-09
	1.084827553831285e-12,1.385312275840842e-09
	1.385312700600898e-09,0.0
	-1.771690436826468e+02,0.0
	1.570013234526822e+00,0.0

 48	3.981071705534985e-03,0.000000000000000e+00
	1.000000000000000e+00,0.000000000000000e+00
	1.217196518613190e-12,1.510245923543618e-09
	1.217196518613190e-12,1.510245923543618e-09
	1.510246414048873e-09,0.0
	-1.764190437358486e+02,0.0
	1.569990367820874e+00,0.0

 49	4.097321098135428e-03,0.000000000000000e+00
	1.000000000000000e+00,0.000000000000000e+00
	1.365716936760087e-12,1.646446643166560e-09
	1.365716936760087e-12,1.646446643166560e-09
	1.646447209593185e-09,0.0
	-1.756690437922079e+02,0.0
	1.569966833395158e+00,0.0

 50	4.216965034285836e-03,0.000000000000000e+00
	1.000000000000000e+00,0.000000000000000e+00
	1.532359583060356e-12,1.794930548993469e-09
	1.532359583060356e-12,1.794930548993469e-09
	1.794931203092722e-09,0.0
	-1.749190438519058e+02,0.0
	1.569942611751914e+00,0.0

 51	4.340102636447452e-03,0.000000000000000e+00
	1.000000000000000e+00,0.000000000000000e+00
	1.719335703083790e-12,1.956805392921822e-09
	1.719335703083790e-12,1.956805392921822e-09
	1.956806148263846e-09,0.0
	-1.741690439151412e+02,0.0
	1.569917682824039e+00,0.0

 52	4.466835921509646e-03,0.000000000000000e+00
	1.000000000000000e+00,0.000000000000000e+00
	1.929126355037141e-12,2.133278828736130e-09
	1.929126355037141e-12,2.133278828736130e-09
	2.133279700991478e-09,0.0
	-1.734190439821178e+02,0.0
	1.569892025958458e+00,0.0

 53	4.597269885308737e-03,0.000000000000000e+00
	1.000000000000000e+00,0.000000000000000e+00
	2.164515331854073e-12,2.325667421679412e-09
	2.164515331854073e-12,2.325667421679412e-09
	2.325668428944157e-09,0.0
	-1.726690440530666e+02,0.0
	1.569865619899019e+00,0.0

 54	4.731512589614821e-03,0.000000000000000e+00
	1.000000000000000e+00,0.000000000000000e+00
	2.428626100396798e-12,2.535406470556366e-09
	2.428626100396798e-12,2.535406470556366e-09
	2.535407633727528e-09,0.0
	-1.719190441282194e+02,0.0
	1.569838442768879e+00,0.0

 55	4.869675251658647e-03,0.000000000000000e+00
	1.000000000000000e+00,0.000000000000000e+00
	2.724963247904435e-12,2.764060715623071e-09
	2.724963247904435e-12,2.764060715623071e-09
	2.764062058832150e-09,0.0
	-1.711690442078252e+02,0.0
	1.569810472052381e+00,0.0

 56	5.011872336272740e-03,0.000000000000000e+00
	1.000000000000000e+00,0.000000000000000e+00
	3.057458985668792e-12,3.013336012159782e-09
	3.057458985668792e-12,3.013336012159782e-09
	3.013337563273399e-09,0.0
	-1.704190442921536e+02,0.0
	1.569781684576401e+00,0.0

 57	5.158221650723075e-03,0.000000000000000e+00
	1.000000000000000e+00,0.000000000000000e+00
	3.430525327022628e-12,3.285092056823476e-09
	3.430525327022628e-12,3.285092056823476e-09
	3.285093848021501e-09,0.0
	-1.696690443814710e+02,0.0
	1.569752056491146e+00,0.0

 58	5.308844442309902e-03,0.000000000000000e+00
	1.000000000000000e+00,0.000000000000000e+00
	3.849112631963981e-12,3.581356261689183e-09
	3.849112631963981e-12,3.581356261689183e-09
	3.581358330132350e-09,0.0
	-1.689190444760833e+02,0.0
	1.569721563250404e+00,0.0

 59	5.463865498818562e-03,0.000000000000000e+00
	1.000000000000000e+00,0.000000000000000e+00
	4.318775295331372e-12,3.904338879534888e-09
	4.318775295331372e-12,3.904338879534888e-09
	3.904341268135739e-09,0.0
	-1.681690445763023e+02,0.0
	1.569690179591195e+00,0.0

 60	5.623413251903512e-03,0.000000000000000e+00
	1.000000000000000e+00,0.000000000000000e+00
	4.845745450113014e-12,4.256449493166850e-09
	4.845745450113014e-12,4.256449493166850e-09
	4.256452251480017e-09,0.0
	-1.674190446824582e+02,0.0
	1.569657879512853e+00,0.0

 61	5.787619883491228e-03,0.000000000000000e+00
	1.000000000000000e+00,0.000000000000000e+00
	5.437015663905302e-12,4.640314991817275e-09
	5.437015663905302e-12,4.640314991817275e-09
	4.640318177067547e-09,0.0
	-1.666690447949060e+02,0.0
	1.569624636255481e+00,0.0

 62	5.956621435290127e-03,0.000000000000000e+00
	1.000000000000000e+00,0.000000000000000e+00
	6.100431725861582e-12,5.058799168732292e-09
	6.100431725861582e-12,5.058799168732292e-09
	5.058802847001825e-09,0.0
	-1.659190449140134e+02,0.0
	1.569590422277779e+00,0.0

 63	6.130557921498231e-03,0.000000000000000e+00
	1.000000000000000e+00,0.000000000000000e+00
	6.844796755310814e-12,5.515024086126219e-09
	6.844796755310814e-12,5.515024086126219e-09
	5.515028333725490e-09,0.0
	-1.651690450401820e+02,0.0
	1.569555209234229e+00,0.0

 64	6.309573444801957e-03,0.000000000000000e+00
	1.000000000000000e+00,0.000000000000000e+00
	7.679988013559216e-12,6.012393366931650e-09
	7.679988013559216e-12,6.012393366931650e-09
	6.012398271982620e-09,0.0
	-1.644190451738270e+02,0.0
	1.569518967951613e+00,0.0

 65	6.493816315762139e-03,0.000000000000000e+00
	1.000000000000000e+00,0.000000000000000e+00
	8.617087968829376e-12,6.554617587067271e-09
	8.617087968829376e-12,6.554617587067271e-09
	6.554623251331584e-09,0.0
	-1.636690453153894e+02,0.0
	1.569481668404840e+00,0.0

 66	6.683439175686173e-03,0.000000000000000e+00
	1.000000000000000e+00,0.000000000000000e+00
	9.668531353506475e-12,7.145741957676902e-09
	9.668531353506475e-12,7.145741957676902e-09
	7.145748498667068e-09,0.0
	-1.629190454653394e+02,0.0
	1.569443279692077e+00,0.0

 67	6.878599123088104e-03,0.000000000000000e+00
	1.000000000000000e+00,0.000000000000000e+00
	1.084827016504451e-11,7.790176503856452e-09
	1.084827016504451e-11,7.790176503856452e-09
	7.790184057273790e-09,0.0
	-1.621690456241763e+02,0.0
	1.569403770009142e+00,0.0

 68	7.079457843841408e-03,0.000000000000000e+00
	1.000000000000000e+00,0.000000000000000e+00
	1.217195879998746e-11,8.492728965010622e-09
	1.217195879998746e-11,8.492728965010622e-09
	8.492737687560556e-09,0.0
	-1.614190457924229e+02,0.0
	1.569363106623158e+00,0.0

 69	7.286181745132307e-03,0.000000000000000e+00
	1.000000000000000e+00,0.000000000000000e+00
	1.365716177765529e-11,9.258640662259492e-09
	1.365716177765529e-11,9.258640662259492e-09
	9.258650734902615e-09,0.0
	-1.606690459706415e+02,0.0
	1.569321255845434e+00,0.0

 70	7.498942093324590e-03,0.000000000000000e+00
	1.000000000000000e+00,0.000000000000000e+00
	1.532358680994432e-11,1.009362560052464e-08
	1.532358680994432e-11,1.009362560052464e-08
	1.009363723223096e-08,0.0
	-1.599190461594162e+02,0.0
	1.569278183003557e+00,0.0

 71	7.717915155850157e-03,0.000000000000000e+00
	1.000000000000000e+00,0.000000000000000e+00
	1.719334630976707e-11,1.100391309692689e-08
	1.719334630976707e-11,1.100391309692689e-08
	1.100392652901120e-08,0.0
	-1.591690463593794e+02,0.0
	1.569233852412666e+00,0.0

 72	7.943282347242850e-03,0.000000000000000e+00
	1.000000000000000e+00,0.000000000000000e+00
	1.929125080834028e-11,1.199629425360581e-08
	1.929125080834028e-11,1.199629425360581e-08
	1.199630976473405e-08,0.0
	-1.584190465711916e+02,0.0
	1.569188227345887e+00,0.0

 73	8.175230379436536e-03,0.000000000000000e+00
	1.000000000000000e+00,0.000000000000000e+00
	2.164513817461682e-11,1.307817262157832e-08
	2.164513817461682e-11,1.307817262157832e-08
