Title: * sky130 bjt 3-stage cout pole-alignment ac sweep: cout=10n, rout=10meg/10meg
Date: Fri May 22 21:36:33  2026
Command: ngspice-46, Build Mar 29 2026   15:02:07
Plotname: AC Analysis
Flags: complex
No. Variables: 8
No. Points: 721
Variables:
	0	frequency	frequency grid=3
	1	v(vin)	voltage
	2	v(b3_collector)	voltage
	3	v(vout_final)	voltage
	4	gain	notype
	5	gain_vv	notype
	6	gain_db	decibel
	7	phase_deg	phase
Values:
 0	1.000000000000000e-03,0.000000000000000e+00
	1.000000000000000e+00,0.000000000000000e+00
	4.861096667831021e-13,7.904423276608954e-10
	-2.483247083838022e-13,2.308073772647720e-16
	-2.483247083838022e-13,2.308073772647720e-16
	2.483248156466562e-13,0.0
	-2.520995975654218e+02,0.0
	3.140663195895862e+00,0.0

 1	1.029200527194428e-03,0.000000000000000e+00
	1.000000000000000e+00,0.000000000000000e+00
	5.454240123262721e-13,8.617279547834594e-10
	-2.786248964506976e-13,2.665321967875373e-16
	-2.786248964506976e-13,2.665321967875373e-16
	2.786250239328368e-13,0.0
	-2.510995976241490e+02,0.0
	3.140636055242398e+00,0.0

 2	1.059253725177289e-03,0.000000000000000e+00
	1.000000000000000e+00,0.000000000000000e+00
	6.119758017600773e-13,9.394424379971301e-10
	-3.126222649312955e-13,3.077865737941846e-16
	-3.126222649312955e-13,3.077865737941846e-16
	3.126224164440998e-13,0.0
	-2.500995976863537e+02,0.0
	3.140608122067652e+00,0.0

 3	1.090184492385128e-03,0.000000000000000e+00
	1.000000000000000e+00,0.000000000000000e+00
	6.866481366364465e-13,1.024165560113937e-09
	-3.507679377443688e-13,3.554263839464714e-16
	-3.507679377443688e-13,3.554263839464714e-16
	3.507681178176713e-13,0.0
	-2.490995977522487e+02,0.0
	3.140579373229596e+00,0.0

 4	1.122018454301964e-03,0.000000000000000e+00
	1.000000000000000e+00,0.000000000000000e+00
	7.704318731642739e-13,1.116529391318429e-09
	-3.935680841922467e-13,4.104399769914317e-16
	-3.935680841922467e-13,4.104399769914317e-16
	3.935682982097644e-13,0.0
	-2.480995978220421e+02,0.0
	3.140549784910441e+00,0.0

 5	1.154781984689459e-03,0.000000000000000e+00
	1.000000000000000e+00,0.000000000000000e+00
	8.644387702568041e-13,1.217223004666012e-09
	-4.415906355005435e-13,4.739686813505495e-16
	-4.415906355005435e-13,4.739686813505495e-16
	4.415908898608358e-13,0.0
	-2.470995978959748e+02,0.0
	3.140519332596909e+00,0.0

 6	1.188502227437019e-03,0.000000000000000e+00
	1.000000000000000e+00,0.000000000000000e+00
	9.699162418890615e-13,1.326997616853322e-09
	-4.954728209004337e-13,5.473304824508319e-16
	-4.954728209004337e-13,5.473304824508319e-16
	4.954731232082022e-13,0.0
	-2.460995979742884e+02,0.0
	3.140487991059921e+00,0.0

 7	1.223207119049932e-03,0.000000000000000e+00
	1.000000000000000e+00,0.000000000000000e+00
	1.088263909508945e-12,1.446672192599208e-09
	-5.559296232474590e-13,6.320473660295598e-16
	-5.559296232474590e-13,6.320473660295598e-16
	5.559299825409083e-13,0.0
	-2.450995980572417e+02,0.0
	3.140455734333697e+00,0.0

 8	1.258925411794168e-03,0.000000000000000e+00
	1.000000000000000e+00,0.000000000000000e+00
	1.221052174148822e-12,1.577139554454867e-09
	-6.237632663797051e-13,7.298768936875425e-16
	-6.237632663797051e-13,7.298768936875425e-16
	6.237636934007612e-13,0.0
	-2.440995981451070e+02,0.0
	3.140422535694243e+00,0.0

 9	1.295686697517020e-03,0.000000000000000e+00
	1.000000000000000e+00,0.000000000000000e+00
	1.370043054672197e-12,1.719373043619459e-09
	-6.998738601040214e-13,8.428486657629030e-16
	-6.998738601040214e-13,8.428486657629030e-16
	6.998743676194870e-13,0.0
	-2.430995982381833e+02,0.0
	3.140388367637214e+00,0.0

 10	1.333521432163325e-03,0.000000000000000e+00
	1.000000000000000e+00,0.000000000000000e+00
	1.537213568676280e-12,1.874433781462887e-09
	-7.852713440654946e-13,9.733064279994291e-16
	-7.852713440654946e-13,9.733064279994291e-16
	7.852719472487421e-13,0.0
	-2.420995983367726e+02,0.0
	3.140353201855123e+00,0.0

 11	1.372460961007563e-03,0.000000000000000e+00
	1.000000000000000e+00,0.000000000000000e+00
	1.724781966284475e-12,2.043478585913826e-09
	-8.810888889806687e-13,1.123956695556850e-15
	-8.810888889806687e-13,1.123956695556850e-15
	8.810896058652847e-13,0.0
	-2.410995984412040e+02,0.0
	3.140317009213892e+00,0.0

 12	1.412537544622755e-03,0.000000000000000e+00
	1.000000000000000e+00,0.000000000000000e+00
	1.935237164947117e-12,2.227768601785907e-09
	-9.885979330646235e-13,1.297924903136330e-15
	-9.885979330646235e-13,1.297924903136330e-15
	9.885987850835647e-13,0.0
	-2.400995985518287e+02,0.0
	3.140279759728714e+00,0.0

 13	1.453784385607663e-03,0.000000000000000e+00
	1.000000000000000e+00,0.000000000000000e+00
	2.171371775833023e-12,2.428678709426294e-09
	-1.109225053174325e-12,1.498820246127270e-15
	-1.109225053174325e-12,1.498820246127270e-15
	1.109226065800707e-12,0.0
	-2.390995986690021e+02,0.0
	3.140241422539211e+00,0.0

 14	1.496235656094435e-03,0.000000000000000e+00
	1.000000000000000e+00,0.000000000000000e+00
	2.436319160031802e-12,2.647707781862501e-09
	-1.244570894528800e-12,1.730810557974572e-15
	-1.244570894528800e-12,1.730810557974572e-15
	1.244572098037476e-12,0.0
	-2.380995987931147e+02,0.0
	3.140201965883870e+00,0.0

 15	1.539926526059493e-03,0.000000000000000e+00
	1.000000000000000e+00,0.000000000000000e+00
	2.733595006299316e-12,2.886489866987844e-09
	-1.396431410197382e-12,1.998708777202931e-15
	-1.396431410197382e-12,1.998708777202931e-15
	1.396432840570081e-12,0.0
	-2.370995989245897e+02,0.0
	3.140161357073724e+00,0.0

 16	1.584893192461115e-03,0.000000000000000e+00
	1.000000000000000e+00,0.000000000000000e+00
	3.067143982061371e-12,3.146806378212106e-09
	-1.566821692190545e-12,2.308072797968980e-15
	-1.566821692190545e-12,2.308072797968980e-15
	1.566823392191629e-12,0.0
	-2.360995990638530e+02,0.0
	3.140119562465277e+00,0.0

 17	1.631172909227840e-03,0.000000000000000e+00
	1.000000000000000e+00,0.000000000000000e+00
	3.441392076672475e-12,3.430599384495833e-09
	-1.758002710360563e-12,2.665320775643652e-15
	-1.758002710360563e-12,2.665320775643652e-15
	1.758004730815569e-12,0.0
	-2.350995992113617e+02,0.0
	3.140076547432626e+00,0.0

 18	1.678804018122562e-03,0.000000000000000e+00
	1.000000000000000e+00,0.000000000000000e+00
	3.861305331510314e-12,3.739986098935241e-09
	-1.972511313924968e-12,3.077864279593823e-15
	-1.972511313924968e-12,3.077864279593823e-15
	1.972513715240157e-12,0.0
	-2.340995993676189e+02,0.0
	3.140032276338776e+00,0.0

 19	1.727825980507865e-03,0.000000000000000e+00
	1.000000000000000e+00,0.000000000000000e+00
	4.332455736244943e-12,4.077274674008245e-09
	-2.213193893721250e-12,3.554262055604002e-15
	-2.213193893721250e-12,3.554262055604002e-15
	2.213196747689592e-12,0.0
	-2.330995995331330e+02,0.0
	3.139986712506118e+00,0.0

 20	1.778279410038925e-03,0.000000000000000e+00
	1.000000000000000e+00,0.000000000000000e+00
	4.861095165620758e-12,4.444981421269588e-09
	-2.483244151839132e-12,4.104397587883924e-15
	-2.483244151839132e-12,4.104397587883924e-15
	2.483247543786726e-12,0.0
	-2.320995997084497e+02,0.0
	3.139939818186037e+00,0.0

 21	1.830206106311058e-03,0.000000000000000e+00
	1.000000000000000e+00,0.000000000000000e+00
	5.454238337881860e-12,4.845849583992883e-09
	-2.786245479819735e-12,4.739684144429831e-15
	-2.786245479819735e-12,4.739684144429831e-15
	2.786249511156834e-12,0.0
	-2.310995998941599e+02,0.0
	3.139891554527648e+00,0.0

 22	1.883649089489803e-03,0.000000000000000e+00
	1.000000000000000e+00,0.000000000000000e+00
	6.119755895671539e-12,5.282869802822192e-09
	-3.126218507754491e-12,5.473301559677517e-15
	-3.126218507754491e-12,5.473301559677517e-15
	3.126223299007394e-12,0.0
	-2.300996000908715e+02,0.0
	3.139841881545600e+00,0.0

 23	1.938652635952210e-03,0.000000000000000e+00
	1.000000000000000e+00,0.000000000000000e+00
	6.866478844445362e-12,5.759302427060950e-09
	-3.507674455191919e-12,6.320469666727949e-15
	-3.507674455191919e-12,6.320469666727949e-15
	3.507680149606393e-12,0.0
	-2.290996002992446e+02,0.0
	3.139790758086954e+00,0.0

 24	1.995262314968882e-03,0.000000000000000e+00
	1.000000000000000e+00,0.000000000000000e+00
	7.704315734335597e-12,6.278701838118083e-09
	-3.935674991815256e-12,7.298764051914104e-15
	-3.935674991815256e-12,7.298764051914104e-15
	3.935681759639199e-12,0.0
	-2.280996005199578e+02,0.0
	3.139738141797088e+00,0.0

 25	2.053525026457149e-03,0.000000000000000e+00
	1.000000000000000e+00,0.000000000000000e+00
	8.644384140262646e-12,6.844942966484818e-09
	-4.415899402140557e-12,8.428480682311343e-15
	-4.415899402140557e-12,8.428480682311343e-15
	4.415907445713955e-12,0.0
	-2.270996007537517e+02,0.0
	3.139683989084610e+00,0.0

 26	2.113489039836650e-03,0.000000000000000e+00
	1.000000000000000e+00,0.000000000000000e+00
	9.699158185084264e-12,7.462250200161009e-09
	-4.954719945510235e-12,9.733056970943497e-15
	-4.954719945510235e-12,9.733056970943497e-15
	4.954729505314588e-12,0.0
	-2.260996010013980e+02,0.0
	3.139628255085241e+00,0.0

 27	2.175204034019526e-03,0.000000000000000e+00
	1.000000000000000e+00,0.000000000000000e+00
	1.088263406320265e-11,8.135228900115258e-09
	-5.559286411294565e-12,1.123955801508642e-14
	-5.559286411294565e-12,1.123955801508642e-14
	5.559297773142646e-12,0.0
	-2.250996012637180e+02,0.0
	3.139570893624648e+00,0.0

 28	2.238721138568343e-03,0.000000000000000e+00
	1.000000000000000e+00,0.000000000000000e+00
	1.221051576107637e-11,8.868899757939371e-09
	-6.237620991302415e-12,1.297923809531411e-14
	-6.237620991302415e-12,1.297923809531411e-14
	6.237634494883301e-12,0.0
	-2.240996015415805e+02,0.0
	3.139511857180188e+00,0.0

 29	2.304092976055850e-03,0.000000000000000e+00
	1.000000000000000e+00,0.000000000000000e+00
	1.370042343899328e-11,9.668736251990014e-09
	-6.998724728256910e-12,1.498818908421880e-14
	-6.998724728256910e-12,1.498818908421880e-14
	6.998740777291782e-12,0.0
	-2.230996018359086e+02,0.0
	3.139451096841543e+00,0.0

 30	2.371373705661660e-03,0.000000000000000e+00
	1.000000000000000e+00,0.000000000000000e+00
	1.537212723920766e-11,1.054070548146625e-08
	-7.852696952820576e-12,1.730808921682450e-14
	-7.852696952820576e-12,1.730808921682450e-14
	7.852716027132899e-12,0.0
	-2.220996021476786e+02,0.0
	3.139388562270196e+00,0.0

 31	2.440619068041985e-03,0.000000000000000e+00
	1.000000000000000e+00,0.000000000000000e+00
	1.724780962291055e-11,1.149131268304678e-08
	-8.810869293982162e-12,1.998706775680306e-14
	-8.810869293982162e-12,1.998706775680306e-14
	8.810891963843117e-12,0.0
	-2.210996024779187e+02,0.0
	3.139324201657724e+00,0.0

 32	2.511886431509585e-03,0.000000000000000e+00
	1.000000000000000e+00,0.000000000000000e+00
	1.935235971699792e-11,1.252764976216156e-08
	-9.885956040971465e-12,2.308070349692433e-14
	-9.885956040971465e-12,2.308070349692433e-14
	9.885982984149535e-12,0.0
	-2.200996028277301e+02,0.0
	3.139257961682884e+00,0.0

 33	2.585234839562196e-03,0.000000000000000e+00
	1.000000000000000e+00,0.000000000000000e+00
	2.171370357655329e-11,1.365744820102509e-08
	-1.109222285191326e-11,2.665317780892448e-14
	-1.109222285191326e-11,2.665317780892448e-14
	1.109225487393767e-11,0.0
	-2.190996031982683e+02,0.0
	3.139189787467436e+00,0.0

 34	2.660725059798815e-03,0.000000000000000e+00
	1.000000000000000e+00,0.000000000000000e+00
	2.436317474523227e-11,1.488913673804427e-08
	-1.244567604774596e-11,3.077860616394768e-14
	-1.244567604774596e-11,3.077860616394768e-14
	1.244571410598985e-11,0.0
	-2.180996035907608e+02,0.0
	3.139119622530674e+00,0.0

 35	2.738419634264367e-03,0.000000000000000e+00
	1.000000000000000e+00,0.000000000000000e+00
	2.733593003069374e-11,1.623190424895146e-08
	-1.396427500317884e-11,3.554257574752918e-14
	-1.396427500317884e-11,3.554257574752918e-14
	1.396432023548215e-11,0.0
	-2.170996040065125e+02,0.0
	3.139047408742644e+00,0.0

 36	2.818382931264460e-03,0.000000000000000e+00
	1.000000000000000e+00,0.000000000000000e+00
	3.067141601220555e-11,1.769576829879037e-08
	-1.566817045291543e-11,4.104392106875509e-14
	-1.566817045291543e-11,4.104392106875509e-14
	1.566822421160321e-11,0.0
	-2.160996044468933e+02,0.0
	3.138973086275977e+00,0.0

 37	2.900681198693160e-03,0.000000000000000e+00
	1.000000000000000e+00,0.000000000000000e+00
	3.441389247035540e-11,1.929164987604051e-08
	-1.757997187510421e-11,4.739677440023279e-14
	-1.757997187510421e-11,4.739677440023279e-14
	1.758003576741750e-11,0.0
	-2.150996049133721e+02,0.0
	3.138896593556328e+00,0.0

 38	2.985382618917966e-03,0.000000000000000e+00
	1.000000000000000e+00,0.000000000000000e+00
	3.861301968480485e-11,2.103145486659438e-08
	-1.972504750006049e-11,5.473293358797393e-14
	-1.972504750006049e-11,5.473293358797393e-14
	1.972512343620850e-11,0.0
	-2.140996054074948e+02,0.0
	3.138817867211369e+00,0.0

 39	3.072557365267454e-03,0.000000000000000e+00
	1.000000000000000e+00,0.000000000000000e+00
	4.332451739278590e-11,2.292816287524177e-08
	-2.213186092490756e-11,6.320459635359538e-14
	-2.213186092490756e-11,6.320459635359538e-14
	2.213195117517772e-11,0.0
	-2.130996059308912e+02,0.0
	3.138736842018282e+00,0.0

 40	3.162277660168387e-03,0.000000000000000e+00
	1.000000000000000e+00,0.000000000000000e+00
	4.861090415215055e-11,2.499592405726243e-08
	-2.483234880059714e-11,7.298751781472705e-14
	-2.483234880059714e-11,7.298751781472705e-14
	2.483245606323054e-11,0.0
	-2.120996064853021e+02,0.0
	3.138653450849727e+00,0.0

 41	3.254617834980467e-03,0.000000000000000e+00
	1.000000000000000e+00,0.000000000000000e+00
	5.454232692012102e-11,2.725016468264297e-08
	-2.786234460289899e-11,8.428465673016817e-14
	-2.786234460289899e-11,8.428465673016817e-14
	2.786247208476043e-11,0.0
	-2.110996070725692e+02,0.0
	3.138567624618235e+00,0.0

 42	3.349654391578285e-03,0.000000000000000e+00
	1.000000000000000e+00,0.000000000000000e+00
	6.119749185543132e-11,2.970770222035174e-08
	-3.126205411020945e-11,9.733038611471177e-14
	-3.126205411020945e-11,9.733038611471177e-14
	3.126220562266401e-11,0.0
	-2.100996076946280e+02,0.0
	3.138479292218967e+00,0.0

 43	3.447466065731503e-03,0.000000000000000e+00
	1.000000000000000e+00,0.000000000000000e+00
	6.866470869450808e-11,3.238687080105599e-08
	-3.507658889700650e-11,1.123953555765628e-13
	-3.507658889700650e-11,1.123953555765628e-13
	3.507676896986886e-11,0.0
	-2.090996083535443e+02,0.0
	3.138388380470813e+00,0.0

 44	3.548133892335764e-03,0.000000000000000e+00
	1.000000000000000e+00,0.000000000000000e+00
	7.704306256029573e-11,3.530765799446936e-08
	-3.935656492194274e-11,1.297921062521845e-13
	-3.935656492194274e-11,1.297921062521845e-13
	3.935677893890631e-11,0.0
	-2.080996090515119e+02,0.0
	3.138294814055763e+00,0.0

 45	3.651741272548387e-03,0.000000000000000e+00
	1.000000000000000e+00,0.000000000000000e+00
	8.644372875282946e-11,3.849185392170350e-08
	-4.415877415307171e-11,1.498815548261833e-13
	-4.415877415307171e-11,1.498815548261833e-13
	4.415902851266626e-11,0.0
	-2.070996097908259e+02,0.0
	3.138198515456512e+00,0.0

 46	3.758374042884452e-03,0.000000000000000e+00
	1.000000000000000e+00,0.000000000000000e+00
	9.699144796629517e-11,4.196321381446718e-08
	-4.954693814113967e-11,1.730804811511481e-13
	-4.954693814113967e-11,1.730804811511481e-13
	4.954724044802975e-11,0.0
	-2.060996105739543e+02,0.0
	3.138099404892242e+00,0.0

 47	3.868120546330533e-03,0.000000000000000e+00
	1.000000000000000e+00,0.000000000000000e+00
	1.088261815099438e-10,4.574763523470079e-08
	-5.559255354078293e-11,1.998701748090298e-13
	-5.559255354078293e-11,1.998701748090298e-13
	5.559291283312644e-11,0.0
	-2.050996114034843e+02,0.0
	3.137997400252529e+00,0.0

 48	3.981071705534985e-03,0.000000000000000e+00
	1.000000000000000e+00,0.000000000000000e+00
	1.221049684938051e-10,4.987335127575563e-08
	-6.237584079738948e-11,2.308064199910138e-13
	-6.237584079738948e-11,2.308064199910138e-13
	6.237626781705352e-11,0.0
	-2.040996122821672e+02,0.0
	3.137892417029320e+00,0.0

 49	4.097321098135428e-03,0.000000000000000e+00
	1.000000000000000e+00,0.000000000000000e+00
	1.370040096240320e-10,5.437114118698794e-08
	-6.998680858792362e-11,2.665310258437025e-13
	-6.998680858792362e-11,2.665310258437025e-13
	6.998731610163657e-11,0.0
	-2.030996132129146e+02,0.0
	3.137784368246928e+00,0.0

 50	4.216965034285836e-03,0.000000000000000e+00
	1.000000000000000e+00,0.000000000000000e+00
	1.537210052574085e-10,5.927455999270701e-08
	-7.852644813881161e-11,3.077851414876185e-13
	-7.852644813881161e-11,3.077851414876185e-13
	7.852705131985276e-11,0.0
	-2.020996141988103e+02,0.0
	3.137673164389973e+00,0.0

 51	4.340102636447452e-03,0.000000000000000e+00
	1.000000000000000e+00,0.000000000000000e+00
	1.724777787389653e-10,6.462018881841649e-08
	-8.810807326752197e-11,3.554246319393626e-13
	-8.810807326752197e-11,3.554246319393626e-13
	8.810879014936029e-11,0.0
	-2.010996152431258e+02,0.0
	3.137558713329233e+00,0.0

 52	4.466835921509646e-03,0.000000000000000e+00
	1.000000000000000e+00,0.000000000000000e+00
	1.935232198322767e-10,7.044790779182517e-08
	-9.885882392801715e-11,4.104378339240206e-13
	-9.885882392801715e-11,4.104378339240206e-13
	9.885967594346146e-11,0.0
	-2.000996163493230e+02,0.0
	3.137440920245319e+00,0.0

 53	4.597269885308737e-03,0.000000000000000e+00
	1.000000000000000e+00,0.000000000000000e+00
	2.171365872989614e-10,7.680119355427763e-08
	-1.109213532092877e-10,4.739660599358889e-13
	-1.109213532092877e-10,4.739660599358889e-13
	1.109223658312674e-10,0.0
	-1.990996175210636e+02,0.0
	3.137319687550126e+00,0.0

 54	4.731512589614821e-03,0.000000000000000e+00
	1.000000000000000e+00,0.000000000000000e+00
	2.436312144487523e-10,8.372744360178267e-08
	-1.244557201700544e-10,5.473272759183196e-13
	-1.244557201700544e-10,5.473272759183196e-13
	1.244569236731884e-10,0.0
	-1.980996187622376e+02,0.0
	3.137194914805991e+00,0.0

 55	4.869675251658647e-03,0.000000000000000e+00
	1.000000000000000e+00,0.000000000000000e+00
	2.733586668313414e-10,9.127832987563134e-08
	-1.396415136246461e-10,6.320434437774399e-13
	-1.396415136246461e-10,6.320434437774399e-13
	1.396429439903680e-10,0.0
	-1.970996200769489e+02,0.0
	3.137066498642491e+00,0.0

 56	5.011872336272740e-03,0.000000000000000e+00
	1.000000000000000e+00,0.000000000000000e+00
	3.067134072348086e-10,9.951018423925051e-08
	-1.566802350569618e-10,7.298720959615673e-13
	-1.566802350569618e-10,7.298720959615673e-13
	1.566819350492623e-10,0.0
	-1.960996214695670e+02,0.0
	3.136934332670810e+00,0.0

 57	5.158221650723075e-03,0.000000000000000e+00
	1.000000000000000e+00,0.000000000000000e+00
	3.441380298956546e-10,1.084844187181302e-07
	-1.757979722808019e-10,8.428427971523018e-13
	-1.757979722808019e-10,8.428427971523018e-13
	1.757999927247504e-10,0.0
	-1.950996229446990e+02,0.0
	3.136798307395610e+00,0.0

 58	5.308844442309902e-03,0.000000000000000e+00
	1.000000000000000e+00,0.000000000000000e+00
	3.861291333671937e-10,1.182679836359779e-07
	-1.972483993177421e-10,9.732992494749359e-13
	-1.972483993177421e-10,9.732992494749359e-13
	1.972508006190101e-10,0.0
	-1.940996245072415e+02,0.0
	3.136658310124323e+00,0.0

 59	5.463865498818562e-03,0.000000000000000e+00
	1.000000000000000e+00,0.000000000000000e+00
	4.332439099785953e-10,1.289338670660303e-07
	-2.213161422963940e-10,1.123947914736994e-12
	-2.213161422963940e-10,1.123947914736994e-12
	2.213189962472105e-10,0.0
	-1.930996261623699e+02,0.0
	3.136514224873801e+00,0.0

 60	5.623413251903512e-03,0.000000000000000e+00
	1.000000000000000e+00,0.000000000000000e+00
	4.861075393151511e-10,1.405616393218419e-07
	-2.483205560285141e-10,1.297914162378817e-12
	-2.483205560285141e-10,1.297914162378817e-12
	2.483239479540451e-10,0.0
	-1.920996279155719e+02,0.0
	3.136365932274239e+00,0.0

 61	5.787619883491228e-03,0.000000000000000e+00
	1.000000000000000e+00,0.000000000000000e+00
	5.454214838266222e-10,1.532380465499798e-07
	-2.786199613692156e-10,1.498807107960815e-12
	-2.786199613692156e-10,1.498807107960815e-12
	2.786239926785382e-10,0.0
	-1.910996297726527e+02,0.0
	3.136213309470290e+00,0.0

 62	5.956621435290127e-03,0.000000000000000e+00
	1.000000000000000e+00,0.000000000000000e+00
	6.119727966328965e-10,1.670576578513272e-07
