Title: * sky130 bjt 3-stage gain/headroom sweep ac candidate: re=19k
Date: Fri May 22 20:42:55  2026
Command: ngspice-46, Build Mar 29 2026   15:02:07
Plotname: AC Analysis
Flags: complex
No. Variables: 7
No. Points: 721
Variables:
	0	frequency	frequency grid=3
	1	v(vin)	voltage
	2	v(vout_final)	voltage
	3	gain	notype
	4	gain_vv	notype
	5	gain_db	decibel
	6	phase_deg	phase
Values:
 0	1.000000000000000e-03,0.000000000000000e+00
	1.000000000000000e+00,0.000000000000000e+00
	4.670854087144199e-13,7.611177923835374e-10
	4.670854087144199e-13,7.611177923835374e-10
	7.611179357048213e-10,0.0
	-1.823709608762200e+02,0.0
	1.570182643400877e+00,0.0

 1	1.029200527194428e-03,0.000000000000000e+00
	1.000000000000000e+00,0.000000000000000e+00
	5.240784439417386e-13,8.297588017527778e-10
	5.240784439417386e-13,8.297588017527778e-10
	8.297589672576133e-10,0.0
	-1.816209609089215e+02,0.0
	1.570164723522782e+00,0.0

 2	1.059253725177289e-03,0.000000000000000e+00
	1.000000000000000e+00,0.000000000000000e+00
	5.880256804097170e-13,9.045901637924868e-10
	5.880256804097170e-13,9.045901637924868e-10
	9.045903549144877e-10,0.0
	-1.808709609435585e+02,0.0
	1.570146280374848e+00,0.0

 3	1.090184492385128e-03,0.000000000000000e+00
	1.000000000000000e+00,0.000000000000000e+00
	6.597756588485474e-13,9.861701520183347e-10
	6.597756588485474e-13,9.861701520183347e-10
	9.861703727225764e-10,0.0
	-1.801209609802545e+02,0.0
	1.570127298677325e+00,0.0

 4	1.122018454301964e-03,0.000000000000000e+00
	1.000000000000000e+00,0.000000000000000e+00
	7.402804575891545e-13,1.075107387515792e-09
	7.402804575891545e-13,1.075107387515792e-09
	1.075107642381072e-09,0.0
	-1.793709610191209e+02,0.0
	1.570107762704285e+00,0.0

 5	1.154781984689459e-03,0.000000000000000e+00
	1.000000000000000e+00,0.000000000000000e+00
	8.306083260526016e-13,1.172065379499221e-09
	8.306083260526016e-13,1.172065379499221e-09
	1.172065673813052e-09,0.0
	-1.786209610602916e+02,0.0
	1.570087656270595e+00,0.0

 6	1.188502227437019e-03,0.000000000000000e+00
	1.000000000000000e+00,0.000000000000000e+00
	9.319578597622460e-13,1.277767475364151e-09
	9.319578597622460e-13,1.277767475364151e-09
	1.277767815232458e-09,0.0
	-1.778709611039019e+02,0.0
	1.570066962718512e+00,0.0

 7	1.223207119049932e-03,0.000000000000000e+00
	1.000000000000000e+00,0.000000000000000e+00
	1.045673904965302e-12,1.393002257152820e-09
	1.045673904965302e-12,1.393002257152820e-09
	1.393002649626613e-09,0.0
	-1.771209611500976e+02,0.0
	1.570045664903873e+00,0.0

 8	1.258925411794168e-03,0.000000000000000e+00
	1.000000000000000e+00,0.000000000000000e+00
	1.173265403911950e-12,1.518629424698222e-09
	1.173265403911950e-12,1.518629424698222e-09
	1.518629877919884e-09,0.0
	-1.763709611990252e+02,0.0
	1.570023745181899e+00,0.0

 9	1.295686697517020e-03,0.000000000000000e+00
	1.000000000000000e+00,0.000000000000000e+00
	1.316425417581038e-12,1.655586209329050e-09
	1.316425417581038e-12,1.655586209329050e-09
	1.655586732701254e-09,0.0
	-1.756209612508583e+02,0.0
	1.570001185392579e+00,0.0

 10	1.333521432163325e-03,0.000000000000000e+00
	1.000000000000000e+00,0.000000000000000e+00
	1.477053591556036e-12,1.804894366000276e-09
	1.477053591556036e-12,1.804894366000276e-09
	1.804894970381061e-09,0.0
	-1.748709613057602e+02,0.0
	1.569977966845613e+00,0.0

 11	1.372460961007563e-03,0.000000000000000e+00
	1.000000000000000e+00,0.000000000000000e+00
	1.657281363138336e-12,1.967667795991215e-09
	1.657281363138336e-12,1.967667795991215e-09
	1.967668493919249e-09,0.0
	-1.741209613639147e+02,0.0
	1.569954070304942e+00,0.0

 12	1.412537544622755e-03,0.000000000000000e+00
	1.000000000000000e+00,0.000000000000000e+00
	1.859500244197519e-12,2.145120857057247e-09
	1.859500244197519e-12,2.145120857057247e-09
	2.145121663011955e-09,0.0
	-1.733709614255167e+02,0.0
	1.569929475972800e+00,0.0

 13	1.453784385607663e-03,0.000000000000000e+00
	1.000000000000000e+00,0.000000000000000e+00
	2.086393555047568e-12,2.338577423024953e-09
	2.086393555047568e-12,2.338577423024953e-09
	2.338578353726917e-09,0.0
	-1.726209614907677e+02,0.0
	1.569904163473321e+00,0.0

 14	1.496235656094435e-03,0.000000000000000e+00
	1.000000000000000e+00,0.000000000000000e+00
	2.340972030435953e-12,2.549480760417169e-09
	2.340972030435953e-12,2.549480760417169e-09
	2.549481835175014e-09,0.0
	-1.718709615598792e+02,0.0
	1.569878111835649e+00,0.0

 15	1.539926526059493e-03,0.000000000000000e+00
	1.000000000000000e+00,0.000000000000000e+00
	2.626613770107992e-12,2.779404295786056e-09
	2.626613770107992e-12,2.779404295786056e-09
	2.779405536897032e-09,0.0
	-1.711209616330949e+02,0.0
	1.569851299476572e+00,0.0

 16	1.584893192461115e-03,0.000000000000000e+00
	1.000000000000000e+00,0.000000000000000e+00
	2.947109064093710e-12,3.030063354107417e-09
	2.947109064093710e-12,3.030063354107417e-09
	3.030064787319989e-09,0.0
	-1.703709617106485e+02,0.0
	1.569823704182639e+00,0.0

 17	1.631172909227840e-03,0.000000000000000e+00
	1.000000000000000e+00,0.000000000000000e+00
	3.306710687478020e-12,3.303327955770936e-09
	3.306710687478020e-12,3.303327955770936e-09
	3.303329610818963e-09,0.0
	-1.696209617927908e+02,0.0
	1.569795303091753e+00,0.0

 18	1.678804018122562e-03,0.000000000000000e+00
	1.000000000000000e+00,0.000000000000000e+00
	3.710190332051777e-12,3.601236767655784e-09
	3.710190332051777e-12,3.601236767655784e-09
	3.601238678875392e-09,0.0
	-1.688709618798032e+02,0.0
	1.569766072674235e+00,0.0

 19	1.727825980507865e-03,0.000000000000000e+00
	1.000000000000000e+00,0.000000000000000e+00
	4.162901923675907e-12,3.926012312383774e-09
	4.162901923675907e-12,3.926012312383774e-09
	3.926014519425700e-09,0.0
	-1.681209619719755e+02,0.0
	1.569735988713326e+00,0.0

 20	1.778279410038925e-03,0.000000000000000e+00
	1.000000000000000e+00,0.000000000000000e+00
	4.670852665514541e-12,4.280077549199041e-09
	4.670852665514541e-12,4.280077549199041e-09
	4.280080097851241e-09,0.0
	-1.673709620695996e+02,0.0
	1.569705026285129e+00,0.0

 21	1.830206106311058e-03,0.000000000000000e+00
	1.000000000000000e+00,0.000000000000000e+00
	5.240782749803486e-12,4.666073950149223e-09
	5.240782749803486e-12,4.666073950149223e-09
	4.666076893286801e-09,0.0
	-1.666209621730185e+02,0.0
	1.569673159737958e+00,0.0

 22	1.883649089489803e-03,0.000000000000000e+00
	1.000000000000000e+00,0.000000000000000e+00
	5.880254795986266e-12,5.086881206503189e-09
	5.880254795986266e-12,5.086881206503189e-09
	5.086884605185359e-09,0.0
	-1.658709622825593e+02,0.0
	1.569640362671084e+00,0.0

 23	1.938652635952210e-03,0.000000000000000e+00
	1.000000000000000e+00,0.000000000000000e+00
	6.597754201838896e-12,5.545638712301964e-09
	6.597754201838896e-12,5.545638712301964e-09
	5.545642637038803e-09,0.0
	-1.651209623985983e+02,0.0
	1.569606607912865e+00,0.0

 24	1.995262314968882e-03,0.000000000000000e+00
	1.000000000000000e+00,0.000000000000000e+00
	7.402801739359320e-12,6.045768985445802e-09
	7.402801739359320e-12,6.045768985445802e-09
	6.045773517661073e-09,0.0
	-1.643709625215047e+02,0.0
	1.569571867498237e+00,0.0

 25	2.053525026457149e-03,0.000000000000000e+00
	1.000000000000000e+00,0.000000000000000e+00
	8.306079889301463e-12,6.591003200914129e-09
	8.306079889301463e-12,6.591003200914129e-09
	6.591008434634523e-09,0.0
	-1.636209626516970e+02,0.0
	1.569536112645543e+00,0.0

 26	2.113489039836650e-03,0.000000000000000e+00
	1.000000000000000e+00,0.000000000000000e+00
	9.319574590916240e-12,7.185409026729195e-09
	9.319574590916240e-12,7.185409026729195e-09
	7.185415070535032e-09,0.0
	-1.628709627896032e+02,0.0
	1.569499313732687e+00,0.0

 27	2.175204034019526e-03,0.000000000000000e+00
	1.000000000000000e+00,0.000000000000000e+00
	1.045673428767421e-11,7.833420970227358e-09
	1.045673428767421e-11,7.833420970227358e-09
	7.833427949505228e-09,0.0
	-1.621209629356823e+02,0.0
	1.569461440272598e+00,0.0

 28	2.238721138568343e-03,0.000000000000000e+00
	1.000000000000000e+00,0.000000000000000e+00
	1.173264837949150e-11,8.539873461090221e-09
	1.173264837949150e-11,8.539873461090221e-09
	8.539881520634293e-09,0.0
	-1.613709630904159e+02,0.0
	1.569422460887969e+00,0.0

 29	2.304092976055850e-03,0.000000000000000e+00
	1.000000000000000e+00,0.000000000000000e+00
	1.316424744933729e-11,9.310036917906942e-09
	1.316424744933729e-11,9.310036917906942e-09
	9.310046224922897e-09,0.0
	-1.606209632543171e+02,0.0
	1.569382343285260e+00,0.0

 30	2.371373705661660e-03,0.000000000000000e+00
	1.000000000000000e+00,0.000000000000000e+00
	1.477052792113281e-11,1.014965706735338e-08
	1.477052792113281e-11,1.014965706735338e-08
	1.014966781492732e-08,0.0
	-1.598709634279313e+02,0.0
	1.569341054227950e+00,0.0

 31	2.440619068041985e-03,0.000000000000000e+00
	1.000000000000000e+00,0.000000000000000e+00
	1.657280412999185e-11,1.106499780931884e-08
	1.657280412999185e-11,1.106499780931884e-08
	1.106501022042309e-08,0.0
	-1.591209636118311e+02,0.0
	1.569298559508996e+00,0.0

 32	2.511886431509585e-03,0.000000000000000e+00
	1.000000000000000e+00,0.000000000000000e+00
	1.859499114955047e-11,1.206288794773315e-08
	1.859499114955047e-11,1.206288794773315e-08
	1.206290227985213e-08,0.0
	-1.583709638066305e+02,0.0
	1.569254823922495e+00,0.0

 33	2.585234839562196e-03,0.000000000000000e+00
	1.000000000000000e+00,0.000000000000000e+00
	2.086392212940488e-11,1.315077213577210e-08
	2.086392212940488e-11,1.315077213577210e-08
	1.315078868624412e-08,0.0
	-1.576209640129710e+02,0.0
	1.569209811234521e+00,0.0

 34	2.660725059798815e-03,0.000000000000000e+00
	1.000000000000000e+00,0.000000000000000e+00
	2.340970435337285e-11,1.433676641542976e-08
	2.340970435337285e-11,1.433676641542976e-08
	1.433678552761576e-08,0.0
	-1.568709642315370e+02,0.0
	1.569163484153101e+00,0.0

 35	2.738419634264367e-03,0.000000000000000e+00
	1.000000000000000e+00,0.000000000000000e+00
	2.626611874329512e-11,1.562971876584141e-08
	2.626611874329512e-11,1.562971876584141e-08
	1.562974083624834e-08,0.0
	-1.561209644630589e+02,0.0
	1.569115804297323e+00,0.0

 36	2.818382931264460e-03,0.000000000000000e+00
	1.000000000000000e+00,0.000000000000000e+00
	2.947106810961058e-11,1.703927511209668e-08
	2.947106810961058e-11,1.703927511209668e-08
	1.703930059860360e-08,0.0
	-1.553709647082888e+02,0.0
	1.569066732165537e+00,0.0

 37	2.900681198693160e-03,0.000000000000000e+00
	1.000000000000000e+00,0.000000000000000e+00
	3.306708009623011e-11,1.857595128677972e-08
	3.306708009623011e-11,1.857595128677972e-08
	1.857598071813704e-08,0.0
	-1.546209649680565e+02,0.0
	1.569016227102635e+00,0.0

 38	2.985382618917966e-03,0.000000000000000e+00
	1.000000000000000e+00,0.000000000000000e+00
	3.710187149412129e-11,2.025121148140965e-08
	3.710187149412129e-11,2.025121148140965e-08
	2.025124546820878e-08,0.0
	-1.538709652432211e+02,0.0
	1.568964247266362e+00,0.0

 39	3.072557365267454e-03,0.000000000000000e+00
	1.000000000000000e+00,0.000000000000000e+00
	4.162898141106151e-11,2.207755377275834e-08
	4.162898141106151e-11,2.207755377275834e-08
	2.207759302009912e-08,0.0
	-1.531209655346813e+02,0.0
	1.568910749592657e+00,0.0

 40	3.162277660168387e-03,0.000000000000000e+00
	1.000000000000000e+00,0.000000000000000e+00
	4.670848169916908e-11,2.406860336207528e-08
	4.670848169916908e-11,2.406860336207528e-08
	2.406864868419421e-08,0.0
	-1.523709658434168e+02,0.0
	1.568855689759973e+00,0.0

 41	3.254617834980467e-03,0.000000000000000e+00
	1.000000000000000e+00,0.000000000000000e+00
	5.240777406776873e-11,2.623921422308288e-08
	5.240777406776873e-11,2.623921422308288e-08
	2.623926656024550e-08,0.0
	-1.516209661704473e+02,0.0
	1.568799022152564e+00,0.0

 42	3.349654391578285e-03,0.000000000000000e+00
	1.000000000000000e+00,0.000000000000000e+00
	5.880248445786663e-11,2.860557991670195e-08
	5.880248445786663e-11,2.860557991670195e-08
	2.860564035470978e-08,0.0
	-1.508709665168517e+02,0.0
	1.568740699822684e+00,0.0

 43	3.447466065731503e-03,0.000000000000000e+00
	1.000000000000000e+00,0.000000000000000e+00
	6.597746654619444e-11,3.118535439932548e-08
	6.597746654619444e-11,3.118535439932548e-08
	3.118542419204236e-08,0.0
	-1.501209668837816e+02,0.0
	1.568680674451707e+00,0.0

 44	3.548133892335764e-03,0.000000000000000e+00
	1.000000000000000e+00,0.000000000000000e+00
	7.402792769466300e-11,3.399778372591455e-08
	7.402792769466300e-11,3.399778372591455e-08
	3.399786432127964e-08,0.0
	-1.493709672724578e+02,0.0
	1.568618896310086e+00,0.0

 45	3.651741272548387e-03,0.000000000000000e+00
	1.000000000000000e+00,0.000000000000000e+00
	8.306069228569401e-11,3.706384963042272e-08
	8.306069228569401e-11,3.706384963042272e-08
	3.706394270048978e-08,0.0
	-1.486209676841578e+02,0.0
	1.568555314216158e+00,0.0

 46	3.758374042884452e-03,0.000000000000000e+00
	1.000000000000000e+00,0.000000000000000e+00
	9.319561920611924e-11,4.040642605437612e-08
	9.319561920611924e-11,4.040642605437612e-08
	4.040653353000236e-08,0.0
	-1.478709681202571e+02,0.0
	1.568489875493747e+00,0.0

 47	3.868120546330533e-03,0.000000000000000e+00
	1.000000000000000e+00,0.000000000000000e+00
	1.045671922899246e-10,4.405044979181563e-08
	1.045671922899246e-10,4.405044979181563e-08
	4.405057390271974e-08,0.0
	-1.471209685821961e+02,0.0
	1.568422525928517e+00,0.0

 48	3.981071705534985e-03,0.000000000000000e+00
	1.000000000000000e+00,0.000000000000000e+00
	1.173263048221959e-10,4.802310652306033e-08
	1.173263048221959e-10,4.802310652306033e-08
	4.802324984408077e-08,0.0
	-1.463709690715048e+02,0.0
	1.568353209723065e+00,0.0

 49	4.097321098135428e-03,0.000000000000000e+00
	1.000000000000000e+00,0.000000000000000e+00
	1.316422617838422e-10,5.235403362534345e-08
	1.316422617838422e-10,5.235403362534345e-08
	5.235419912985662e-08,0.0
	-1.456209695898119e+02,0.0
	1.568281869450695e+00,0.0

 50	4.216965034285836e-03,0.000000000000000e+00
	1.000000000000000e+00,0.000000000000000e+00
	1.477050264056206e-10,5.707554127338210e-08
	1.477050264056206e-10,5.707554127338210e-08
	5.707573239498876e-08,0.0
	-1.448709701388268e+02,0.0
	1.568208446007838e+00,0.0

 51	4.340102636447452e-03,0.000000000000000e+00
	1.000000000000000e+00,0.000000000000000e+00
	1.657277408398395e-10,6.222285347877686e-08
	1.657277408398395e-10,6.222285347877686e-08
	6.222307418253632e-08,0.0
	-1.441209707203707e+02,0.0
	1.568132878565096e+00,0.0

 52	4.466835921509646e-03,0.000000000000000e+00
	1.000000000000000e+00,0.000000000000000e+00
	1.859495543980436e-10,6.783437086677137e-08
	1.859495543980436e-10,6.783437086677137e-08
	6.783462573146152e-08,0.0
	-1.433709713363787e+02,0.0
	1.568055104516845e+00,0.0

 53	4.597269885308737e-03,0.000000000000000e+00
	1.000000000000000e+00,0.000000000000000e+00
	2.086387968830544e-10,7.395195715061891e-08
	2.086387968830544e-10,7.395195715061891e-08
	7.395225146372854e-08,0.0
	-1.426209719888823e+02,0.0
	1.567975059429371e+00,0.0

 54	4.731512589614821e-03,0.000000000000000e+00
	1.000000000000000e+00,0.000000000000000e+00
	2.340965391203038e-10,8.062125143992049e-08
	2.340965391203038e-10,8.062125143992049e-08
	8.062159130734464e-08,0.0
	-1.418709726800527e+02,0.0
	1.567892676987490e+00,0.0

 55	4.869675251658647e-03,0.000000000000000e+00
	1.000000000000000e+00,0.000000000000000e+00
	2.626605879367190e-10,8.789200871361493e-08
	2.626605879367190e-10,8.789200871361493e-08
	8.789240118632905e-08,0.0
	-1.411209734121764e+02,0.0
	1.567807888939614e+00,0.0

 56	5.011872336272740e-03,0.000000000000000e+00
	1.000000000000000e+00,0.000000000000000e+00
	2.947099685934130e-10,9.581847099648064e-08
	2.947099685934130e-10,9.581847099648064e-08
	9.581892421682154e-08,0.0
	-1.403709741876791e+02,0.0
	1.567720625041206e+00,0.0

 57	5.158221650723075e-03,0.000000000000000e+00
	1.000000000000000e+00,0.000000000000000e+00
	3.306699541514470e-10,1.044597720084327e-07
	3.306699541514470e-10,1.044597720084327e-07
	1.044602953790210e-07,0.0
	-1.396209750091347e+02,0.0
	1.567630812996592e+00,0.0

 58	5.308844442309902e-03,0.000000000000000e+00
	1.000000000000000e+00,0.000000000000000e+00
	3.710177085049598e-10,1.138803783050286e-07
	3.710177085049598e-10,1.138803783050286e-07
	1.138809826838373e-07,0.0
	-1.388709758792676e+02,0.0
	1.567538378399068e+00,0.0

 59	5.463865498818562e-03,0.000000000000000e+00
	1.000000000000000e+00,0.000000000000000e+00
	4.162886179588946e-10,1.241505701997782e-07
	4.162886179588946e-10,1.241505701997782e-07
	1.241512681253941e-07,0.0
	-1.381209768009562e+02,0.0
	1.567443244669259e+00,0.0

 60	5.623413251903512e-03,0.000000000000000e+00
	1.000000000000000e+00,0.000000000000000e+00
	4.670833953631297e-10,1.353469660552912e-07
	4.670833953631297e-10,1.353469660552912e-07
	1.353477720070425e-07,0.0
	-1.373709777772579e+02,0.0
	1.567345332991684e+00,0.0

 61	5.787619883491228e-03,0.000000000000000e+00
	1.000000000000000e+00,0.000000000000000e+00
	5.240760510695832e-10,1.475530938546680e-07
	5.240760510695832e-10,1.475530938546680e-07
	1.475540245530150e-07,0.0
	-1.366209788114092e+02,0.0
	1.567244562249460e+00,0.0

 62	5.956621435290127e-03,0.000000000000000e+00
	1.000000000000000e+00,0.000000000000000e+00
	5.880228364760307e-10,1.608600143161449e-07
	5.880228364760307e-10,1.608600143161449e-07
	1.608610890695651e-07,0.0
	-1.358709799068382e+02,0.0
	1.567140848957112e+00,0.0

 63	6.130557921498231e-03,0.000000000000000e+00
	1.000000000000000e+00,0.000000000000000e+00
	6.597722788280554e-10,1.753670001990561e-07
	6.597722788280554e-10,1.753670001990561e-07
	1.753682413046206e-07,0.0
	-1.351209810671742e+02,0.0
	1.567034107191405e+00,0.0

 64	6.309573444801957e-03,0.000000000000000e+00
	1.000000000000000e+00,0.000000000000000e+00
	7.402764404279619e-10,1.911822768678579e-07
	7.402764404279619e-10,1.911822768678579e-07
	1.911837100738097e-07,0.0
	-1.343709822962659e+02,0.0
	1.566924248520175e+00,0.0

 65	6.493816315762139e-03,0.000000000000000e+00
	1.000000000000000e+00,0.000000000000000e+00
	8.306035516486674e-10,2.084238296385100e-07
	8.306035516486674e-10,2.084238296385100e-07
	2.084254846784400e-07,0.0
	-1.336209835981849e+02,0.0
	1.566811181929066e+00,0.0

 66	6.683439175686173e-03,0.000000000000000e+00
	1.000000000000000e+00,0.000000000000000e+00
	9.319521853741081e-10,2.272202839284420e-07
	9.319521853741081e-10,2.272202839284420e-07
	2.272221951381458e-07,0.0
	-1.328709849772463e+02,0.0
	1.566694813746141e+00,0.0

 67	6.878599123088104e-03,0.000000000000000e+00
	1.000000000000000e+00,0.000000000000000e+00
	1.045667160944081e-09,2.477118647753700e-07
	1.045667160944081e-09,2.477118647753700e-07
	2.477140718051816e-07,0.0
	-1.321209864380244e+02,0.0
	1.566575047564282e+00,0.0

 68	7.079457843841408e-03,0.000000000000000e+00
	1.000000000000000e+00,0.000000000000000e+00
	1.173257388628906e-09,2.700514428818331e-07
	1.173257388628906e-09,2.700514428818331e-07
	2.700539915192144e-07,0.0
	-1.313709879853593e+02,0.0
	1.566451784161333e+00,0.0

 69	7.286181745132307e-03,0.000000000000000e+00
	1.000000000000000e+00,0.000000000000000e+00
	1.316415891402988e-09,2.944056749869910e-07
	1.316415891402988e-09,2.944056749869910e-07
	2.944086181064422e-07,0.0
	-1.306209896243748e+02,0.0
	1.566324921417909e+00,0.0

 70	7.498942093324590e-03,0.000000000000000e+00
	1.000000000000000e+00,0.000000000000000e+00
	1.477042269676036e-09,3.209562470708264e-07
	1.477042269676036e-09,3.209562470708264e-07
	3.209596457308235e-07,0.0
	-1.298709913605086e+02,0.0
	1.566194354232801e+00,0.0

 71	7.717915155850157e-03,0.000000000000000e+00
	1.000000000000000e+00,0.000000000000000e+00
	1.657267907062067e-09,3.499012296641196e-07
	1.657267907062067e-09,3.499012296641196e-07
	3.499051543738371e-07,0.0
	-1.291209931995201e+02,0.0
	1.566059974435922e+00,0.0

 72	7.943282347242850e-03,0.000000000000000e+00
	1.000000000000000e+00,0.000000000000000e+00
	1.859484251627113e-09,3.814565553720676e-07
	1.859484251627113e-09,3.814565553720676e-07
	3.814610875541636e-07,0.0
	-1.283709951474938e+02,0.0
	1.565921670698696e+00,0.0

 73	8.175230379436536e-03,0.000000000000000e+00
	1.000000000000000e+00,0.000000000000000e+00
	2.086374547847508e-09,4.158576296284600e-07
	2.086374547847508e-09,4.158576296284600e-07
