Title: * sky130 bjt 3-stage low-cutoff sweep ac candidate: ccpl=15n, ch=30p
Date: Fri May 22 20:31:42  2026
Command: ngspice-46, Build Mar 29 2026   15:02:07
Plotname: AC Analysis
Flags: complex
No. Variables: 7
No. Points: 721
Variables:
	0	frequency	frequency grid=3
	1	v(vin)	voltage
	2	v(vout_final)	voltage
	3	gain	notype
	4	gain_vv	notype
	5	gain_db	decibel
	6	phase_deg	phase
Values:
 0	1.000000000000000e-03,0.000000000000000e+00
	1.000000000000000e+00,0.000000000000000e+00
	1.047395420835961e-15,7.586711857679773e-12
	1.047395420835961e-15,7.586711857679773e-12
	7.586711929979681e-12,0.0
	-2.223989281186274e+02,0.0
	1.570658270225222e+00,0.0

 1	1.029200527194428e-03,0.000000000000000e+00
	1.000000000000000e+00,0.000000000000000e+00
	1.175196990634256e-15,8.270915609195657e-12
	1.175196990634256e-15,8.270915609195657e-12
	8.270915692686290e-12,0.0
	-2.216489281202770e+02,0.0
	1.570654238900611e+00,0.0

 2	1.059253725177289e-03,0.000000000000000e+00
	1.000000000000000e+00,0.000000000000000e+00
	1.318592710341939e-15,9.016823927756380e-12
	1.318592710341939e-15,9.016823927756380e-12
	9.016824024169859e-12,0.0
	-2.208989281220317e+02,0.0
	1.570650089859196e+00,0.0

 3	1.090184492385128e-03,0.000000000000000e+00
	1.000000000000000e+00,0.000000000000000e+00
	1.479485354011555e-15,9.830001608280058e-12
	1.479485354011555e-15,9.830001608280058e-12
	9.830001719616605e-12,0.0
	-2.201489281238864e+02,0.0
	1.570645819663586e+00,0.0

 4	1.122018454301964e-03,0.000000000000000e+00
	1.000000000000000e+00,0.000000000000000e+00
	1.660009869238864e-15,1.071651530385463e-11
	1.660009869238864e-15,1.071651530385463e-11
	1.071651543242407e-11,0.0
	-2.193989281258487e+02,0.0
	1.570641424776013e+00,0.0

 5	1.154781984689459e-03,0.000000000000000e+00
	1.000000000000000e+00,0.000000000000000e+00
	1.862561706620565e-15,1.168297878556653e-11
	1.862561706620565e-15,1.168297878556653e-11
	1.168297893403620e-11,0.0
	-2.186489281279293e+02,0.0
	1.570636901555407e+00,0.0

 6	1.188502227437019e-03,0.000000000000000e+00
	1.000000000000000e+00,0.000000000000000e+00
	2.089828605929531e-15,1.273660228406843e-11
	2.089828605929531e-15,1.273660228406843e-11
	1.273660245551853e-11,0.0
	-2.178989281301319e+02,0.0
	1.570632246254375e+00,0.0

 7	1.223207119049932e-03,0.000000000000000e+00
	1.000000000000000e+00,0.000000000000000e+00
	2.344826260781637e-15,1.388524628094886e-11
	2.344826260781637e-15,1.388524628094886e-11
	1.388524647893636e-11,0.0
	-2.171489281324741e+02,0.0
	1.570627455016100e+00,0.0

 8	1.258925411794168e-03,0.000000000000000e+00
	1.000000000000000e+00,0.000000000000000e+00
	2.630938335068411e-15,1.513748015133827e-11
	2.630938335068411e-15,1.513748015133827e-11
	1.513748037997066e-11,0.0
	-2.163989281349478e+02,0.0
	1.570622523871142e+00,0.0

 9	1.295686697517020e-03,0.000000000000000e+00
	1.000000000000000e+00,0.000000000000000e+00
	2.951961362106108e-15,1.650264609503910e-11
	2.951961362106108e-15,1.650264609503910e-11
	1.650264635905967e-11,0.0
	-2.156489281375628e+02,0.0
	1.570617448734153e+00,0.0

 10	1.333521432163325e-03,0.000000000000000e+00
	1.000000000000000e+00,0.000000000000000e+00
	3.312155122322906e-15,1.799092883332336e-11
	3.312155122322906e-15,1.799092883332336e-11
	1.799092913820955e-11,0.0
	-2.148989281403404e+02,0.0
	1.570612225400489e+00,0.0

 11	1.372460961007563e-03,0.000000000000000e+00
	1.000000000000000e+00,0.000000000000000e+00
	3.716299167970284e-15,1.961343159136271e-11
	3.716299167970284e-15,1.961343159136271e-11
	1.961343194343979e-11,0.0
	-2.141489281432792e+02,0.0
	1.570606849542730e+00,0.0

 12	1.412537544622755e-03,0.000000000000000e+00
	1.000000000000000e+00,0.000000000000000e+00
	4.169756244854900e-15,2.138225893294343e-11
	4.169756244854900e-15,2.138225893294343e-11
	2.138225933951570e-11,0.0
	-2.133989281463963e+02,0.0
	1.570601316707091e+00,0.0

 13	1.453784385607663e-03,0.000000000000000e+00
	1.000000000000000e+00,0.000000000000000e+00
	4.678543452731057e-15,2.331060706574420e-11
	4.678543452731057e-15,2.331060706574420e-11
	2.331060753524653e-11,0.0
	-2.126489281496942e+02,0.0
	1.570595622309736e+00,0.0

 14	1.496235656094435e-03,0.000000000000000e+00
	1.000000000000000e+00,0.000000000000000e+00
	5.249412088540874e-15,2.541286229061621e-11
	5.249412088540874e-15,2.541286229061621e-11
	2.541286283278904e-11,0.0
	-2.118989281531848e+02,0.0
	1.570589761632978e+00,0.0

 15	1.539926526059493e-03,0.000000000000000e+00
	1.000000000000000e+00,0.000000000000000e+00
	5.889937232017223e-15,2.770470832952215e-11
	5.889937232017223e-15,2.770470832952215e-11
	2.770470895561357e-11,0.0
	-2.111489281568853e+02,0.0
	1.570583729821371e+00,0.0

 16	1.584893192461115e-03,0.000000000000000e+00
	1.000000000000000e+00,0.000000000000000e+00
	6.608618262392161e-15,3.020324333281777e-11
	6.608618262392161e-15,3.020324333281777e-11
	3.020324405581686e-11,0.0
	-2.103989281608069e+02,0.0
	1.570577521877686e+00,0.0

 17	1.631172909227840e-03,0.000000000000000e+00
	1.000000000000000e+00,0.000000000000000e+00
	7.414991639985315e-15,3.292710743872823e-11
	7.414991639985315e-15,3.292710743872823e-11
	3.292710827363455e-11,0.0
	-2.096489281649590e+02,0.0
	1.570571132658775e+00,0.0

 18	1.678804018122562e-03,0.000000000000000e+00
	1.000000000000000e+00,0.000000000000000e+00
	8.319757449222013e-15,3.589662183669163e-11
	8.319757449222013e-15,3.589662183669163e-11
	3.589662280082641e-11,0.0
	-2.088989281693571e+02,0.0
	1.570564556871306e+00,0.0

 19	1.727825980507865e-03,0.000000000000000e+00
	1.000000000000000e+00,0.000000000000000e+00
	9.334921382244778e-15,3.913394037209658e-11
	9.334921382244778e-15,3.913394037209658e-11
	3.913394148546205e-11,0.0
	-2.081489281740175e+02,0.0
	1.570557789067379e+00,0.0

 20	1.778279410038925e-03,0.000000000000000e+00
	1.000000000000000e+00,0.000000000000000e+00
	1.047395404714803e-14,4.266321482342287e-11
	1.047395404714803e-14,4.266321482342287e-11
	4.266321610911726e-11,0.0
	-2.073989281789527e+02,0.0
	1.570550823640011e+00,0.0

 21	1.830206106311058e-03,0.000000000000000e+00
	1.000000000000000e+00,0.000000000000000e+00
	1.175196971473238e-14,4.651077508473476e-11
	1.175196971473238e-14,4.651077508473476e-11
	4.651077656943148e-11,0.0
	-2.066489281841824e+02,0.0
	1.570543654818495e+00,0.0

 22	1.883649089489803e-03,0.000000000000000e+00
	1.000000000000000e+00,0.000000000000000e+00
	1.318592687570283e-14,5.070532559797190e-11
	1.318592687570283e-14,5.070532559797190e-11
	5.070532731247292e-11,0.0
	-2.058989281897172e+02,0.0
	1.570536276663614e+00,0.0

 23	1.938652635952210e-03,0.000000000000000e+00
	1.000000000000000e+00,0.000000000000000e+00
	1.479485326947718e-14,5.527815950017726e-11
	1.479485326947718e-14,5.527815950017726e-11
	5.527816148005214e-11,0.0
	-2.051489281955810e+02,0.0
	1.570528683062725e+00,0.0

 24	1.995262314968882e-03,0.000000000000000e+00
	1.000000000000000e+00,0.000000000000000e+00
	1.660009837071883e-14,6.026339208365637e-11
	1.660009837071883e-14,6.026339208365637e-11
	6.026339436998022e-11,0.0
	-2.043989282017979e+02,0.0
	1.570520867724690e+00,0.0

 25	2.053525026457149e-03,0.000000000000000e+00
	1.000000000000000e+00,0.000000000000000e+00
	1.862561668390472e-14,6.569821531067244e-11
	1.862561668390472e-14,6.569821531067244e-11
	6.569821795087803e-11,0.0
	-2.036489282083771e+02,0.0
	1.570512824174668e+00,0.0

 26	2.113489039836650e-03,0.000000000000000e+00
	1.000000000000000e+00,0.000000000000000e+00
	2.089828560491641e-14,7.162317528101603e-11
	2.089828560491641e-14,7.162317528101603e-11
	7.162317832987786e-11,0.0
	-2.028989282153512e+02,0.0
	1.570504545748750e+00,0.0

 27	2.175204034019526e-03,0.000000000000000e+00
	1.000000000000000e+00,0.000000000000000e+00
	2.344826206781122e-14,7.808247472341470e-11
	2.344826206781122e-14,7.808247472341470e-11
	7.808247824418542e-11,0.0
	-2.021489282227355e+02,0.0
	1.570496025588435e+00,0.0

 28	2.238721138568343e-03,0.000000000000000e+00
	1.000000000000000e+00,0.000000000000000e+00
	2.630938270888533e-14,8.512430276642698e-11
	2.630938270888533e-14,8.512430276642698e-11
	8.512430683214957e-11,0.0
	-2.013989282305578e+02,0.0
	1.570487256634952e+00,0.0

 29	2.304092976055850e-03,0.000000000000000e+00
	1.000000000000000e+00,0.000000000000000e+00
	2.951961285826164e-14,9.280119444990168e-11
	2.951961285826164e-14,9.280119444990168e-11
	9.280119914492488e-11,0.0
	-2.006489282388428e+02,0.0
	1.570478231623411e+00,0.0

 30	2.371373705661660e-03,0.000000000000000e+00
	1.000000000000000e+00,0.000000000000000e+00
	3.312155031663894e-14,1.011704226585558e-10
	3.312155031663894e-14,1.011704226585558e-10
	1.011704280802840e-10,0.0
	-1.998989282476219e+02,0.0
	1.570468943076781e+00,0.0

 31	2.440619068041985e-03,0.000000000000000e+00
	1.000000000000000e+00,0.000000000000000e+00
	3.716299060224654e-14,1.102944254022094e-10
	3.716299060224654e-14,1.102944254022094e-10
	1.102944316631234e-10,0.0
	-1.991489282569121e+02,0.0
	1.570459383299699e+00,0.0

 32	2.511886431509585e-03,0.000000000000000e+00
	1.000000000000000e+00,0.000000000000000e+00
	4.169756116801780e-14,1.202412716292804e-10
	4.169756116801780e-14,1.202412716292804e-10
	1.202412788592712e-10,0.0
	-1.983989282667578e+02,0.0
	1.570449544372094e+00,0.0

 33	2.585234839562196e-03,0.000000000000000e+00
	1.000000000000000e+00,0.000000000000000e+00
	4.678543300536587e-14,1.310851690504007e-10
	4.678543300536587e-14,1.310851690504007e-10
	1.310851773994637e-10,0.0
	-1.976489282771919e+02,0.0
	1.570439418142623e+00,0.0

 34	2.660725059798815e-03,0.000000000000000e+00
	1.000000000000000e+00,0.000000000000000e+00
	5.249411907653433e-14,1.429070177592875e-10
	5.249411907653433e-14,1.429070177592875e-10
	1.429070274006351e-10,0.0
	-1.968989282882426e+02,0.0
	1.570428996221923e+00,0.0

 35	2.738419634264367e-03,0.000000000000000e+00
	1.000000000000000e+00,0.000000000000000e+00
	5.889937017034668e-14,1.557950137815105e-10
	5.889937017034668e-14,1.557950137815105e-10
	1.557950249151649e-10,0.0
	-1.961489282999429e+02,0.0
	1.570418269975653e+00,0.0

 36	2.818382931264460e-03,0.000000000000000e+00
	1.000000000000000e+00,0.000000000000000e+00
	6.608618006887082e-14,1.698453070539303e-10
	6.608618006887082e-14,1.698453070539303e-10
	1.698453199108738e-10,0.0
	-1.953989283123389e+02,0.0
	1.570407230517348e+00,0.0

 37	2.900681198693160e-03,0.000000000000000e+00
	1.000000000000000e+00,0.000000000000000e+00
	7.414991336316719e-14,1.851627187441338e-10
	7.414991336316719e-14,1.851627187441338e-10
	1.851627335911005e-10,0.0
	-1.946489283254701e+02,0.0
	1.570395868701052e+00,0.0

 38	2.985382618917966e-03,0.000000000000000e+00
	1.000000000000000e+00,0.000000000000000e+00
	8.319757088313314e-14,2.018615232604441e-10
	8.319757088313314e-14,2.018615232604441e-10
	2.018615404054537e-10,0.0
	-1.938989283393772e+02,0.0
	1.570384175113742e+00,0.0

 39	3.072557365267454e-03,0.000000000000000e+00
	1.000000000000000e+00,0.000000000000000e+00
	9.334920953297438e-14,2.200663007868068e-10
	9.334920953297438e-14,2.200663007868068e-10
	2.200663205855549e-10,0.0
	-1.931489283541168e+02,0.0
	1.570372140067532e+00,0.0

 40	3.162277660168387e-03,0.000000000000000e+00
	1.000000000000000e+00,0.000000000000000e+00
	1.047395353734694e-13,2.399128667043872e-10
	1.047395353734694e-13,2.399128667043872e-10
	2.399128895676248e-10,0.0
	-1.923989283697209e+02,0.0
	1.570359753591642e+00,0.0

 41	3.254617834980467e-03,0.000000000000000e+00
	1.000000000000000e+00,0.000000000000000e+00
	1.175196910883792e-13,2.615492848301085e-10
	1.175196910883792e-13,2.615492848301085e-10
	2.615493112321632e-10,0.0
	-1.916489283862514e+02,0.0
	1.570347005424142e+00,0.0

 42	3.349654391578285e-03,0.000000000000000e+00
	1.000000000000000e+00,0.000000000000000e+00
	1.318592615558728e-13,2.851369720358008e-10
	1.318592615558728e-13,2.851369720358008e-10
	2.851370025244179e-10,0.0
	-1.908989284037641e+02,0.0
	1.570333885003448e+00,0.0

 43	3.447466065731503e-03,0.000000000000000e+00
	1.000000000000000e+00,0.000000000000000e+00
	1.479485241362286e-13,3.108519024859079e-10
	1.479485241362286e-13,3.108519024859079e-10
	3.108519376936135e-10,0.0
	-1.901489284223089e+02,0.0
	1.570320381459572e+00,0.0

 44	3.548133892335764e-03,0.000000000000000e+00
	1.000000000000000e+00,0.000000000000000e+00
	1.660009735353548e-13,3.388859204775305e-10
	1.660009735353548e-13,3.388859204775305e-10
	3.388859611347545e-10,0.0
	-1.893989284419598e+02,0.0
	1.570306483605117e+00,0.0

 45	3.651741272548387e-03,0.000000000000000e+00
	1.000000000000000e+00,0.000000000000000e+00
	1.862561547498511e-13,3.694481716808675e-10
	1.862561547498511e-13,3.694481716808675e-10
	3.694482186310971e-10,0.0
	-1.886489284627675e+02,0.0
	1.570292179926007e+00,0.0

 46	3.758374042884452e-03,0.000000000000000e+00
	1.000000000000000e+00,0.000000000000000e+00
	2.089828416810855e-13,4.027666634512426e-10
	2.089828416810855e-13,4.027666634512426e-10
	4.027667176685216e-10,0.0
	-1.878989284848163e+02,0.0
	1.570277458571951e+00,0.0

 47	3.868120546330533e-03,0.000000000000000e+00
	1.000000000000000e+00,0.000000000000000e+00
	2.344826036016710e-13,4.390899658615657e-10
	2.344826036016710e-13,4.390899658615657e-10
	4.390900284707024e-10,0.0
	-1.871489285081661e+02,0.0
	1.570262307346623e+00,0.0

 48	3.981071705534985e-03,0.000000000000000e+00
	1.000000000000000e+00,0.000000000000000e+00
	2.630938067934422e-13,4.786890661365834e-10
	2.630938067934422e-13,4.786890661365834e-10
	4.786891384364862e-10,0.0
	-1.863989285329018e+02,0.0
	1.570246713697557e+00,0.0

 49	4.097321098135428e-03,0.000000000000000e+00
	1.000000000000000e+00,0.000000000000000e+00
	2.951961044615894e-13,5.218593903320691e-10
	2.951961044615894e-13,5.218593903320691e-10
	5.218594738226939e-10,0.0
	-1.856489285590990e+02,0.0
	1.570230664705749e+00,0.0

 50	4.216965034285836e-03,0.000000000000000e+00
	1.000000000000000e+00,0.000000000000000e+00
	3.312154744985974e-13,5.689230073344596e-10
	3.312154744985974e-13,5.689230073344596e-10
	5.689231037479285e-10,0.0
	-1.848989285868524e+02,0.0
	1.570214147074954e+00,0.0

 51	4.340102636447452e-03,0.000000000000000e+00
	1.000000000000000e+00,0.000000000000000e+00
	3.716298719502766e-13,6.202310316297529e-10
	3.716298719502766e-13,6.202310316297529e-10
	6.202311429662891e-10,0.0
	-1.841489286162518e+02,0.0
	1.570197147120671e+00,0.0

 52	4.466835921509646e-03,0.000000000000000e+00
	1.000000000000000e+00,0.000000000000000e+00
	4.169755711852958e-13,6.761662427627492e-10
	4.169755711852958e-13,6.761662427627492e-10
	6.761663713321744e-10,0.0
	-1.833989286473897e+02,0.0
	1.570179650758802e+00,0.0

 53	4.597269885308737e-03,0.000000000000000e+00
	1.000000000000000e+00,0.000000000000000e+00
	4.678542819257773e-13,7.371459410298614e-10
	4.678542819257773e-13,7.371459410298614e-10
	7.371460894995164e-10,0.0
	-1.826489286803724e+02,0.0
	1.570161643493987e+00,0.0

 54	4.731512589614821e-03,0.000000000000000e+00
	1.000000000000000e+00,0.000000000000000e+00
	5.249411335651222e-13,8.036250607117574e-10
	5.249411335651222e-13,8.036250607117574e-10
	8.036252321618389e-10,0.0
	-1.818989287153145e+02,0.0
	1.570143110407596e+00,0.0

 55	4.869675251658647e-03,0.000000000000000e+00
	1.000000000000000e+00,0.000000000000000e+00
	5.889936337207061e-13,8.760995640719733e-10
	5.889936337207061e-13,8.760995640719733e-10
	8.760997620594370e-10,0.0
	-1.811489287523225e+02,0.0
	1.570124036145365e+00,0.0

 56	5.011872336272740e-03,0.000000000000000e+00
	1.000000000000000e+00,0.000000000000000e+00
	6.608617198910150e-13,9.551101414365055e-10
	6.608617198910150e-13,9.551101414365055e-10
	9.551103700688597e-10,0.0
	-1.803989287915239e+02,0.0
	1.570104404904681e+00,0.0

 57	5.158221650723075e-03,0.000000000000000e+00
	1.000000000000000e+00,0.000000000000000e+00
	7.414990376032418e-13,1.041246244966670e-09
	7.414990376032418e-13,1.041246244966670e-09
	1.041246508987191e-09,0.0
	-1.796489288330504e+02,0.0
	1.570084200421482e+00,0.0

 58	5.308844442309902e-03,0.000000000000000e+00
	1.000000000000000e+00,0.000000000000000e+00
	8.319755947010722e-13,1.135150486213435e-09
	8.319755947010722e-13,1.135150486213435e-09
	1.135150791099574e-09,0.0
	-1.788989288770358e+02,0.0
	1.570063405956793e+00,0.0

 59	5.463865498818562e-03,0.000000000000000e+00
	1.000000000000000e+00,0.000000000000000e+00
	9.334919596868024e-13,1.237523430260589e-09
	9.334919596868024e-13,1.237523430260589e-09
	1.237523782337606e-09,0.0
	-1.781489289236254e+02,0.0
	1.570042004282848e+00,0.0

 60	5.623413251903512e-03,0.000000000000000e+00
	1.000000000000000e+00,0.000000000000000e+00
	1.047395192522218e-12,1.349128822224306e-09
	1.047395192522218e-12,1.349128822224306e-09
	1.349129228796498e-09,0.0
	-1.773989289729786e+02,0.0
	1.570019977668823e+00,0.0

 61	5.787619883491228e-03,0.000000000000000e+00
	1.000000000000000e+00,0.000000000000000e+00
	1.175196719282129e-12,1.470799285102978e-09
	1.175196719282129e-12,1.470799285102978e-09
	1.470799754605215e-09,0.0
	-1.766489290252559e+02,0.0
	1.569997307866148e+00,0.0

 62	5.956621435290127e-03,0.000000000000000e+00
	1.000000000000000e+00,0.000000000000000e+00
	1.318592387839795e-12,1.603442531479223e-09
	1.318592387839795e-12,1.603442531479223e-09
	1.603443073651941e-09,0.0
	-1.758989290806315e+02,0.0
	1.569973976093381e+00,0.0

 63	6.130557921498231e-03,0.000000000000000e+00
	1.000000000000000e+00,0.000000000000000e+00
	1.479484970717520e-12,1.748048135422373e-09
	1.479484970717520e-12,1.748048135422373e-09
	1.748048761513653e-09,0.0
	-1.751489291392847e+02,0.0
	1.569949963020656e+00,0.0

 64	6.309573444801957e-03,0.000000000000000e+00
	1.000000000000000e+00,0.000000000000000e+00
	1.660009413692979e-12,1.905694915105143e-09
	1.660009413692979e-12,1.905694915105143e-09
	1.905695638104063e-09,0.0
	-1.743989292014135e+02,0.0
	1.569925248753665e+00,0.0

 65	6.493816315762139e-03,0.000000000000000e+00
	1.000000000000000e+00,0.000000000000000e+00
	1.862561165202663e-12,2.077558981219009e-09
	1.862561165202663e-12,2.077558981219009e-09
	2.077559816125124e-09,0.0
	-1.736489292672275e+02,0.0
	1.569899812817177e+00,0.0

 66	6.683439175686173e-03,0.000000000000000e+00
	1.000000000000000e+00,0.000000000000000e+00
	2.089827962452092e-12,2.264922511229076e-09
	2.089827962452092e-12,2.264922511229076e-09
	2.264923475363602e-09,0.0
	-1.728989293369413e+02,0.0
	1.569873634138073e+00,0.0

 67	6.878599123088104e-03,0.000000000000000e+00
	1.000000000000000e+00,0.000000000000000e+00
	2.344825496011178e-12,2.469183314924729e-09
	2.344825496011178e-12,2.469183314924729e-09
	2.469184428289892e-09,0.0
	-1.721489294107801e+02,0.0
	1.569846691027889e+00,0.0

 68	7.079457843841408e-03,0.000000000000000e+00
	1.000000000000000e+00,0.000000000000000e+00
	2.630937426136206e-12,2.691865262625065e-09
	2.630937426136206e-12,2.691865262625065e-09
	2.691866548319075e-09,0.0
	-1.713989294890002e+02,0.0
	1.569818961164849e+00,0.0

 69	7.286181745132307e-03,0.000000000000000e+00
	1.000000000000000e+00,0.000000000000000e+00
	2.951960281835242e-12,2.934629653858105e-09
	2.951960281835242e-12,2.934629653858105e-09
	2.934631138554357e-09,0.0
	-1.706489295718547e+02,0.0
	1.569790421575370e+00,0.0

 70	7.498942093324590e-03,0.000000000000000e+00
	1.000000000000000e+00,0.000000000000000e+00
	3.312153838422716e-12,3.199287611298618e-09
	3.312153838422716e-12,3.199287611298618e-09
	3.199289325799070e-09,0.0
	-1.698989296596109e+02,0.0
	1.569761048615029e+00,0.0

 71	7.717915155850157e-03,0.000000000000000e+00
	1.000000000000000e+00,0.000000000000000e+00
	3.716297642047592e-12,3.487813592433443e-09
	3.716297642047592e-12,3.487813592433443e-09
	3.487815572307636e-09,0.0
	-1.691489297525802e+02,0.0
	1.569730817948974e+00,0.0

 72	7.943282347242850e-03,0.000000000000000e+00
	1.000000000000000e+00,0.000000000000000e+00
	4.169754431296436e-12,3.802360119800643e-09
	4.169754431296436e-12,3.802360119800643e-09
	3.802362406123643e-09,0.0
	-1.683989298510478e+02,0.0
	1.569699704531767e+00,0.0

 73	8.175230379436536e-03,0.000000000000000e+00
	1.000000000000000e+00,0.000000000000000e+00
	4.678541297311682e-12,4.145273839600198e-09
	4.678541297311682e-12,4.145273839600198e-09
