Title: * sky130 bjt 3-stage explicit output low-pass section ac: rlp=150k, clp=15p, cload=10p
Date: Fri May 22 22:54:43  2026
Command: ngspice-46, Build Mar 29 2026   15:02:07
Plotname: AC Analysis
Flags: complex
No. Variables: 9
No. Points: 721
Variables:
	0	frequency	frequency grid=3
	1	v(vin)	voltage
	2	v(b3_collector)	voltage
	3	v(vout_drv)	voltage
	4	v(vout_final)	voltage
	5	gain	notype
	6	gain_vv	notype
	7	gain_db	decibel
	8	phase_deg	phase
Values:
 0	1.000000000000000e-03,0.000000000000000e+00
	1.000000000000000e+00,0.000000000000000e+00
	4.861096667822254e-13,7.904423276608954e-10
	-2.483247082381766e-13,2.309243974805621e-16
	-2.483247082327354e-13,2.309302484936553e-16
	-2.483247082327354e-13,2.309302484936553e-16
	2.483248156098234e-13,0.0
	-2.520995975667101e+02,0.0
	3.140662701095067e+00,0.0

 1	1.029200527194428e-03,0.000000000000000e+00
	1.000000000000000e+00,0.000000000000000e+00
	5.454240123252301e-13,8.617279547834594e-10
	-2.786248962776218e-13,2.666673296170472e-16
	-2.786248962711549e-13,2.666740862613405e-16
	-2.786248962711549e-13,2.666740862613405e-16
	2.786250238890616e-13,0.0
	-2.510995976255136e+02,0.0
	3.140635545993161e+00,0.0

 2	1.059253725177289e-03,0.000000000000000e+00
	1.000000000000000e+00,0.000000000000000e+00
	6.119758017588389e-13,9.394424379971301e-10
	-3.126222647255946e-13,3.079426227420324e-16
	-3.126222647179088e-13,3.079504251928716e-16
	-3.126222647179088e-13,3.079504251928716e-16
	3.126224163920729e-13,0.0
	-2.500995976877991e+02,0.0
	3.140607597948073e+00,0.0

 3	1.090184492385128e-03,0.000000000000000e+00
	1.000000000000000e+00,0.000000000000000e+00
	6.866481366349747e-13,1.024165560113937e-09
	-3.507679374998929e-13,3.556065864489097e-16
	-3.507679374907582e-13,3.556155965782477e-16
	-3.507679374907582e-13,3.556155965782477e-16
	3.507681177558374e-13,0.0
	-2.490995977537798e+02,0.0
	3.140578833805452e+00,0.0

 4	1.122018454301964e-03,0.000000000000000e+00
	1.000000000000000e+00,0.000000000000000e+00
	7.704318731625245e-13,1.116529391318429e-09
	-3.935680839016880e-13,4.106480715810647e-16
	-3.935680838908315e-13,4.106584763157034e-16
	-3.935680838908315e-13,4.106584763157034e-16
	3.935682981362761e-13,0.0
	-2.480995978236640e+02,0.0
	3.140549229734832e+00,0.0

 5	1.154781984689459e-03,0.000000000000000e+00
	1.000000000000000e+00,0.000000000000000e+00
	8.644387702547250e-13,1.217223004666012e-09
	-4.415906351552141e-13,4.742089852169124e-16
	-4.415906351423111e-13,4.742210004165388e-16
	-4.415906351423111e-13,4.742210004165388e-16
	4.415908897734950e-13,0.0
	-2.470995978976927e+02,0.0
	3.140518761209883e+00,0.0

 6	1.188502227437019e-03,0.000000000000000e+00
	1.000000000000000e+00,0.000000000000000e+00
	9.699162418865903e-13,1.326997616853322e-09
	-4.954728204900059e-13,5.476079810059355e-16
	-4.954728204746707e-13,5.476218559414072e-16
	-4.954728204746707e-13,5.476218559414072e-16
	4.954731231043945e-13,0.0
	-2.460995979761082e+02,0.0
	3.140487402988097e+00,0.0

 7	1.223207119049932e-03,0.000000000000000e+00
	1.000000000000000e+00,0.000000000000000e+00
	1.088263909506009e-12,1.446672192599208e-09
	-5.559296227596674e-13,6.323678163365531e-16
	-5.559296227414414e-13,6.323838388613413e-16
	-5.559296227414414e-13,6.323838388613413e-16
	5.559299824175352e-13,0.0
	-2.450995980591693e+02,0.0
	3.140455129089871e+00,0.0

 8	1.258925411794168e-03,0.000000000000000e+00
	1.000000000000000e+00,0.000000000000000e+00
	1.221052174145331e-12,1.577139554454867e-09
	-6.237632657999653e-13,7.302469438981979e-16
	-6.237632657783037e-13,7.302654464202760e-16
	-6.237632657783037e-13,7.302654464202760e-16
	6.237636932541337e-13,0.0
	-2.440995981471488e+02,0.0
	3.140421912776984e+00,0.0

 9	1.295686697517020e-03,0.000000000000000e+00
	1.000000000000000e+00,0.000000000000000e+00
	1.370043054668049e-12,1.719373043619459e-09
	-6.998738594149939e-13,8.432759930418521e-16
	-6.998738593892489e-13,8.432973594199220e-16
	-6.998738593892489e-13,8.432973594199220e-16
	6.998743674452142e-13,0.0
	-2.430995982403461e+02,0.0
	3.140387726530448e+00,0.0

 10	1.333521432163325e-03,0.000000000000000e+00
	1.000000000000000e+00,0.000000000000000e+00
	1.537213568671350e-12,1.874433781462887e-09
	-7.852713432465869e-13,9.737998977965693e-16
	-7.852713432159890e-13,9.738245713037008e-16
	-7.852713432159890e-13,9.738245713037008e-16
	7.852719470416215e-13,0.0
	-2.420995983390635e+02,0.0
	3.140352542027708e+00,0.0

 11	1.372460961007563e-03,0.000000000000000e+00
	1.000000000000000e+00,0.000000000000000e+00
	1.724781966278616e-12,2.043478585913826e-09
	-8.810888880073959e-13,1.124526545532113e-15
	-8.810888879710303e-13,1.124555038052007e-15
	-8.810888879710303e-13,1.124555038052007e-15
	8.810896056191222e-13,0.0
	-2.410995984436307e+02,0.0
	3.140316330119175e+00,0.0

 12	1.412537544622755e-03,0.000000000000000e+00
	1.000000000000000e+00,0.000000000000000e+00
	1.935237164940152e-12,2.227768601785907e-09
	-9.885979319078853e-13,1.298582955552669e-15
	-9.885979318646647e-13,1.298615858199333e-15
	-9.885979318646647e-13,1.298615858199333e-15
	9.885987847909988e-13,0.0
	-2.400995985543992e+02,0.0
	3.140279060804081e+00,0.0

 13	1.453784385607663e-03,0.000000000000000e+00
	1.000000000000000e+00,0.000000000000000e+00
	2.171371775824746e-12,2.428678709426294e-09
	-1.109225051799535e-12,1.499580153118149e-15
	-1.109225051748167e-12,1.499618148499309e-15
	-1.109225051748167e-12,1.499618148499309e-15
	1.109226065452988e-12,0.0
	-2.390995986717249e+02,0.0
	3.140240703205619e+00,0.0

 14	1.496235656094435e-03,0.000000000000000e+00
	1.000000000000000e+00,0.000000000000000e+00
	2.436319160021965e-12,2.647707781862501e-09
	-1.244570892894856e-12,1.731688084774331e-15
	-1.244570892833805e-12,1.731731961152992e-15
	-1.244570892833805e-12,1.731731961152992e-15
	1.244572097624208e-12,0.0
	-2.380995987959989e+02,0.0
	3.140201225545366e+00,0.0

 15	1.539926526059493e-03,0.000000000000000e+00
	1.000000000000000e+00,0.000000000000000e+00
	2.733595006287625e-12,2.886489866987844e-09
	-1.396431408255447e-12,1.999722129215985e-15
	-1.396431408182887e-12,1.999772796863943e-15
	-1.396431408182887e-12,1.999772796863943e-15
	1.396432840078921e-12,0.0
	-2.370995989276448e+02,0.0
	3.140160595116956e+00,0.0

 16	1.584893192461115e-03,0.000000000000000e+00
	1.000000000000000e+00,0.000000000000000e+00
	3.067143982047476e-12,3.146806378212106e-09
	-1.566821689882547e-12,2.309242998463174e-15
	-1.566821689796311e-12,2.309301508545748e-15
	-1.566821689796311e-12,2.309301508545748e-15
	1.566823391607881e-12,0.0
	-2.360995990670891e+02,0.0
	3.140118778258980e+00,0.0

 17	1.631172909227840e-03,0.000000000000000e+00
	1.000000000000000e+00,0.000000000000000e+00
	3.441392076655960e-12,3.430599384495833e-09
	-1.758002707617495e-12,2.666672101903672e-15
	-1.758002707515003e-12,2.666739668287453e-15
	-1.758002707515003e-12,2.666739668287453e-15
	1.758004730121776e-12,0.0
	-2.350995992147896e+02,0.0
	3.140075740327103e+00,0.0

 18	1.678804018122562e-03,0.000000000000000e+00
	1.000000000000000e+00,0.000000000000000e+00
	3.861305331490688e-12,3.739986098935241e-09
	-1.972511310664829e-12,3.079424766582984e-15
	-1.972511310543017e-12,3.079502791019021e-15
	-1.972511310543017e-12,3.079502791019021e-15
	1.972513714415585e-12,0.0
	-2.340995993712499e+02,0.0
	3.140031445665359e+00,0.0

 19	1.727825980507865e-03,0.000000000000000e+00
	1.000000000000000e+00,0.000000000000000e+00
	4.332455736221617e-12,4.077274674008245e-09
	-2.213193889846582e-12,3.556064077583464e-15
	-2.213193889701808e-12,3.556154178788340e-15
	-2.213193889701808e-12,3.556154178788340e-15
	2.213196746709601e-12,0.0
	-2.330995995369790e+02,0.0
	3.139985857576612e+00,0.0

 20	1.778279410038925e-03,0.000000000000000e+00
	1.000000000000000e+00,0.000000000000000e+00
	4.861095165593034e-12,4.444981421269588e-09
	-2.483244147234063e-12,4.106478530055622e-15
	-2.483244147061999e-12,4.106582577293750e-15
	-2.483244147061999e-12,4.106582577293750e-15
	2.483247542621987e-12,0.0
	-2.320995997125237e+02,0.0
	3.139938938292155e+00,0.0

 21	1.830206106311058e-03,0.000000000000000e+00
	1.000000000000000e+00,0.000000000000000e+00
	5.454238337848908e-12,4.845849583992883e-09
	-2.786245474346623e-12,4.742087178537512e-15
	-2.786245474142124e-12,4.742207330401352e-15
	-2.786245474142124e-12,4.742207330401352e-15
	2.786249509772560e-12,0.0
	-2.310995998984752e+02,0.0
	3.139890648940417e+00,0.0

 22	1.883649089489803e-03,0.000000000000000e+00
	1.000000000000000e+00,0.000000000000000e+00
	6.119755895632377e-12,5.282869802822192e-09
	-3.126218501249661e-12,5.476076539655673e-15
	-3.126218501006613e-12,5.476215288848406e-15
	-3.126218501006613e-12,5.476215288848406e-15
	3.126223297362158e-12,0.0
	-2.300996000954426e+02,0.0
	3.139840949514762e+00,0.0

 23	1.938652635952210e-03,0.000000000000000e+00
	1.000000000000000e+00,0.000000000000000e+00
	6.866478844398819e-12,5.759302427060950e-09
	-3.507674447460942e-12,6.323674162981119e-15
	-3.507674447172079e-12,6.323834388030864e-15
	-3.507674447172079e-12,6.323834388030864e-15
	3.507680147651054e-12,0.0
	-2.290996003040865e+02,0.0
	3.139789798840344e+00,0.0

 24	1.995262314968882e-03,0.000000000000000e+00
	1.000000000000000e+00,0.000000000000000e+00
	7.704315734280277e-12,6.278701838118083e-09
	-3.935674982626963e-12,7.302464545682289e-15
	-3.935674982283650e-12,7.302649570660706e-15
	-3.935674982283650e-12,7.302649570660706e-15
	3.935681757315264e-12,0.0
	-2.280996005250867e+02,0.0
	3.139737154539993e+00,0.0

 25	2.053525026457149e-03,0.000000000000000e+00
	1.000000000000000e+00,0.000000000000000e+00
	8.644384140196901e-12,6.844942966484818e-09
	-4.415899391220223e-12,8.432753944901301e-15
	-4.415899390812194e-12,8.432967608385540e-15
	-4.415899390812194e-12,8.432967608385540e-15
	4.415907442951922e-12,0.0
	-2.270996007591845e+02,0.0
	3.139682972999110e+00,0.0

 26	2.113489039836650e-03,0.000000000000000e+00
	1.000000000000000e+00,0.000000000000000e+00
	9.699158185006125e-12,7.462250200161009e-09
	-4.954719932531431e-12,9.737991656438812e-15
	-4.954719932046488e-12,9.738238391147497e-15
	-4.954719932046488e-12,9.738238391147497e-15
	4.954729502031944e-12,0.0
	-2.260996010071526e+02,0.0
	3.139627209329534e+00,0.0

 27	2.175204034019526e-03,0.000000000000000e+00
	1.000000000000000e+00,0.000000000000000e+00
	1.088263406310978e-11,8.135228900115258e-09
	-5.559286395869221e-12,1.124525649957817e-14
	-5.559286395292865e-12,1.124554142433353e-14
	-5.559286395292865e-12,1.124554142433353e-14
	5.559297769241208e-12,0.0
	-2.250996012698137e+02,0.0
	3.139569817332350e+00,0.0

 28	2.238721138568343e-03,0.000000000000000e+00
	1.000000000000000e+00,0.000000000000000e+00
	1.221051576096600e-11,8.868899757939372e-09
	-6.237620972969367e-12,1.298581860081033e-14
	-6.237620972284366e-12,1.298614762673439e-14
	-6.237620972284366e-12,1.298614762673439e-14
	6.237634490246438e-12,0.0
	-2.240996015480373e+02,0.0
	3.139510749459618e+00,0.0

 29	2.304092976055850e-03,0.000000000000000e+00
	1.000000000000000e+00,0.000000000000000e+00
	1.370042343886211e-11,9.668736251990014e-09
	-6.998724706468010e-12,1.499578813129376e-14
	-6.998724705653884e-12,1.499616808444167e-14
	-6.998724705653884e-12,1.499616808444167e-14
	6.998740771780825e-12,0.0
	-2.230996018427481e+02,0.0
	3.139449956774981e+00,0.0

 30	2.371373705661660e-03,0.000000000000000e+00
	1.000000000000000e+00,0.000000000000000e+00
	1.537212723905175e-11,1.054070548146625e-08
	-7.852696926924446e-12,1.731686445689170e-14
	-7.852696925956855e-12,1.731730321986648e-14
	-7.852696925956855e-12,1.731730321986648e-14
	7.852716020583136e-12,0.0
	-2.220996021549233e+02,0.0
	3.139387388913125e+00,0.0

 31	2.440619068041985e-03,0.000000000000000e+00
	1.000000000000000e+00,0.000000000000000e+00
	1.724780962272526e-11,1.149131268304678e-08
	-8.810869263204530e-12,1.999720124276867e-14
	-8.810869262054547e-12,1.999770791825521e-14
	-8.810869262054547e-12,1.999770791825521e-14
	8.810891956058685e-12,0.0
	-2.210996024855927e+02,0.0
	3.139322994038046e+00,0.0

 32	2.511886431509585e-03,0.000000000000000e+00
	1.000000000000000e+00,0.000000000000000e+00
	1.935235971677771e-11,1.252764976216156e-08
	-9.885956004392162e-12,2.309240546007548e-14
	-9.885956003025404e-12,2.309299055968652e-14
	-9.885956003025404e-12,2.309299055968652e-14
	9.885982974897692e-12,0.0
	-2.200996028358588e+02,0.0
	3.139256718800118e+00,0.0

 33	2.585234839562196e-03,0.000000000000000e+00
	1.000000000000000e+00,0.000000000000000e+00
	2.171370357629155e-11,1.365744820102509e-08
	-1.109222280843877e-11,2.666669102040630e-14
	-1.109222280681437e-11,2.666736668275829e-14
	-1.109222280681437e-11,2.666736668275829e-14
	1.109225486294192e-11,0.0
	-2.190996032068786e+02,0.0
	3.139188508291884e+00,0.0

 34	2.660725059798815e-03,0.000000000000000e+00
	1.000000000000000e+00,0.000000000000000e+00
	2.436317474492120e-11,1.488913673804427e-08
	-1.244567599607650e-11,3.079421097131110e-14
	-1.244567599414591e-11,3.079499121385400e-14
	-1.244567599414591e-11,3.079499121385400e-14
	1.244571409292145e-11,0.0
	-2.180996035998813e+02,0.0
	3.139118306002572e+00,0.0

 35	2.738419634264367e-03,0.000000000000000e+00
	1.000000000000000e+00,0.000000000000000e+00
	2.733593003032403e-11,1.623190424895146e-08
	-1.396427494176953e-11,3.556059589083837e-14
	-1.396427493947502e-11,3.556149690066399e-14
	-1.396427493947502e-11,3.556149690066399e-14
	1.396432021995026e-11,0.0
	-2.170996040161734e+02,0.0
	3.139046053771282e+00,0.0

 36	2.818382931264460e-03,0.000000000000000e+00
	1.000000000000000e+00,0.000000000000000e+00
	3.067141601176615e-11,1.769576829879037e-08
	-1.566817037993041e-11,4.106473039691521e-14
	-1.566817037720337e-11,4.106577086657714e-14
	-1.566817037720337e-11,4.106577086657714e-14
	1.566822419314359e-11,0.0
	-2.160996044571266e+02,0.0
	3.138971691738796e+00,0.0

 37	2.900681198693160e-03,0.000000000000000e+00
	1.000000000000000e+00,0.000000000000000e+00
	3.441389246983318e-11,1.929164987604051e-08
	-1.757997178836129e-11,4.742080462686946e-14
	-1.757997178512021e-11,4.742200614218152e-14
	-1.757997178512021e-11,4.742200614218152e-14
	1.758003574547814e-11,0.0
	-2.150996049242118e+02,0.0
	3.138895158297992e+00,0.0

 38	2.985382618917966e-03,0.000000000000000e+00
	1.000000000000000e+00,0.000000000000000e+00
	3.861301968418418e-11,2.103145486659439e-08
	-1.972504739696643e-11,5.476068324777232e-14
	-1.972504739311439e-11,5.476207073563087e-14
	-1.972504739311439e-11,5.476207073563087e-14
	1.972512341013359e-11,0.0
	-2.140996054189768e+02,0.0
	3.138816390042805e+00,0.0

 39	3.072557365267454e-03,0.000000000000000e+00
	1.000000000000000e+00,0.000000000000000e+00
	4.332451739204823e-11,2.292816287524177e-08
	-2.213186080237994e-11,6.323664114489758e-14
	-2.213186079780178e-11,6.323824339041805e-14
	-2.213186079780178e-11,6.323824339041805e-14
	2.213195114418750e-11,0.0
	-2.130996059430536e+02,0.0
	3.138735321715693e+00,0.0

 40	3.162277660168387e-03,0.000000000000000e+00
	1.000000000000000e+00,0.000000000000000e+00
	4.861090415127385e-11,2.499592405726243e-08
	-2.483234865497293e-11,7.302452254296051e-14
	-2.483234864953178e-11,7.302637278665680e-14
	-2.483234864953178e-11,7.302637278665680e-14
	2.483245602639870e-11,0.0
	-2.120996064981852e+02,0.0
	3.138651886153586e+00,0.0

 41	3.254617834980467e-03,0.000000000000000e+00
	1.000000000000000e+00,0.000000000000000e+00
	5.454232691907905e-11,2.725016468264297e-08
	-2.786234442982433e-11,8.432738909986972e-14
	-2.786234442335751e-11,8.432952572726540e-14
	-2.786234442335751e-11,8.432952572726540e-14
	2.786247204098572e-11,0.0
	-2.110996070862156e+02,0.0
	3.138566014232234e+00,0.0

 42	3.349654391578285e-03,0.000000000000000e+00
	1.000000000000000e+00,0.000000000000000e+00
	6.119749185419294e-11,2.970770222035174e-08
	-3.126205390450974e-11,9.737973265628013e-14
	-3.126205389682391e-11,9.738219999425807e-14
	-3.126205389682391e-11,9.738219999425807e-14
	3.126220557063750e-11,0.0
	-2.100996077090830e+02,0.0
	3.138477634808946e+00,0.0

 43	3.447466065731503e-03,0.000000000000000e+00
	1.000000000000000e+00,0.000000000000000e+00
	6.866470869303627e-11,3.238687080105600e-08
	-3.507658865253209e-11,1.124523400381466e-13
	-3.507658864339746e-11,1.124551892745581e-13
	-3.507658864339746e-11,1.124551892745581e-13
	3.507676890803534e-11,0.0
	-2.090996083688558e+02,0.0
	3.138386674663655e+00,0.0

 44	3.548133892335764e-03,0.000000000000000e+00
	1.000000000000000e+00,0.000000000000000e+00
	7.704306255854645e-11,3.530765799446936e-08
	-3.935656463138458e-11,1.298579108382507e-13
	-3.935656462052806e-11,1.298612010838622e-13
	-3.935656462052806e-11,1.298612010838622e-13
	3.935677886541718e-11,0.0
	-2.080996090677307e+02,0.0
	3.138293058438257e+00,0.0

 45	3.651741272548387e-03,0.000000000000000e+00
	1.000000000000000e+00,0.000000000000000e+00
	8.644372875075045e-11,3.849185392170350e-08
	-4.415877380774278e-11,1.499575447233769e-13
	-4.415877379483979e-11,1.499613442381849e-13
	-4.415877379483979e-11,1.499613442381849e-13
	4.415902842532424e-11,0.0
	-2.070996098080057e+02,0.0
	3.138196708574179e+00,0.0

 46	3.758374042884452e-03,0.000000000000000e+00
	1.000000000000000e+00,0.000000000000000e+00
	9.699144796382427e-11,4.196321381446719e-08
	-4.954693773071553e-11,1.731682328502416e-13
	-4.954693771538030e-11,1.731726204595972e-13
	-4.954693771538030e-11,1.731726204595972e-13
	4.954724034422352e-11,0.0
	-2.060996105921521e+02,0.0
	3.138097545248134e+00,0.0

 47	3.868120546330533e-03,0.000000000000000e+00
	1.000000000000000e+00,0.000000000000000e+00
	1.088261815070071e-10,4.574763523470079e-08
	-5.559255305299283e-11,1.999715088105099e-13
	-5.559255303476688e-11,1.999765755404314e-13
	-5.559255303476688e-11,1.999765755404314e-13
	5.559291270975225e-11,0.0
	-2.050996114227604e+02,0.0
	3.137995486305988e+00,0.0

 48	3.981071705534985e-03,0.000000000000000e+00
	1.000000000000000e+00,0.000000000000000e+00
	1.221049684903149e-10,4.987335127575563e-08
	-6.237584021765014e-11,2.309234385727998e-13
	-6.237584019598857e-11,2.309292895383987e-13
	-6.237584019598857e-11,2.309292895383987e-13
	6.237626767042311e-11,0.0
	-2.040996123025854e+02,0.0
	3.137890447194700e+00,0.0

 49	4.097321098135428e-03,0.000000000000000e+00
	1.000000000000000e+00,0.000000000000000e+00
	1.370040096198838e-10,5.437114118698795e-08
	-6.998680789890232e-11,2.666661566744862e-13
	-6.998680787315750e-11,2.666729132606841e-13
	-6.998680787315750e-11,2.666729132606841e-13
	6.998731592736593e-11,0.0
	-2.030996132345427e+02,0.0
	3.137782340892282e+00,0.0

 50	4.216965034285836e-03,0.000000000000000e+00
	1.000000000000000e+00,0.000000000000000e+00
	1.537210052524784e-10,5.927455999270702e-08
	-7.852644731990853e-11,3.079411879906106e-13
	-7.852644728931075e-11,3.079489903703872e-13
	-7.852644728931075e-11,3.079489903703872e-13
	7.852705111273165e-11,0.0
	-2.020996142217200e+02,0.0
	3.137671077835703e+00,0.0

 51	4.340102636447452e-03,0.000000000000000e+00
	1.000000000000000e+00,0.000000000000000e+00
	1.724777787331059e-10,6.462018881841651e-08
	-8.810807229425454e-11,3.556048314512382e-13
	-8.810807225788903e-11,3.556138414936519e-13
	-8.810807225788903e-11,3.556138414936519e-13
	8.810878990319670e-11,0.0
	-2.010996152673930e+02,0.0
	3.137556565846697e+00,0.0

 52	4.466835921509646e-03,0.000000000000000e+00
	1.000000000000000e+00,0.000000000000000e+00
	1.935232198253127e-10,7.044790779182520e-08
	-9.885882277128693e-11,4.106459248555734e-13
	-9.885882272806646e-11,4.106563294838858e-13
	-9.885882272806646e-11,4.106563294838858e-13
	9.885967565089526e-11,0.0
	-2.000996163750281e+02,0.0
	3.137438710055399e+00,0.0

 53	4.597269885308737e-03,0.000000000000000e+00
	1.000000000000000e+00,0.000000000000000e+00
	2.171365872906847e-10,7.680119355427766e-08
	-1.109213518345129e-10,4.742063593276690e-13
	-1.109213517831453e-10,4.742183743972362e-13
	-1.109213517831453e-10,4.742183743972362e-13
	1.109223654835529e-10,0.0
	-1.990996175482917e+02,0.0
	3.137317412821755e+00,0.0

 54	4.731512589614821e-03,0.000000000000000e+00
	1.000000000000000e+00,0.000000000000000e+00
	2.436312144389154e-10,8.372744360178270e-08
