Title: * sky130 bjt 3-stage load-buffer/filter fallback ac: ideal opamp follower plus two rc poles, r=10k, c=220p
Date: Fri May 22 23:02:42  2026
Command: ngspice-46, Build Mar 29 2026   15:02:07
Plotname: AC Analysis
Flags: complex
No. Variables: 10
No. Points: 721
Variables:
	0	frequency	frequency grid=3
	1	v(vin)	voltage
	2	v(b3_collector)	voltage
	3	v(vout_drv)	voltage
	4	v(vfilt1)	voltage
	5	v(vout_final)	voltage
	6	gain	notype
	7	gain_vv	notype
	8	gain_db	decibel
	9	phase_deg	phase
Values:
 0	1.000000000000000e-03,0.000000000000000e+00
	1.000000000000000e+00,0.000000000000000e+00
	4.861096667836867e-13,7.904423276608954e-10
	-2.483247084808211e-13,2.307293637874788e-16
	-2.483247084742972e-13,2.307363850031973e-16
	-2.483247084709627e-13,2.307399736245646e-16
	-2.483247084709627e-13,2.307399736245646e-16
	2.483248156711770e-13,0.0
	-2.520995975645641e+02,0.0
	3.140663467329436e+00,0.0

 1	1.029200527194428e-03,0.000000000000000e+00
	1.000000000000000e+00,0.000000000000000e+00
	5.454240123269667e-13,8.617279547834594e-10
	-2.786248965660048e-13,2.664421082344090e-16
	-2.786248965582511e-13,2.664502162075693e-16
	-2.786248965542881e-13,2.664543602827401e-16
	-2.786248965542881e-13,2.664543602827401e-16
	2.786250239619798e-13,0.0
	-2.510995976232405e+02,0.0
	3.140636334601973e+00,0.0

 2	1.059253725177289e-03,0.000000000000000e+00
	1.000000000000000e+00,0.000000000000000e+00
	6.119758017609028e-13,9.394424379971301e-10
	-3.126222650683385e-13,3.076825411621372e-16
	-3.126222650591232e-13,3.076919041031544e-16
	-3.126222650544131e-13,3.076966896063409e-16
	-3.126222650544131e-13,3.076966896063409e-16
	3.126224164787364e-13,0.0
	-2.500995976853913e+02,0.0
	3.140608409584672e+00,0.0

 3	1.090184492385128e-03,0.000000000000000e+00
	1.000000000000000e+00,0.000000000000000e+00
	6.866481366374278e-13,1.024165560113937e-09
	-3.507679379072445e-13,3.553062489446639e-16
	-3.507679378962921e-13,3.553170610998820e-16
	-3.507679378906941e-13,3.553225873125489e-16
	-3.507679378906941e-13,3.553225873125489e-16
	3.507681178588369e-13,0.0
	-2.490995977512293e+02,0.0
	3.140579669142262e+00,0.0

 4	1.122018454301964e-03,0.000000000000000e+00
	1.000000000000000e+00,0.000000000000000e+00
	7.704318731654401e-13,1.116529391318429e-09
	-3.935680843858249e-13,4.103012472647885e-16
	-3.935680843728080e-13,4.103137329463702e-16
	-3.935680843661548e-13,4.103201145169563e-16
	-3.935680843661548e-13,4.103201145169563e-16
	3.935682982586899e-13,0.0
	-2.480995978209623e+02,0.0
	3.140550089463911e+00,0.0

 5	1.154781984689459e-03,0.000000000000000e+00
	1.000000000000000e+00,0.000000000000000e+00
	8.644387702581902e-13,1.217223004666012e-09
	-4.415906357306117e-13,4.738084787727037e-16
	-4.415906357151409e-13,4.738228970122738e-16
	-4.415906357072335e-13,4.738302663347207e-16
	-4.415906357072335e-13,4.738302663347207e-16
	4.415908899189837e-13,0.0
	-2.470995978948310e+02,0.0
	3.140519646043498e+00,0.0

 6	1.188502227437019e-03,0.000000000000000e+00
	1.000000000000000e+00,0.000000000000000e+00
	9.699162418907086e-13,1.326997616853322e-09
	-4.954728211738701e-13,5.471454834137623e-16
	-4.954728211554831e-13,5.471621333363509e-16
	-4.954728211460853e-13,5.471706432967852e-16
	-4.954728211460853e-13,5.471706432967852e-16
	4.954731232773110e-13,0.0
	-2.460995979730769e+02,0.0
	3.140488313659312e+00,0.0

 7	1.223207119049932e-03,0.000000000000000e+00
	1.000000000000000e+00,0.000000000000000e+00
	1.088263909510903e-12,1.446672192599208e-09
	-5.559296235724390e-13,6.318337324911590e-16
	-5.559296235505860e-13,6.318529595209326e-16
	-5.559296235394166e-13,6.318627866694835e-16
	-5.559296235394166e-13,6.318627866694835e-16
	5.559299826230445e-13,0.0
	-2.450995980559584e+02,0.0
	3.140456066353157e+00,0.0

 8	1.258925411794168e-03,0.000000000000000e+00
	1.000000000000000e+00,0.000000000000000e+00
	1.221052174151149e-12,1.577139554454867e-09
	-6.237632667659443e-13,7.296301935466115e-16
	-6.237632667399720e-13,7.296523965731391e-16
	-6.237632667266973e-13,7.296637447866975e-16
	-6.237632667266973e-13,7.296637447866975e-16
	6.237636934983803e-13,0.0
	-2.440995981437476e+02,0.0
	3.140422877408843e+00,0.0

 9	1.295686697517020e-03,0.000000000000000e+00
	1.000000000000000e+00,0.000000000000000e+00
	1.370043054674963e-12,1.719373043619459e-09
	-6.998738605630676e-13,8.425637809096596e-16
	-6.998738605321994e-13,8.425894205633852e-16
	-6.998738605164221e-13,8.426025252752892e-16
	-6.998738605164221e-13,8.426025252752892e-16
	6.998743677355072e-13,0.0
	-2.430995982367434e+02,0.0
	3.140388719330057e+00,0.0

 10	1.333521432163325e-03,0.000000000000000e+00
	1.000000000000000e+00,0.000000000000000e+00
	1.537213568679567e-12,1.874433781462887e-09
	-7.852713446110721e-13,9.729774481339254e-16
	-7.852713445743853e-13,9.730070563425343e-16
	-7.852713445556339e-13,9.730221894269341e-16
	-7.852713445556339e-13,9.730221894269341e-16
	7.852719473866326e-13,0.0
	-2.420995983352474e+02,0.0
	3.140353563817578e+00,0.0

 11	1.372460961007563e-03,0.000000000000000e+00
	1.000000000000000e+00,0.000000000000000e+00
	1.724781966288382e-12,2.043478585913826e-09
	-8.810888896290887e-13,1.123576795572432e-15
	-8.810888895854863e-13,1.123610986596367e-15
	-8.810888895632004e-13,1.123628462008600e-15
	-8.810888895632004e-13,1.123628462008600e-15
	8.810896060291678e-13,0.0
	-2.410995984395884e+02,0.0
	3.140317381745837e+00,0.0

 12	1.412537544622755e-03,0.000000000000000e+00
	1.000000000000000e+00,0.000000000000000e+00
	1.935237164951759e-12,2.227768601785907e-09
	-9.885979338352719e-13,1.297486201524324e-15
	-9.885979337834501e-13,1.297525684700397e-15
	-9.885979337569634e-13,1.297545864990389e-15
	-9.885979337569634e-13,1.297545864990389e-15
	9.885987852783398e-13,0.0
	-2.400995985501174e+02,0.0
	3.140280143138783e+00,0.0

 13	1.453784385607663e-03,0.000000000000000e+00
	1.000000000000000e+00,0.000000000000000e+00
	2.171371775838541e-12,2.428678709426294e-09
	-1.109225054090242e-12,1.498313641465318e-15
	-1.109225054028652e-12,1.498359235922804e-15
	-1.109225053997173e-12,1.498382539756629e-15
	-1.109225053997173e-12,1.498382539756629e-15
	1.109226066032198e-12,0.0
	-2.390995986671894e+02,0.0
	3.140241817145051e+00,0.0

 14	1.496235656094435e-03,0.000000000000000e+00
	1.000000000000000e+00,0.000000000000000e+00
	2.436319160038360e-12,2.647707781862501e-09
	-1.244570895617369e-12,1.730225540106390e-15
	-1.244570895544170e-12,1.730278191760899e-15
	-1.244570895506756e-12,1.730305102606536e-15
	-1.244570895506756e-12,1.730305102606536e-15
	1.244572098312603e-12,0.0
	-2.380995987911946e+02,0.0
	3.140202372012402e+00,0.0

 15	1.539926526059493e-03,0.000000000000000e+00
	1.000000000000000e+00,0.000000000000000e+00
	2.733595006307110e-12,2.886489866987844e-09
	-1.396431411491150e-12,1.998033209192192e-15
	-1.396431411404151e-12,1.998094010369880e-15
	-1.396431411359685e-12,1.998125086527365e-15
	-1.396431411359685e-12,1.998125086527365e-15
	1.396432840897070e-12,0.0
	-2.370995989225558e+02,0.0
	3.140161775061417e+00,0.0

 16	1.584893192461115e-03,0.000000000000000e+00
	1.000000000000000e+00,0.000000000000000e+00
	3.067143982070635e-12,3.146806378212105e-09
	-1.566821693728191e-12,2.307292664303690e-15
	-1.566821693624792e-12,2.307362876402949e-15
	-1.566821693571944e-12,2.307398762587014e-15
	-1.566821693571944e-12,2.307398762587014e-15
	1.566823392580256e-12,0.0
	-2.360995990616986e+02,0.0
	3.140119992658424e+00,0.0

 17	1.631172909227840e-03,0.000000000000000e+00
	1.000000000000000e+00,0.000000000000000e+00
	3.441392076683484e-12,3.430599384495833e-09
	-1.758002712188057e-12,2.664419891467244e-15
	-1.758002712065168e-12,2.664500971127990e-15
	-1.758002712002358e-12,2.664542411843482e-15
	-1.758002712002358e-12,2.664542411843482e-15
	1.758004731277454e-12,0.0
	-2.350995992090797e+02,0.0
	3.140076990187632e+00,0.0

 18	1.678804018122562e-03,0.000000000000000e+00
	1.000000000000000e+00,0.000000000000000e+00
	3.861305331523399e-12,3.739986098935241e-09
	-1.972511316096949e-12,3.076823954930643e-15
	-1.972511315950896e-12,3.076917584254142e-15
	-1.972511315876246e-12,3.076965439241707e-15
	-1.972511315876246e-12,3.076965439241707e-15
	1.972513715789108e-12,0.0
	-2.340995993652016e+02,0.0
	3.140032732022453e+00,0.0

 19	1.727825980507865e-03,0.000000000000000e+00
	1.000000000000000e+00,0.000000000000000e+00
	4.332455736260495e-12,4.077274674008245e-09
	-2.213193896302655e-12,3.553060707613140e-15
	-2.213193896129070e-12,3.553168829059303e-15
	-2.213193896040348e-12,3.553224091131785e-15
	-2.213193896040348e-12,3.553224091131785e-15
	2.213196748342022e-12,0.0
	-2.330995995305724e+02,0.0
	3.139987181495989e+00,0.0

 20	1.778279410038925e-03,0.000000000000000e+00
	1.000000000000000e+00,0.000000000000000e+00
	4.861095165639240e-12,4.444981421269587e-09
	-2.483244154907137e-12,4.103010293097192e-15
	-2.483244154700830e-12,4.103135149783326e-15
	-2.483244154595384e-12,4.103198965422905e-15
	-2.483244154595384e-12,4.103198965422905e-15
	2.483247544562139e-12,0.0
	-2.320995997057375e+02,0.0
	3.139940300870650e+00,0.0

 21	1.830206106311058e-03,0.000000000000000e+00
	1.000000000000000e+00,0.000000000000000e+00
	5.454238337903826e-12,4.845849583992883e-09
	-2.786245483466067e-12,4.738082121684561e-15
	-2.786245483220871e-12,4.738226303921635e-15
	-2.786245483095549e-12,4.738299997065026e-15
	-2.786245483095549e-12,4.738299997065026e-15
	2.786249512078416e-12,0.0
	-2.310995998912869e+02,0.0
	3.139892051306895e+00,0.0

 22	1.883649089489803e-03,0.000000000000000e+00
	1.000000000000000e+00,0.000000000000000e+00
	6.119755895697646e-12,5.282869802822192e-09
	-3.126218512088162e-12,5.471451573017039e-15
	-3.126218511796747e-12,5.471618072048889e-15
	-3.126218511647801e-12,5.471703171554056e-15
	-3.126218511647801e-12,5.471703171554056e-15
	3.126223300102696e-12,0.0
	-2.300996000878283e+02,0.0
	3.139842392831051e+00,0.0

 23	1.938652635952210e-03,0.000000000000000e+00
	1.000000000000000e+00,0.000000000000000e+00
	6.866478844476389e-12,5.759302427060950e-09
	-3.507674460342496e-12,6.318333335882301e-15
	-3.507674459996149e-12,6.318525605942692e-15
	-3.507674459819125e-12,6.318623877306890e-15
	-3.507674459819125e-12,6.318623877306890e-15
	3.507680150908161e-12,0.0
	-2.290996002960210e+02,0.0
	3.139791284302197e+00,0.0

 24	1.995262314968882e-03,0.000000000000000e+00
	1.000000000000000e+00,0.000000000000000e+00
	7.704315734372473e-12,6.278701838118083e-09
	-3.935674997936730e-12,7.296297056056150e-15
	-3.935674997525095e-12,7.296519086031103e-15
	-3.935674997314703e-12,7.296632568018298e-15
	-3.935674997314703e-12,7.296632568018298e-15
	3.935681761186353e-12,0.0
	-2.280996005165433e+02,0.0
	3.139738683378079e+00,0.0

 25	2.053525026457149e-03,0.000000000000000e+00
	1.000000000000000e+00,0.000000000000000e+00
	8.644384140306477e-12,6.844942966484818e-09
	-4.415899409415941e-12,8.425631840569372e-15
	-4.415899408926712e-12,8.425888236751504e-15
	-4.415899408676661e-12,8.426019283689036e-15
	-4.415899408676661e-12,8.426019283689036e-15
	4.415907447552751e-12,0.0
	-2.270996007501349e+02,0.0
	3.139684546480037e+00,0.0

 26	2.113489039836650e-03,0.000000000000000e+00
	1.000000000000000e+00,0.000000000000000e+00
	9.699158185136356e-12,7.462250200161009e-09
	-4.954719954157041e-12,9.729767180594597e-15
	-4.954719953575593e-12,9.730063262246297e-15
	-4.954719953278405e-12,9.730214592868271e-15
	-4.954719953278405e-12,9.730214592868271e-15
	4.954729507499998e-12,0.0
	-2.260996009975668e+02,0.0
	3.139628828756891e+00,0.0

 27	2.175204034019526e-03,0.000000000000000e+00
	1.000000000000000e+00,0.000000000000000e+00
	1.088263406326456e-11,8.135228900115258e-09
	-5.559286421571315e-12,1.123575902540237e-14
	-5.559286420880261e-12,1.123610093511037e-14
	-5.559286420527054e-12,1.123627568896112e-14
	-5.559286420527054e-12,1.123627568896112e-14
	5.559297775740013e-12,0.0
	-2.250996012596599e+02,0.0
	3.139571484047794e+00,0.0

 28	2.238721138568343e-03,0.000000000000000e+00
	1.000000000000000e+00,0.000000000000000e+00
	1.221051576114995e-11,8.868899757939371e-09
	-6.237621003516354e-12,1.297485109162199e-14
	-6.237621002695035e-12,1.297524592273277e-14
	-6.237621002275248e-12,1.297544772530049e-14
	-6.237621002275248e-12,1.297544772530049e-14
	6.237634497970279e-12,0.0
	-2.240996015372819e+02,0.0
	3.139512464843981e+00,0.0

 29	2.304092976055850e-03,0.000000000000000e+00
	1.000000000000000e+00,0.000000000000000e+00
	1.370042343908073e-11,9.668736251990014e-09
	-6.998724742773198e-12,1.498312305280121e-14
	-6.998724741797060e-12,1.498357899658105e-14
	-6.998724741298140e-12,1.498381203451295e-14
	-6.998724741298140e-12,1.498381203451295e-14
	6.998740780960658e-12,0.0
	-2.230996018313553e+02,0.0
	3.139451722249418e+00,0.0

 30	2.371373705661660e-03,0.000000000000000e+00
	1.000000000000000e+00,0.000000000000000e+00
	1.537212723931159e-11,1.054070548146625e-08
	-7.852696970073221e-12,1.730223905673781e-14
	-7.852696968913081e-12,1.730276557231041e-14
	-7.852696968320115e-12,1.730303468026973e-14
	-7.852696968320115e-12,1.730303468026973e-14
	7.852716031493377e-12,0.0
	-2.220996021428554e+02,0.0
	3.139389205940286e+00,0.0

 31	2.440619068041985e-03,0.000000000000000e+00
	1.000000000000000e+00,0.000000000000000e+00
	1.724780962303408e-11,1.149131268304678e-08
	-8.810869314486961e-12,1.998031209944135e-14
	-8.810869313108132e-12,1.998092011002870e-14
	-8.810869312403390e-12,1.998123087099555e-14
	-8.810869312403390e-12,1.998123087099555e-14
	8.810891969025548e-12,0.0
	-2.210996024728098e+02,0.0
	3.139324864123294e+00,0.0

 32	2.511886431509585e-03,0.000000000000000e+00
	1.000000000000000e+00,0.000000000000000e+00
	1.935235971714474e-11,1.252764976216156e-08
	-9.885956065341461e-12,2.307290218809409e-14
	-9.885956063702721e-12,2.307360430763163e-14
	-9.885956062865133e-12,2.307396316872858e-14
	-9.885956062865133e-12,2.307396316872858e-14
	9.885982990308864e-12,0.0
	-2.200996028223184e+02,0.0
	3.139258643492771e+00,0.0

 33	2.585234839562196e-03,0.000000000000000e+00
	1.000000000000000e+00,0.000000000000000e+00
	2.171370357672777e-11,1.365744820102509e-08
	-1.109222288087705e-11,2.664416900119330e-14
	-1.109222287892940e-11,2.664497979602093e-14
	-1.109222287793393e-11,2.664539420226615e-14
	-1.109222287793393e-11,2.664539420226615e-14
	1.109225488125805e-11,0.0
	-2.190996031925360e+02,0.0
	3.139190489186499e+00,0.0

 34	2.660725059798815e-03,0.000000000000000e+00
	1.000000000000000e+00,0.000000000000000e+00
	2.436317474543965e-11,1.488913673804427e-08
	-1.244567608216948e-11,3.076820295894513e-14
	-1.244567607985469e-11,3.076913925000302e-14
	-1.244567607867157e-11,3.076961779876592e-14
	-1.244567607867157e-11,3.076961779876592e-14
	1.244571411469013e-11,0.0
	-2.180996035846889e+02,0.0
	3.139120344740272e+00,0.0

 35	2.738419634264367e-03,0.000000000000000e+00
	1.000000000000000e+00,0.000000000000000e+00
	2.733593003094021e-11,1.623190424895146e-08
	-1.396427504409127e-11,3.553056231854176e-14
	-1.396427504134014e-11,3.553164353034033e-14
	-1.396427503993400e-11,3.553219614970402e-14
	-1.396427503993400e-11,3.553219614970402e-14
	1.396432024582245e-11,0.0
	-2.170996040000807e+02,0.0
	3.139048152041106e+00,0.0

 36	2.818382931264460e-03,0.000000000000000e+00
	1.000000000000000e+00,0.000000000000000e+00
	3.067141601249848e-11,1.769576829879036e-08
	-1.566817050153993e-11,4.103004818317494e-14
	-1.566817049827021e-11,4.103129674677883e-14
	-1.566817049659900e-11,4.103193490150967e-14
	-1.566817049659900e-11,4.103193490150967e-14
	1.566822422389268e-11,0.0
	-2.160996044400804e+02,0.0
	3.138973851279105e+00,0.0

 37	2.900681198693160e-03,0.000000000000000e+00
	1.000000000000000e+00,0.000000000000000e+00
	3.441389247070356e-11,1.929164987604051e-08
	-1.757997193289452e-11,4.738075424897017e-14
	-1.757997192900845e-11,4.738219606735636e-14
	-1.757997192702222e-11,4.738293299675370e-14
	-1.757997192702222e-11,4.738293299675370e-14
	1.758003578202356e-11,0.0
	-2.150996049061555e+02,0.0
	3.138897380897908e+00,0.0

 38	2.985382618917966e-03,0.000000000000000e+00
	1.000000000000000e+00,0.000000000000000e+00
	3.861301968521862e-11,2.103145486659438e-08
	-1.972504756874439e-11,5.471443381456539e-14
	-1.972504756412579e-11,5.471609880000998e-14
	-1.972504756176515e-11,5.471694979257050e-14
	-1.972504756176515e-11,5.471694979257050e-14
	1.972512345356783e-11,0.0
	-2.140996053998507e+02,0.0
	3.138818677543691e+00,0.0

 39	3.072557365267454e-03,0.000000000000000e+00
	1.000000000000000e+00,0.000000000000000e+00
	4.332451739327768e-11,2.292816287524177e-08
	-2.213186100653852e-11,6.318323315913721e-14
	-2.213186100104929e-11,6.318515585377931e-14
	-2.213186099824367e-11,6.318613856437410e-14
	-2.213186099824367e-11,6.318613856437410e-14
	2.213195119580933e-11,0.0
	-2.130996059227941e+02,0.0
	3.138737676012683e+00,0.0

 40	3.162277660168387e-03,0.000000000000000e+00
	1.000000000000000e+00,0.000000000000000e+00
	4.861090415273504e-11,2.499592405726243e-08
	-2.483234889761569e-11,7.296284799559098e-14
	-2.483234889109173e-11,7.296506828804799e-14
	-2.483234888775725e-11,7.296620310419260e-14
	-2.483234888775725e-11,7.296620310419260e-14
	2.483245608775125e-11,0.0
	-2.120996064767253e+02,0.0
	3.138654309197148e+00,0.0

 41	3.254617834980467e-03,0.000000000000000e+00
	1.000000000000000e+00,0.000000000000000e+00
	5.454232692081566e-11,2.725016468264297e-08
	-2.786234471820571e-11,8.425616848331663e-14
	-2.786234471045198e-11,8.425873243621770e-14
	-2.786234470648894e-11,8.426004290103370e-14
	-2.786234470648894e-11,8.426004290103370e-14
	2.786247211390335e-11,0.0
	-2.110996070634842e+02,0.0
	3.138568508029792e+00,0.0

 42	3.349654391578285e-03,0.000000000000000e+00
	1.000000000000000e+00,0.000000000000000e+00
	6.119749185625693e-11,2.970770222035174e-08
	-3.126205424725172e-11,9.729748841986296e-14
	-3.126205423803640e-11,9.730044922546860e-14
	-3.126205423332631e-11,9.730196252611138e-14
	-3.126205423332631e-11,9.730196252611138e-14
	3.126220565730043e-11,0.0
	-2.100996076850046e+02,0.0
	3.138480201426540e+00,0.0

 43	3.447466065731503e-03,0.000000000000000e+00
	1.000000000000000e+00,0.000000000000000e+00
	6.866470869548929e-11,3.238687080105599e-08
	-3.507658905988148e-11,1.123573659349324e-13
	-3.507658904892905e-11,1.123607850186655e-13
	-3.507658904333109e-11,1.123625325503512e-13
	-3.507658904333109e-11,1.123625325503512e-13
	3.507676901103430e-11,0.0
	-2.090996083433507e+02,0.0
	3.138389316227654e+00,0.0

 44	3.548133892335764e-03,0.000000000000000e+00
	1.000000000000000e+00,0.000000000000000e+00
	7.704306256146190e-11,3.530765799446936e-08
	-3.935656511551996e-11,1.297482365274380e-13
	-3.935656510250296e-11,1.297521848222198e-13
	-3.935656509584978e-11,1.297542028395526e-13
	-3.935656509584978e-11,1.297542028395526e-13
	3.935677898783151e-11,0.0
	-2.080996090407143e+02,0.0
	3.138295777137118e+00,0.0

 45	3.651741272548387e-03,0.000000000000000e+00
	1.000000000000000e+00,0.000000000000000e+00
	8.644372875421544e-11,3.849185392170350e-08
	-4.415877438313859e-11,1.498308948938616e-13
	-4.415877436766787e-11,1.498354543116899e-13
	-4.415877435976055e-11,1.498377846808020e-13
	-4.415877435976055e-11,1.498377846808020e-13
	4.415902857081397e-11,0.0
	-2.070996097793885e+02,0.0
	3.138199506660264e+00,0.0

 46	3.758374042884452e-03,0.000000000000000e+00
	1.000000000000000e+00,0.000000000000000e+00
	9.699144796794242e-11,4.196321381446718e-08
	-4.954693841457456e-11,1.730219800173677e-13
	-4.954693839618759e-11,1.730272451486663e-13
	-4.954693838678972e-11,1.730299362157742e-13
	-4.954693838678972e-11,1.730299362157742e-13
	4.954724051713843e-11,0.0
	-2.060996105618392e+02,0.0
	3.138100425039571e+00,0.0

 47	3.868120546330533e-03,0.000000000000000e+00
	1.000000000000000e+00,0.000000000000000e+00
	1.088261815119016e-10,4.574763523470079e-08
	-5.559255386576081e-11,1.998026188067562e-13
	-5.559255384390786e-11,1.998086988827498e-13
	-5.559255383273848e-11,1.998118064771463e-13
	-5.559255383273848e-11,1.998118064771463e-13
	5.559291291526226e-11,0.0
	-2.050996113906513e+02,0.0
	3.137998450188595e+00,0.0

 48	3.981071705534985e-03,0.000000000000000e+00
