Title: * sky130 bjt 3-stage gain/headroom sweep operating point candidate: re=18k
Date: Fri May 22 20:42:57  2026
Command: ngspice-46, Build Mar 29 2026   15:02:07
Plotname: Operating Point
Flags: real
No. Variables: 47
No. Points: 1
Variables:
	0	v(vdd)	voltage
	1	i(@c12[i])	current
	2	i(@c23[i])	current
	3	i(@ch1[i])	current
	4	i(@ch2[i])	current
	5	i(@ch3[i])	current
	6	i(@cin[i])	current
	7	i(@cload_10p[i])	current
	8	i(@q.xq1.qsky130_fd_pr__npn_05v5_w1p00l1p00[ib])	current
	9	i(@q.xq1.qsky130_fd_pr__npn_05v5_w1p00l1p00[ic])	current
	10	i(@q.xq1.qsky130_fd_pr__npn_05v5_w1p00l1p00[ie])	current
	11	i(@q.xq1.qsky130_fd_pr__npn_05v5_w1p00l1p00[is])	current
	12	i(@q.xq2.qsky130_fd_pr__npn_05v5_w1p00l1p00[ib])	current
	13	i(@q.xq2.qsky130_fd_pr__npn_05v5_w1p00l1p00[ic])	current
	14	i(@q.xq2.qsky130_fd_pr__npn_05v5_w1p00l1p00[ie])	current
	15	i(@q.xq2.qsky130_fd_pr__npn_05v5_w1p00l1p00[is])	current
	16	i(@q.xq3.qsky130_fd_pr__npn_05v5_w1p00l1p00[ib])	current
	17	i(@q.xq3.qsky130_fd_pr__npn_05v5_w1p00l1p00[ic])	current
	18	i(@q.xq3.qsky130_fd_pr__npn_05v5_w1p00l1p00[ie])	current
	19	i(@q.xq3.qsky130_fd_pr__npn_05v5_w1p00l1p00[is])	current
	20	i(@rb1_bot[i])	current
	21	i(@rb1_top[i])	current
	22	i(@rb2_bot[i])	current
	23	i(@rb2_top[i])	current
	24	i(@rb3_bot[i])	current
	25	i(@rb3_top[i])	current
	26	i(@rc1[i])	current
	27	i(@rc2[i])	current
	28	i(@rc3[i])	current
	29	i(@re1[i])	current
	30	i(@re2[i])	current
	31	i(@re3[i])	current
	32	i(@rload_sweep[i])	current
	33	v(b1_base)	voltage
	34	v(b1_collector)	voltage
	35	v(b1_emitter)	voltage
	36	v(b2_base)	voltage
	37	v(b2_collector)	voltage
	38	v(b2_emitter)	voltage
	39	v(b3_base)	voltage
	40	v(b3_collector)	voltage
	41	v(b3_emitter)	voltage
	42	i(vdd)	current
	43	v(vin)	voltage
	44	i(vin)	current
	45	i(vout_alias)	current
	46	v(vout_final)	voltage
Values:
 0	5.000000000000000e+00
	0.000000000000000e+00
	0.000000000000000e+00
	0.000000000000000e+00
	0.000000000000000e+00
	0.000000000000000e+00
	0.000000000000000e+00
	0.000000000000000e+00
	2.618311987823361e-07
	9.870113781173464e-06
	-1.013194879237947e-05
	3.801442666578537e-12
	2.618311987824044e-07
	9.870113781175994e-06
	-1.013194879238207e-05
	3.801442666578244e-12
	2.618317007223290e-07
	9.870089019086379e-06
	-1.013192453177755e-05
	3.800987268228735e-12
	9.618505052145073e-07
	1.223681665086513e-06
	9.618505052145625e-07
	1.223681665086496e-06
	9.618501200086869e-07
	1.223681781815549e-06
	9.870116154388713e-06
	9.870116154391151e-06
	9.873906522889952e-06
	1.013194350183727e-05
	1.013194350183994e-05
	1.013191924151382e-05
	3.815131217253206e-09
	9.618505052145073e-01
	3.815586061473355e+00
	1.823749830330708e-01
	9.618505052145625e-01
	3.815586061473062e+00
	1.823749830331189e-01
	9.618501200086869e-01
	3.815131217253206e+00
	1.823745463472488e-01
	-3.328518394365836e-05
	2.500000000000000e+00
	0.000000000000000e+00
	-3.815131217257820e-09
	3.815131217253206e+00

