Title: * sky130 bjt 3-stage load-buffer/filter fallback ac: ideal opamp follower plus two rc poles, r=15k, c=150p
Date: Fri May 22 23:02:42  2026
Command: ngspice-46, Build Mar 29 2026   15:02:07
Plotname: AC Analysis
Flags: complex
No. Variables: 10
No. Points: 721
Variables:
	0	frequency	frequency grid=3
	1	v(vin)	voltage
	2	v(b3_collector)	voltage
	3	v(vout_drv)	voltage
	4	v(vfilt1)	voltage
	5	v(vout_final)	voltage
	6	gain	notype
	7	gain_vv	notype
	8	gain_db	decibel
	9	phase_deg	phase
Values:
 0	1.000000000000000e-03,0.000000000000000e+00
	1.000000000000000e+00,0.000000000000000e+00
	4.861096667836867e-13,7.904423276608954e-10
	-2.483247084808211e-13,2.307293637874788e-16
	-2.483247084740797e-13,2.307366190437213e-16
	-2.483247084706002e-13,2.307403636921045e-16
	-2.483247084706002e-13,2.307403636921045e-16
	2.483248156711770e-13,0.0
	-2.520995975645641e+02,0.0
	3.140663465758639e+00,0.0

 1	1.029200527194428e-03,0.000000000000000e+00
	1.000000000000000e+00,0.000000000000000e+00
	5.454240123269667e-13,8.617279547834594e-10
	-2.786248965660048e-13,2.664421082344090e-16
	-2.786248965579926e-13,2.664504864733413e-16
	-2.786248965538572e-13,2.664548107256934e-16
	-2.786248965538572e-13,2.664548107256934e-16
	2.786250239619797e-13,0.0
	-2.510995976232405e+02,0.0
	3.140636332985308e+00,0.0

 2	1.059253725177289e-03,0.000000000000000e+00
	1.000000000000000e+00,0.000000000000000e+00
	6.119758017609028e-13,9.394424379971301e-10
	-3.126222650683385e-13,3.076825411621372e-16
	-3.126222650588160e-13,3.076922162011883e-16
	-3.126222650539011e-13,3.076972097697307e-16
	-3.126222650539011e-13,3.076972097697307e-16
	3.126224164787363e-13,0.0
	-2.500995976853913e+02,0.0
	3.140608407920800e+00,0.0

 3	1.090184492385128e-03,0.000000000000000e+00
	1.000000000000000e+00,0.000000000000000e+00
	6.866481366374278e-13,1.024165560113937e-09
	-3.507679379072445e-13,3.553062489446639e-16
	-3.507679378959270e-13,3.553174215050559e-16
	-3.507679378900856e-13,3.553231879878388e-16
	-3.507679378900856e-13,3.553231879878388e-16
	3.507681178588369e-13,0.0
	-2.490995977512293e+02,0.0
	3.140579667429804e+00,0.0

 4	1.122018454301964e-03,0.000000000000000e+00
	1.000000000000000e+00,0.000000000000000e+00
	7.704318731654401e-13,1.116529391318429e-09
	-3.935680843858249e-13,4.103012472647885e-16
	-3.935680843723740e-13,4.103141491357562e-16
	-3.935680843654315e-13,4.103208081659330e-16
	-3.935680843654315e-13,4.103208081659330e-16
	3.935682982586898e-13,0.0
	-2.480995978209623e+02,0.0
	3.140550087701448e+00,0.0

 5	1.154781984689459e-03,0.000000000000000e+00
	1.000000000000000e+00,0.000000000000000e+00
	8.644387702581902e-13,1.217223004666012e-09
	-4.415906357306117e-13,4.738084787727037e-16
	-4.415906357146253e-13,4.738233776202594e-16
	-4.415906357063741e-13,4.738310673480301e-16
	-4.415906357063741e-13,4.738310673480301e-16
	4.415908899189837e-13,0.0
	-2.470995978948310e+02,0.0
	3.140519644229570e+00,0.0

 6	1.188502227437019e-03,0.000000000000000e+00
	1.000000000000000e+00,0.000000000000000e+00
	9.699162418907086e-13,1.326997616853322e-09
	-4.954728211738701e-13,5.471454834137623e-16
	-4.954728211548703e-13,5.471626883337706e-16
	-4.954728211450637e-13,5.471715682924843e-16
	-4.954728211450637e-13,5.471715682924843e-16
	4.954731232773110e-13,0.0
	-2.460995979730769e+02,0.0
	3.140488311792417e+00,0.0

 7	1.223207119049932e-03,0.000000000000000e+00
	1.000000000000000e+00,0.000000000000000e+00
	1.088263909510903e-12,1.446672192599208e-09
	-5.559296235724390e-13,6.318337324911590e-16
	-5.559296235498576e-13,6.318536004219253e-16
	-5.559296235382025e-13,6.318638548378045e-16
	-5.559296235382025e-13,6.318638548378045e-16
	5.559299826230446e-13,0.0
	-2.450995980559584e+02,0.0
	3.140456064431748e+00,0.0

 8	1.258925411794168e-03,0.000000000000000e+00
	1.000000000000000e+00,0.000000000000000e+00
	1.221052174151149e-12,1.577139554454867e-09
	-6.237632667659443e-13,7.296301935466115e-16
	-6.237632667391062e-13,7.296531366740233e-16
	-6.237632667252542e-13,7.296649782881711e-16
	-6.237632667252542e-13,7.296649782881711e-16
	6.237636934983803e-13,0.0
	-2.440995981437476e+02,0.0
	3.140422875431328e+00,0.0

 9	1.295686697517020e-03,0.000000000000000e+00
	1.000000000000000e+00,0.000000000000000e+00
	1.370043054674963e-12,1.719373043619459e-09
	-6.998738605630676e-13,8.425637809096596e-16
	-6.998738605311704e-13,8.425902752185095e-16
	-6.998738605147073e-13,8.426039497004963e-16
	-6.998738605147073e-13,8.426039497004963e-16
	6.998743677355072e-13,0.0
	-2.430995982367434e+02,0.0
	3.140388717294797e+00,0.0

 10	1.333521432163325e-03,0.000000000000000e+00
	1.000000000000000e+00,0.000000000000000e+00
	1.537213568679567e-12,1.874433781462887e-09
	-7.852713446110721e-13,9.729774481339254e-16
	-7.852713445731624e-13,9.730080432828212e-16
	-7.852713445535958e-13,9.730238343274125e-16
	-7.852713445535958e-13,9.730238343274125e-16
	7.852719473866327e-13,0.0
	-2.420995983352474e+02,0.0
	3.140353561722887e+00,0.0

 11	1.372460961007563e-03,0.000000000000000e+00
	1.000000000000000e+00,0.000000000000000e+00
	1.724781966288382e-12,2.043478585913826e-09
	-8.810888896290887e-13,1.123576795572432e-15
	-8.810888895840328e-13,1.123612126297165e-15
	-8.810888895607778e-13,1.123630361509929e-15
	-8.810888895607778e-13,1.123630361509929e-15
	8.810896060291676e-13,0.0
	-2.410995984395884e+02,0.0
	3.140317379589980e+00,0.0

 12	1.412537544622755e-03,0.000000000000000e+00
	1.000000000000000e+00,0.000000000000000e+00
	1.935237164951759e-12,2.227768601785907e-09
	-9.885979338352719e-13,1.297486201524324e-15
	-9.885979337817228e-13,1.297527000806266e-15
	-9.885979337540844e-13,1.297548058500171e-15
	-9.885979337540844e-13,1.297548058500171e-15
	9.885987852783398e-13,0.0
	-2.400995985501174e+02,0.0
	3.140280140919974e+00,0.0

 13	1.453784385607663e-03,0.000000000000000e+00
	1.000000000000000e+00,0.000000000000000e+00
	2.171371775838541e-12,2.428678709426294e-09
	-1.109225054090242e-12,1.498313641465318e-15
	-1.109225054026599e-12,1.498360755738053e-15
	-1.109225053993751e-12,1.498385072782045e-15
	-1.109225053993751e-12,1.498385072782045e-15
	1.109226066032198e-12,0.0
	-2.390995986671894e+02,0.0
	3.140241814861452e+00,0.0

 14	1.496235656094435e-03,0.000000000000000e+00
	1.000000000000000e+00,0.000000000000000e+00
	2.436319160038360e-12,2.647707781862501e-09
	-1.244570895617369e-12,1.730225540106390e-15
	-1.244570895541729e-12,1.730279946816048e-15
	-1.244570895502688e-12,1.730308027698452e-15
	-1.244570895502688e-12,1.730308027698452e-15
	1.244572098312603e-12,0.0
	-2.380995987911946e+02,0.0
	3.140202369662120e+00,0.0

 15	1.539926526059493e-03,0.000000000000000e+00
	1.000000000000000e+00,0.000000000000000e+00
	2.733595006307110e-12,2.886489866987844e-09
	-1.396431411491150e-12,1.998033209192192e-15
	-1.396431411401251e-12,1.998096037075803e-15
	-1.396431411354851e-12,1.998128464370570e-15
	-1.396431411354851e-12,1.998128464370570e-15
	1.396432840897070e-12,0.0
	-2.370995989225558e+02,0.0
	3.140161772642506e+00,0.0

 16	1.584893192461115e-03,0.000000000000000e+00
	1.000000000000000e+00,0.000000000000000e+00
	3.067143982070635e-12,3.146806378212105e-09
	-1.566821693728191e-12,2.307292664303690e-15
	-1.566821693621345e-12,2.307365216806257e-15
	-1.566821693566199e-12,2.307402663259194e-15
	-1.566821693566199e-12,2.307402663259194e-15
	1.566823392580256e-12,0.0
	-2.360995990616986e+02,0.0
	3.140119990168880e+00,0.0

 17	1.631172909227840e-03,0.000000000000000e+00
	1.000000000000000e+00,0.000000000000000e+00
	3.441392076683484e-12,3.430599384495833e-09
	-1.758002712188057e-12,2.664419891467244e-15
	-1.758002712061072e-12,2.664503673783347e-15
	-1.758002711995530e-12,2.664546916269077e-15
	-1.758002711995530e-12,2.664546916269077e-15
	1.758004731277453e-12,0.0
	-2.350995992090797e+02,0.0
	3.140076987625391e+00,0.0

 18	1.678804018122562e-03,0.000000000000000e+00
	1.000000000000000e+00,0.000000000000000e+00
	3.861305331523399e-12,3.739986098935241e-09
	-1.972511316096949e-12,3.076823954930643e-15
	-1.972511315946027e-12,3.076920705231592e-15
	-1.972511315868131e-12,3.076970640870790e-15
	-1.972511315868131e-12,3.076970640870790e-15
	1.972513715789107e-12,0.0
	-2.340995993652016e+02,0.0
	3.140032729385394e+00,0.0

 19	1.727825980507865e-03,0.000000000000000e+00
	1.000000000000000e+00,0.000000000000000e+00
	4.332455736260495e-12,4.077274674008245e-09
	-2.213193896302655e-12,3.553060707613140e-15
	-2.213193896123284e-12,3.553172433107507e-15
	-2.213193896030704e-12,3.553230097878793e-15
	-2.213193896030704e-12,3.553230097878793e-15
	2.213196748342021e-12,0.0
	-2.330995995305724e+02,0.0
	3.139987178781926e+00,0.0

 20	1.778279410038925e-03,0.000000000000000e+00
	1.000000000000000e+00,0.000000000000000e+00
	4.861095165639240e-12,4.444981421269587e-09
	-2.483244154907137e-12,4.103010293097192e-15
	-2.483244154693953e-12,4.103139311672863e-15
	-2.483244154583922e-12,4.103205901905467e-15
	-2.483244154583922e-12,4.103205901905467e-15
	2.483247544562139e-12,0.0
	-2.320995997057375e+02,0.0
	3.139940298077335e+00,0.0

 21	1.830206106311058e-03,0.000000000000000e+00
	1.000000000000000e+00,0.000000000000000e+00
	5.454238337903826e-12,4.845849583992883e-09
	-2.786245483466067e-12,4.738082121684561e-15
	-2.786245483212697e-12,4.738231109996203e-15
	-2.786245483081926e-12,4.738308007189307e-15
	-2.786245483081926e-12,4.738308007189307e-15
	2.786249512078415e-12,0.0
	-2.310995998912869e+02,0.0
	3.139892048432014e+00,0.0

 22	1.883649089489803e-03,0.000000000000000e+00
	1.000000000000000e+00,0.000000000000000e+00
	6.119755895697646e-12,5.282869802822192e-09
	-3.126218512088162e-12,5.471451573017039e-15
	-3.126218511787033e-12,5.471623622016616e-15
	-3.126218511631611e-12,5.471712421500269e-15
	-3.126218511631611e-12,5.471712421500269e-15
	3.126223300102695e-12,0.0
	-2.300996000878283e+02,0.0
	3.139842389872222e+00,0.0

 23	1.938652635952210e-03,0.000000000000000e+00
	1.000000000000000e+00,0.000000000000000e+00
	6.866478844476389e-12,5.759302427060950e-09
	-3.507674460342496e-12,6.318333335882301e-15
	-3.507674459984604e-12,6.318532014944704e-15
	-3.507674459799884e-12,6.318634558976911e-15
	-3.507674459799884e-12,6.318634558976911e-15
	3.507680150908160e-12,0.0
	-2.290996002960210e+02,0.0
	3.139791281256968e+00,0.0

 24	1.995262314968882e-03,0.000000000000000e+00
	1.000000000000000e+00,0.000000000000000e+00
	7.704315734372473e-12,6.278701838118083e-09
	-3.935674997936730e-12,7.296297056056150e-15
	-3.935674997511373e-12,7.296526487030267e-15
	-3.935674997291833e-12,7.296644903016905e-15
	-3.935674997291833e-12,7.296644903016905e-15
	3.935681761186353e-12,0.0
	-2.280996005165433e+02,0.0
	3.139738680243929e+00,0.0

 25	2.053525026457149e-03,0.000000000000000e+00
	1.000000000000000e+00,0.000000000000000e+00
	8.644384140306477e-12,6.844942966484818e-09
	-4.415899409415941e-12,8.425631840569372e-15
	-4.415899408910404e-12,8.425896783290907e-15
	-4.415899408649480e-12,8.426033527921373e-15
	-4.415899408649480e-12,8.426033527921373e-15
	4.415907447552750e-12,0.0
	-2.270996007501349e+02,0.0
	3.139684543254367e+00,0.0

 26	2.113489039836650e-03,0.000000000000000e+00
	1.000000000000000e+00,0.000000000000000e+00
	9.699158185136356e-12,7.462250200161009e-09
	-4.954719954157041e-12,9.729767180594597e-15
	-4.954719953556210e-12,9.730073131634683e-15
	-4.954719953246100e-12,9.730231041848916e-15
	-4.954719953246100e-12,9.730231041848916e-15
	4.954729507499998e-12,0.0
	-2.260996009975668e+02,0.0
	3.139628825437030e+00,0.0

 27	2.175204034019526e-03,0.000000000000000e+00
	1.000000000000000e+00,0.000000000000000e+00
	1.088263406326456e-11,8.135228900115258e-09
	-5.559286421571315e-12,1.123575902540237e-14
	-5.559286420857226e-12,1.123611233210063e-14
	-5.559286420488661e-12,1.123629468394489e-14
	-5.559286420488661e-12,1.123629468394489e-14
	5.559297775740013e-12,0.0
	-2.250996012596599e+02,0.0
	3.139571480630991e+00,0.0

 28	2.238721138568343e-03,0.000000000000000e+00
	1.000000000000000e+00,0.000000000000000e+00
	1.221051576114995e-11,8.868899757939371e-09
	-6.237621003516354e-12,1.297485109162199e-14
	-6.237621002667657e-12,1.297525908376979e-14
	-6.237621002229618e-12,1.297546966036220e-14
	-6.237621002229618e-12,1.297546966036220e-14
	6.237634497970279e-12,0.0
	-2.240996015372819e+02,0.0
	3.139512461327406e+00,0.0

 29	2.304092976055850e-03,0.000000000000000e+00
	1.000000000000000e+00,0.000000000000000e+00
	1.370042343908073e-11,9.668736251990014e-09
	-6.998724742773198e-12,1.498312305280121e-14
	-6.998724741764521e-12,1.498359419470704e-14
	-6.998724741243909e-12,1.498383736472294e-14
	-6.998724741243909e-12,1.498383736472294e-14
	6.998740780960657e-12,0.0
	-2.230996018313553e+02,0.0
	3.139451718630157e+00,0.0

 30	2.371373705661660e-03,0.000000000000000e+00
	1.000000000000000e+00,0.000000000000000e+00
	1.537212723931159e-11,1.054070548146625e-08
	-7.852696970073221e-12,1.730223905673781e-14
	-7.852696968874405e-12,1.730278312282950e-14
	-7.852696968255657e-12,1.730306393113487e-14
	-7.852696968255657e-12,1.730306393113487e-14
	7.852716031493370e-12,0.0
	-2.220996021428554e+02,0.0
	3.139389202215341e+00,0.0

 31	2.440619068041985e-03,0.000000000000000e+00
	1.000000000000000e+00,0.000000000000000e+00
	1.724780962303408e-11,1.149131268304678e-08
	-8.810869314486961e-12,1.998031209944135e-14
	-8.810869313062167e-12,1.998094037704827e-14
	-8.810869312326782e-12,1.998126464936150e-14
	-8.810869312326782e-12,1.998126464936150e-14
	8.810891969025543e-12,0.0
	-2.210996024728098e+02,0.0
	3.139324860289579e+00,0.0

 32	2.511886431509585e-03,0.000000000000000e+00
	1.000000000000000e+00,0.000000000000000e+00
	1.935235971714474e-11,1.252764976216156e-08
	-9.885956065341461e-12,2.307290218809409e-14
	-9.885956063648092e-12,2.307362771161620e-14
	-9.885956062774085e-12,2.307400217536954e-14
	-9.885956062774085e-12,2.307400217536954e-14
	9.885982990308857e-12,0.0
	-2.200996028223184e+02,0.0
	3.139258639547108e+00,0.0

 33	2.585234839562196e-03,0.000000000000000e+00
	1.000000000000000e+00,0.000000000000000e+00
	2.171370357672777e-11,1.365744820102509e-08
	-1.109222288087705e-11,2.664416900119330e-14
	-1.109222287886447e-11,2.664500682251517e-14
	-1.109222287782572e-11,2.664543924642321e-14
	-1.109222287782572e-11,2.664543924642321e-14
	1.109225488125804e-11,0.0
	-2.190996031925360e+02,0.0
	3.139190485125622e+00,0.0

 34	2.660725059798815e-03,0.000000000000000e+00
	1.000000000000000e+00,0.000000000000000e+00
	2.436317474543965e-11,1.488913673804427e-08
	-1.244567608216948e-11,3.076820295894513e-14
	-1.244567607977753e-11,3.076917045970494e-14
	-1.244567607854296e-11,3.076966981493578e-14
	-1.244567607854296e-11,3.076966981493578e-14
	1.244571411469013e-11,0.0
	-2.180996035846889e+02,0.0
	3.139120340560814e+00,0.0

 35	2.738419634264367e-03,0.000000000000000e+00
	1.000000000000000e+00,0.000000000000000e+00
	2.733593003094021e-11,1.623190424895146e-08
	-1.396427504409127e-11,3.553056231854176e-14
	-1.396427504124843e-11,3.553167957073362e-14
	-1.396427503978115e-11,3.553225621702615e-14
	-1.396427503978115e-11,3.553225621702615e-14
	1.396432024582245e-11,0.0
	-2.170996040000807e+02,0.0
	3.139048147739606e+00,0.0

 36	2.818382931264460e-03,0.000000000000000e+00
	1.000000000000000e+00,0.000000000000000e+00
	3.067141601249848e-11,1.769576829879036e-08
	-1.566817050153993e-11,4.103004818317494e-14
	-1.566817049816121e-11,4.103133836556562e-14
	-1.566817049641734e-11,4.103200426615431e-14
	-1.566817049641734e-11,4.103200426615431e-14
	1.566822422389267e-11,0.0
	-2.160996044400804e+02,0.0
	3.138973846852000e+00,0.0

 37	2.900681198693160e-03,0.000000000000000e+00
	1.000000000000000e+00,0.000000000000000e+00
	3.441389247070356e-11,1.929164987604051e-08
	-1.757997193289452e-11,4.738075424897017e-14
	-1.757997192887891e-11,4.738224412796921e-14
	-1.757997192680632e-11,4.738301309777513e-14
	-1.757997192680632e-11,4.738301309777513e-14
	1.758003578202355e-11,0.0
	-2.150996049061555e+02,0.0
	3.138897376341529e+00,0.0

 38	2.985382618917966e-03,0.000000000000000e+00
	1.000000000000000e+00,0.000000000000000e+00
	3.861301968521862e-11,2.103145486659438e-08
	-1.972504756874439e-11,5.471443381456539e-14
	-1.972504756397183e-11,5.471615429952478e-14
	-1.972504756150854e-11,5.471704229176183e-14
	-1.972504756150854e-11,5.471704229176183e-14
	1.972512345356782e-11,0.0
	-2.140996053998507e+02,0.0
	3.138818672854263e+00,0.0

 39	3.072557365267454e-03,0.000000000000000e+00
	1.000000000000000e+00,0.000000000000000e+00
	4.332451739327768e-11,2.292816287524177e-08
	-2.213186100653852e-11,6.318323315913721e-14
	-2.213186100086631e-11,6.318521994360069e-14
	-2.213186099793871e-11,6.318624538074308e-14
	-2.213186099793871e-11,6.318624538074308e-14
	2.213195119580932e-11,0.0
	-2.130996059227941e+02,0.0
	3.138737671186321e+00,0.0

 40	3.162277660168387e-03,0.000000000000000e+00
	1.000000000000000e+00,0.000000000000000e+00
	4.861090415273504e-11,2.499592405726243e-08
	-2.483234889761569e-11,7.296284799559098e-14
	-2.483234889087426e-11,7.296514229779654e-14
	-2.483234888739479e-11,7.296632645377350e-14
	-2.483234888739479e-11,7.296632645377350e-14
	2.483245608775123e-11,0.0
	-2.120996064767253e+02,0.0
	3.138654304229854e+00,0.0

 41	3.254617834980467e-03,0.000000000000000e+00
	1.000000000000000e+00,0.000000000000000e+00
	5.454232692081566e-11,2.725016468264297e-08
	-2.786234471820571e-11,8.425616848331663e-14
	-2.786234471019351e-11,8.425881790131437e-14
	-2.786234470605815e-11,8.426018534286146e-14
	-2.786234470605815e-11,8.426018534286146e-14
	2.786247211390332e-11,0.0
	-2.110996070634842e+02,0.0
	3.138568502917450e+00,0.0

 42	3.349654391578285e-03,0.000000000000000e+00
	1.000000000000000e+00,0.000000000000000e+00
	6.119749185625693e-11,2.970770222035174e-08
	-3.126205424725172e-11,9.729748841986296e-14
	-3.126205423772919e-11,9.730054791898871e-14
	-3.126205423281431e-11,9.730212701531156e-14
	-3.126205423281431e-11,9.730212701531156e-14
	3.126220565730039e-11,0.0
	-2.100996076850046e+02,0.0
	3.138480196164915e+00,0.0

 43	3.447466065731503e-03,0.000000000000000e+00
	1.000000000000000e+00,0.000000000000000e+00
	6.866470869548929e-11,3.238687080105599e-08
	-3.507658905988148e-11,1.123573659349324e-13
	-3.507658904856395e-11,1.123608989881232e-13
	-3.507658904272260e-11,1.123627224994474e-13
	-3.507658904272260e-11,1.123627224994474e-13
	3.507676901103428e-11,0.0
	-2.090996083433507e+02,0.0
	3.138389310812387e+00,0.0

 44	3.548133892335764e-03,0.000000000000000e+00
	1.000000000000000e+00,0.000000000000000e+00
	7.704306256146190e-11,3.530765799446936e-08
	-3.935656511551996e-11,1.297482365274380e-13
	-3.935656510206905e-11,1.297523164320458e-13
	-3.935656509512659e-11,1.297544221892626e-13
	-3.935656509512659e-11,1.297544221892626e-13
	3.935677898783150e-11,0.0
	-2.080996090407143e+02,0.0
	3.138295771563723e+00,0.0

 45	3.651741272548387e-03,0.000000000000000e+00
	1.000000000000000e+00,0.000000000000000e+00
	8.644372875421544e-11,3.849185392170350e-08
	-4.415877438313859e-11,1.498308948938616e-13
	-4.415877436715216e-11,1.498356062922841e-13
	-4.415877435890104e-11,1.498380379817923e-13
	-4.415877435890104e-11,1.498380379817923e-13
	4.415902857081394e-11,0.0
	-2.070996097793885e+02,0.0
	3.138199500924122e+00,0.0

 46	3.758374042884452e-03,0.000000000000000e+00
	1.000000000000000e+00,0.000000000000000e+00
	9.699144796794242e-11,4.196321381446718e-08
	-4.954693841457456e-11,1.730219800173677e-13
	-4.954693839557466e-11,1.730274206530428e-13
	-4.954693838576819e-11,1.730302287230684e-13
	-4.954693838576819e-11,1.730302287230684e-13
	4.954724051713839e-11,0.0
	-2.060996105618392e+02,0.0
	3.138100419135931e+00,0.0

 47	3.868120546330533e-03,0.000000000000000e+00
	1.000000000000000e+00,0.000000000000000e+00
	1.088261815119016e-10,4.574763523470079e-08
	-5.559255386576081e-11,1.998026188067562e-13
	-5.559255384317940e-11,1.998089015519495e-13
	-5.559255383152438e-11,1.998121442591457e-13
	-5.559255383152438e-11,1.998121442591457e-13
	5.559291291526222e-11,0.0
	-2.050996113906513e+02,0.0
	3.137998444112565e+00,0.0

 48	3.981071705534985e-03,0.000000000000000e+00
