Title: * sky130 bjt 3-stage cout pole-alignment ac sweep: cout=6.8n, rout=10meg/10meg
Date: Fri May 22 21:26:17  2026
Command: ngspice-46, Build Mar 29 2026   15:02:07
Plotname: AC Analysis
Flags: complex
No. Variables: 8
No. Points: 721
Variables:
	0	frequency	frequency grid=3
	1	v(vin)	voltage
	2	v(b3_collector)	voltage
	3	v(vout_final)	voltage
	4	gain	notype
	5	gain_vv	notype
	6	gain_db	decibel
	7	phase_deg	phase
Values:
 0	1.000000000000000e-03,0.000000000000000e+00
	1.000000000000000e+00,0.000000000000000e+00
	4.842146266094905e-13,7.904423298347777e-10
	-1.688608216620661e-13,1.395684472677065e-16
	-1.688608216620661e-13,1.395684472677065e-16
	1.688608793407744e-13,0.0
	-2.554494190694839e+02,0.0
	3.140766124297138e+00,0.0

 1	1.029200527194428e-03,0.000000000000000e+00
	1.000000000000000e+00,0.000000000000000e+00
	5.432977423800576e-13,8.617279572937419e-10
	-1.894649533102456e-13,1.611711264847005e-16
	-1.894649533102456e-13,1.611711264847005e-16
	1.894650218615182e-13,0.0
	-2.544494191138835e+02,0.0
	3.140741989206789e+00,0.0

 2	1.059253725177289e-03,0.000000000000000e+00
	1.000000000000000e+00,0.000000000000000e+00
	6.095900877607903e-13,9.394424408959980e-10
	-2.125831683490440e-13,1.861175108077685e-16
	-2.125831683490440e-13,1.861175108077685e-16
	2.125832498223833e-13,0.0
	-2.534494191609106e+02,0.0
	3.140717149359145e+00,0.0

 3	1.090184492385128e-03,0.000000000000000e+00
	1.000000000000000e+00,0.000000000000000e+00
	6.839713216442130e-13,1.024165563461525e-09
	-2.385222311769036e-13,2.149251454470624e-16
	-2.385222311769036e-13,2.149251454470624e-16
	2.385223280081477e-13,0.0
	-2.524494192107287e+02,0.0
	3.140691584174927e+00,0.0

 4	1.122018454301964e-03,0.000000000000000e+00
	1.000000000000000e+00,0.000000000000000e+00
	7.674284375125226e-13,1.116529395184098e-09
	-2.676263370782917e-13,2.481916822651867e-16
	-2.676263370782917e-13,2.481916822651867e-16
	2.676264521624396e-13,0.0
	-2.514494192634934e+02,0.0
	3.140665272473930e+00,0.0

 5	1.154781984689459e-03,0.000000000000000e+00
	1.000000000000000e+00,0.000000000000000e+00
	8.610688602292761e-13,1.217223009129995e-09
	-3.002816794755114e-13,2.866072788377524e-16
	-3.002816794755114e-13,2.866072788377524e-16
	3.002818162532757e-13,0.0
	-2.504494193193880e+02,0.0
	3.140638192457480e+00,0.0

 6	1.188502227437019e-03,0.000000000000000e+00
	1.000000000000000e+00,0.000000000000000e+00
	9.661351408867288e-13,1.326997622008410e-09
	-3.369215744702556e-13,3.309689166659585e-16
	-3.369215744702556e-13,3.309689166659585e-16
	3.369217370309309e-13,0.0
	-2.494494193785935e+02,0.0
	3.140610321690367e+00,0.0

 7	1.223207119049932e-03,0.000000000000000e+00
	1.000000000000000e+00,0.000000000000000e+00
	1.084021444689173e-12,1.446672198551980e-09
	-3.780322106709211e-13,3.821969355875119e-16
	-3.780322106709211e-13,3.821969355875119e-16
	3.780324038746431e-13,0.0
	-2.484494194413089e+02,0.0
	3.140581637082264e+00,0.0

 8	1.258925411794168e-03,0.000000000000000e+00
	1.000000000000000e+00,0.000000000000000e+00
	1.216292050665284e-12,1.577139561329169e-09
	-4.241591006046438e-13,4.413541274162344e-16
	-4.241591006046438e-13,4.413541274162344e-16
	4.241593302276942e-13,0.0
	-2.474494195077348e+02,0.0
	3.140552114868593e+00,0.0

 9	1.295686697517020e-03,0.000000000000000e+00
	1.000000000000000e+00,0.000000000000000e+00
	1.364702108678096e-12,1.719373051557787e-09
	-4.759143193167797e-13,5.096677849286995e-16
	-4.759143193167797e-13,5.096677849286995e-16
	4.759145922242822e-13,0.0
	-2.464494195781023e+02,0.0
	3.140521730590842e+00,0.0

 10	1.333521432163325e-03,0.000000000000000e+00
	1.000000000000000e+00,0.000000000000000e+00
	1.531220929181673e-12,1.874433790629659e-09
	-5.339846262137915e-13,5.885551636378555e-16
	-5.339846262137915e-13,5.885551636378555e-16
	5.339849505649605e-13,0.0
	-2.454494196526384e+02,0.0
	3.140490459076294e+00,0.0

 11	1.372460961007563e-03,0.000000000000000e+00
	1.000000000000000e+00,0.000000000000000e+00
	1.718058114745547e-12,2.043478596499638e-09
	-5.991405779153946e-13,6.796528845840312e-16
	-5.991405779153946e-13,6.796528845840312e-16
	5.991409634074743e-13,0.0
	-2.444494197315894e+02,0.0
	3.140458274417180e+00,0.0

 12	1.412537544622755e-03,0.000000000000000e+00
	1.000000000000000e+00,0.000000000000000e+00
	1.927692880106582e-12,2.227768614010201e-09
	-6.722467530402812e-13,7.848508881451597e-16
	-6.722467530402812e-13,7.848508881451597e-16
	6.722472111984679e-13,0.0
	-2.434494198152246e+02,0.0
	3.140425149949211e+00,0.0

 13	1.453784385607663e-03,0.000000000000000e+00
	1.000000000000000e+00,0.000000000000000e+00
	2.162906949813837e-12,2.428678723542633e-09
	-7.542732246030749e-13,9.063316432840258e-16
	-7.542732246030749e-13,9.063316432840258e-16
	7.542737691250892e-13,0.0
	-2.424494199038095e+02,0.0
	3.140391058229486e+00,0.0

 14	1.496235656094435e-03,0.000000000000000e+00
	1.000000000000000e+00,0.000000000000000e+00
	2.426821469972305e-12,2.647707798163691e-09
	-8.463084322462891e-13,1.046615425668582e-15
	-8.463084322462891e-13,1.046615425668582e-15
	8.463090794119020e-13,0.0
	-2.414494199976398e+02,0.0
	3.140355971013759e+00,0.0

 15	1.539926526059493e-03,0.000000000000000e+00
	1.000000000000000e+00,0.000000000000000e+00
	2.722938423904118e-12,2.886489885811933e-09
	-9.495736251190587e-13,1.208612604025719e-15
	-9.495736251190587e-13,1.208612604025719e-15
	9.495743942768136e-13,0.0
	-2.404494200970385e+02,0.0
	3.140319859233041e+00,0.0

 16	1.584893192461115e-03,0.000000000000000e+00
	1.000000000000000e+00,0.000000000000000e+00
	3.055187101291590e-12,3.146806399950182e-09
	-1.065439067050949e-12,1.395684019477737e-15
	-1.065439067050949e-12,1.395684019477737e-15
	1.065439981196632e-12,0.0
	-2.394494202023232e+02,0.0
	3.140282692969510e+00,0.0

 17	1.631172909227840e-03,0.000000000000000e+00
	1.000000000000000e+00,0.000000000000000e+00
	3.427976237381721e-12,3.430599409598282e-09
	-1.195442219041263e-12,1.611710710491747e-15
	-1.195442219041263e-12,1.611710710491747e-15
	1.195443305505416e-12,0.0
	-2.384494203138416e+02,0.0
	3.140244441431734e+00,0.0

 18	1.678804018122562e-03,0.000000000000000e+00
	1.000000000000000e+00,0.000000000000000e+00
	3.846252514135201e-12,3.739986127923473e-09
	-1.341308140341266e-12,1.861174429985441e-15
	-1.341308140341266e-12,1.861174429985441e-15
	1.341309431606296e-12,0.0
	-2.374494204319743e+02,0.0
	3.140205072929154e+00,0.0

 19	1.727825980507865e-03,0.000000000000000e+00
	1.000000000000000e+00,0.000000000000000e+00
	4.315566199604760e-12,4.077274707482604e-09
	-1.504972378838859e-12,2.149250625023491e-15
	-1.504972378838859e-12,2.149250625023491e-15
	1.504973913510179e-12,0.0
	-2.364494205571073e+02,0.0
	3.140164554845832e+00,0.0

 20	1.778279410038925e-03,0.000000000000000e+00
	1.000000000000000e+00,0.000000000000000e+00
	4.842144796494359e-12,4.444981459925823e-09
	-1.688606654474341e-12,2.481915808067180e-15
	-1.688606654474341e-12,2.481915808067180e-15
	1.688608478434567e-12,0.0
	-2.354494206896475e+02,0.0
	3.140122853613432e+00,0.0

 21	1.830206106311058e-03,0.000000000000000e+00
	1.000000000000000e+00,0.000000000000000e+00
	5.432975677176704e-12,4.845849628632211e-09
	-1.894647676488103e-12,2.866071547329869e-15
	-1.894647676488103e-12,2.866071547329869e-15
	1.894649844268825e-12,0.0
	-2.344494208300480e+02,0.0
	3.140079934683405e+00,0.0

 22	1.883649089489803e-03,0.000000000000000e+00
	1.000000000000000e+00,0.000000000000000e+00
	6.095898801740892e-12,5.282869854370632e-09
	-2.125829476899954e-12,3.309687648601610e-15
	-2.125829476899954e-12,3.309687648601610e-15
	2.125832053312082e-12,0.0
	-2.334494209787653e+02,0.0
	3.140035762498369e+00,0.0

 23	1.938652635952210e-03,0.000000000000000e+00
	1.000000000000000e+00,0.000000000000000e+00
	6.839710749268668e-12,5.759302486588796e-09
	-2.385219689231243e-12,3.821967498974726e-15
	-2.385219689231243e-12,3.821967498974726e-15
	2.385222751302685e-12,0.0
	-2.324494211362988e+02,0.0
	3.139990300462651e+00,0.0

 24	1.995262314968882e-03,0.000000000000000e+00
	1.000000000000000e+00,0.000000000000000e+00
	7.674281442883858e-12,6.278701906859772e-09
	-2.676260253890961e-12,4.413539002787489e-15
	-2.676260253890961e-12,4.413539002787489e-15
	2.676263893169550e-12,0.0
	-2.314494213031610e+02,0.0
	3.139943510911967e+00,0.0

 25	2.053525026457149e-03,0.000000000000000e+00
	1.000000000000000e+00,0.000000000000000e+00
	8.610685117318724e-12,6.844943045866780e-09
	-3.002813090322537e-12,5.096675070926326e-15
	-3.002813090322537e-12,5.096675070926326e-15
	3.002817415613071e-12,0.0
	-2.304494214799127e+02,0.0
	3.139895355082222e+00,0.0

 26	2.113489039836650e-03,0.000000000000000e+00
	1.000000000000000e+00,0.000000000000000e+00
	9.661347266968312e-12,7.462250291829925e-09
	-3.369211341976535e-12,5.885548237868999e-15
	-3.369211341976535e-12,5.885548237868999e-15
	3.369216482593747e-12,0.0
	-2.294494216671370e+02,0.0
	3.139845793077389e+00,0.0

 27	2.175204034019526e-03,0.000000000000000e+00
	1.000000000000000e+00,0.000000000000000e+00
	1.084020952423933e-11,8.135229005973256e-09
	-3.780316874060891e-12,6.796524688759322e-15
	-3.780316874060891e-12,6.796524688759322e-15
	3.780322983695619e-12,0.0
	-2.284494218654546e+02,0.0
	3.139794783836464e+00,0.0

 28	2.238721138568343e-03,0.000000000000000e+00
	1.000000000000000e+00,0.000000000000000e+00
	1.216291465606431e-11,8.868899880181662e-09
	-4.241584787031122e-12,7.848503796487299e-15
	-4.241584787031122e-12,7.848503796487299e-15
	4.241592048345254e-12,0.0
	-2.274494220755232e+02,0.0
	3.139742285099440e+00,0.0

 29	2.304092976055850e-03,0.000000000000000e+00
	1.000000000000000e+00,0.000000000000000e+00
	1.364701413334828e-11,9.668736393153749e-09
	-4.759135801855934e-12,9.063310212875808e-15
	-4.759135801855934e-12,9.063310212875808e-15
	4.759144431943513e-12,0.0
	-2.264494222980393e+02,0.0
	3.139688253372304e+00,0.0

 30	2.371373705661660e-03,0.000000000000000e+00
	1.000000000000000e+00,0.000000000000000e+00
	1.531220102764253e-11,1.054070564447794e-08
	-5.339837477546508e-12,1.046614664837108e-14
	-5.339837477546508e-12,1.046614664837108e-14
	5.339847734424261e-12,0.0
	-2.254494225337440e+02,0.0
	3.139632643890997e+00,0.0

 31	2.440619068041985e-03,0.000000000000000e+00
	1.000000000000000e+00,0.000000000000000e+00
	1.718057132547091e-11,1.149131287129146e-08
	-5.991395338649644e-12,1.208611673372435e-14
	-5.991395338649644e-12,1.208611673372435e-14
	5.991407528971000e-12,0.0
	-2.244494227834091e+02,0.0
	3.139575410584334e+00,0.0

 32	2.511886431509585e-03,0.000000000000000e+00
	1.000000000000000e+00,0.000000000000000e+00
	1.927691712762705e-11,1.252764997954362e-08
	-6.722455121844206e-12,1.395682881095969e-14
	-6.722455121844206e-12,1.395682881095969e-14
	6.722469610067409e-12,0.0
	-2.234494230478719e+02,0.0
	3.139516506035831e+00,0.0

 33	2.585234839562196e-03,0.000000000000000e+00
	1.000000000000000e+00,0.000000000000000e+00
	2.162905562422301e-11,1.365744845205273e-08
	-7.542717498430189e-12,1.611709318013813e-14
	-7.542717498430189e-12,1.611709318013813e-14
	7.542734717714628e-12,0.0
	-2.224494233280056e+02,0.0
	3.139455881444427e+00,0.0

 34	2.660725059798815e-03,0.000000000000000e+00
	1.000000000000000e+00,0.000000000000000e+00
	2.426819821053256e-11,1.488913702792650e-08
	-8.463066794904529e-12,1.861172726697449e-14
	-8.463066794904529e-12,1.861172726697449e-14
	8.463087260061041e-12,0.0
	-2.214494236247359e+02,0.0
	3.139393486584047e+00,0.0

 35	2.738419634264367e-03,0.000000000000000e+00
	1.000000000000000e+00,0.000000000000000e+00
	2.722936464161268e-11,1.623190458370305e-08
	-9.495715419653270e-12,2.149248541549929e-14
	-9.495715419653270e-12,2.149248541549929e-14
	9.495739742535609e-12,0.0
	-2.204494239390507e+02,0.0
	3.139329269762001e+00,0.0

 36	2.818382931264460e-03,0.000000000000000e+00
	1.000000000000000e+00,0.000000000000000e+00
	3.055184772134533e-11,1.769576868535323e-08
	-1.065436591218708e-11,2.481913259546976e-14
	-1.065436591218708e-11,2.481913259546976e-14
	1.065439481998470e-11,0.0
	-2.194494242719857e+02,0.0
	3.139263177776151e+00,0.0

 37	2.900681198693160e-03,0.000000000000000e+00
	1.000000000000000e+00,0.000000000000000e+00
	3.427973469171359e-11,1.929165032243639e-08
	-1.195439276508826e-11,2.866068429962967e-14
	-1.195439276508826e-11,2.866068429962967e-14
	1.195442712206733e-11,0.0
	-2.184494246246509e+02,0.0
	3.139195155870839e+00,0.0

 38	2.985382618917966e-03,0.000000000000000e+00
	1.000000000000000e+00,0.000000000000000e+00
	3.846249224110518e-11,2.103145538208384e-08
	-1.341304643135041e-11,3.309683835414647e-14
	-1.341304643135041e-11,3.309683835414647e-14
	1.341308726469305e-11,0.0
	-2.174494249982165e+02,0.0
	3.139125147691522e+00,0.0

 39	3.072557365267454e-03,0.000000000000000e+00
	1.000000000000000e+00,0.000000000000000e+00
	4.315562289406068e-11,2.292816347052025e-08
	-1.504968222402676e-11,3.821962834660662e-14
	-1.504968222402676e-11,3.821962834660662e-14
	1.504973075454103e-11,0.0
	-2.164494253939118e+02,0.0
	3.139053095238086e+00,0.0

 40	3.162277660168387e-03,0.000000000000000e+00
	1.000000000000000e+00,0.000000000000000e+00
	4.842140149211574e-11,2.499592474467959e-08
	-1.688601714540355e-11,4.413533297364881e-14
	-1.688601714540355e-11,4.413533297364881e-14
	1.688607482402229e-11,0.0
	-2.154494258130551e+02,0.0
	3.138978938816796e+00,0.0

 41	3.254617834980467e-03,0.000000000000000e+00
	1.000000000000000e+00,0.000000000000000e+00
	5.432970153868442e-11,2.725016547645713e-08
	-1.894641805365416e-11,5.096668092009477e-14
	-1.894641805365416e-11,5.096668092009477e-14
	1.894648660481400e-11,0.0
	-2.144494262570403e+02,0.0
	3.138902616990842e+00,0.0

 42	3.349654391578285e-03,0.000000000000000e+00
	1.000000000000000e+00,0.000000000000000e+00
	6.095892237277170e-11,2.970770313703292e-08
	-2.125822499058501e-11,5.885539701209493e-14
	-2.125822499058501e-11,5.885539701209493e-14
	2.125830646378235e-11,0.0
	-2.134494267273267e+02,0.0
	3.138824066529439e+00,0.0

 43	3.447466065731503e-03,0.000000000000000e+00
	1.000000000000000e+00,0.000000000000000e+00
	6.839702947397058e-11,3.238687185962722e-08
	-2.385211396054338e-11,6.796514246660724e-14
	-2.385211396054338e-11,6.796514246660724e-14
	2.385221079160880e-11,0.0
	-2.124494272254761e+02,0.0
	3.138743222355449e+00,0.0

 44	3.548133892335764e-03,0.000000000000000e+00
	1.000000000000000e+00,0.000000000000000e+00
	7.674272170334539e-11,3.530765921688680e-08
	-2.676250397430729e-11,7.848491023632589e-14
	-2.676250397430729e-11,7.848491023632589e-14
	2.676261905823024e-11,0.0
	-2.114494277531524e+02,0.0
	3.138660017491460e+00,0.0

 45	3.651741272548387e-03,0.000000000000000e+00
	1.000000000000000e+00,0.000000000000000e+00
	8.610674096880872e-11,3.849185533332884e-08
	-3.002801375901271e-11,9.063294589036821e-14
	-3.002801375901271e-11,9.063294589036821e-14
	3.002815053649388e-11,0.0
	-2.104494283120843e+02,0.0
	3.138574383004306e+00,0.0

 46	3.758374042884452e-03,0.000000000000000e+00
	1.000000000000000e+00,0.000000000000000e+00
	9.661334169151781e-11,4.196321544458547e-08
	-3.369197419362013e-11,1.046612753718391e-13
	-3.369197419362013e-11,1.046612753718391e-13
	3.369213675393900e-11,0.0
	-2.094494289041425e+02,0.0
	3.138486247947956e+00,0.0

 47	3.868120546330533e-03,0.000000000000000e+00
	1.000000000000000e+00,0.000000000000000e+00
	1.084019395745384e-10,4.574763711712830e-08
	-3.780300327004522e-11,1.208609335678117e-13
	-3.780300327004522e-11,1.208609335678117e-13
	3.780319647331840e-11,0.0
	-2.084494295312811e+02,0.0
	3.138395539304740e+00,0.0

 48	3.981071705534985e-03,0.000000000000000e+00
	1.000000000000000e+00,0.000000000000000e+00
	1.216289615490733e-10,4.987335344955799e-08
	-4.241565120821419e-11,1.395680021612495e-13
	-4.241565120821419e-11,1.395680021612495e-13
	4.241588083069959e-11,0.0
	-2.074494301955779e+02,0.0
	3.138302181924856e+00,0.0

 49	4.097321098135428e-03,0.000000000000000e+00
	1.000000000000000e+00,0.000000000000000e+00
	1.364699214468312e-10,5.437114369725291e-08
	-4.759112428525818e-11,1.611705820274191e-13
	-4.759112428525818e-11,1.611705820274191e-13
	4.759139719204935e-11,0.0
	-2.064494308992381e+02,0.0
	3.138206098464117e+00,0.0

 50	4.216965034285836e-03,0.000000000000000e+00
	1.000000000000000e+00,0.000000000000000e+00
	1.531217489407523e-10,5.927456289150501e-08
	-5.339809698299256e-11,1.861168448238047e-13
	-5.339809698299256e-11,1.861168448238047e-13
	5.339842133326608e-11,0.0
	-2.054494316445921e+02,0.0
	3.138107209319872e+00,0.0

 51	4.340102636447452e-03,0.000000000000000e+00
	1.000000000000000e+00,0.000000000000000e+00
	1.718054026566714e-10,6.462019216589958e-08
	-5.991362322957808e-11,2.149243308109541e-13
	-5.991362322957808e-11,2.149243308109541e-13
	5.991400872053056e-11,0.0
	-2.044494324341107e+02,0.0
	3.138005432565062e+00,0.0

 52	4.466835921509646e-03,0.000000000000000e+00
	1.000000000000000e+00,0.000000000000000e+00
	1.927688021298256e-10,7.044791165743296e-08
	-6.722415882628594e-11,2.481906857964848e-13
	-6.722415882628594e-11,2.481906857964848e-13
	6.722461698305342e-11,0.0
	-2.034494332704146e+02,0.0
	3.137900683880350e+00,0.0

 53	4.597269885308737e-03,0.000000000000000e+00
	1.000000000000000e+00,0.000000000000000e+00
	2.162901175110126e-10,7.680119801821357e-08
	-7.542670862548415e-11,2.866060599504177e-13
	-7.542670862548415e-11,2.866060599504177e-13
	7.542725314571177e-11,0.0
	-2.024494341562689e+02,0.0
	3.137792876484266e+00,0.0

 54	4.731512589614821e-03,0.000000000000000e+00
	1.000000000000000e+00,0.000000000000000e+00
	2.426814606722402e-10,8.372744875665337e-08
	-8.463011368065676e-11,3.309674257144095e-13
	-8.463011368065676e-11,3.309674257144095e-13
	8.463076084402036e-11,0.0
	-2.014494350946171e+02,0.0
	3.137681921061317e+00,0.0

 55	4.869675251658647e-03,0.000000000000000e+00
	1.000000000000000e+00,0.000000000000000e+00
	2.722930266920522e-10,9.127833582837877e-08
	-9.495649544754928e-11,3.821951118455585e-13
	-9.495649544754928e-11,3.821951118455585e-13
	9.495726460247244e-11,0.0
	-2.004494360885593e+02,0.0
	3.137567725687993e+00,0.0

 56	5.011872336272740e-03,0.000000000000000e+00
	1.000000000000000e+00,0.000000000000000e+00
	3.055177406699930e-10,9.951019111338590e-08
	-1.065428761974191e-10,4.413518966022489e-13
	-1.065428761974191e-10,4.413518966022489e-13
	1.065437903395370e-10,0.0
	-1.994494371414003e+02,0.0
	3.137450195756620e+00,0.0

 57	5.158221650723075e-03,0.000000000000000e+00
	1.000000000000000e+00,0.000000000000000e+00
	3.427964715338053e-10,1.084844266562391e-07
	-1.195429971437198e-10,5.096650561818765e-13
	-1.195429971437198e-10,5.096650561818765e-13
	1.195440836033841e-10,0.0
	-1.984494382566245e+02,0.0
	3.137329233896980e+00,0.0

 58	5.308844442309902e-03,0.000000000000000e+00
	1.000000000000000e+00,0.000000000000000e+00
	3.846238820163258e-10,1.182679928027549e-07
	-1.341293584040452e-10,5.885518258159437e-13
	-1.341293584040452e-10,5.885518258159437e-13
	1.341306496634251e-10,0.0
	-1.974494394379326e+02,0.0
	3.137204739895653e+00,0.0

 59	5.463865498818562e-03,0.000000000000000e+00
	1.000000000000000e+00,0.000000000000000e+00
	4.315549924292809e-10,1.289338776516674e-07
	-1.504955078648200e-10,6.796488017373085e-13
	-1.504955078648200e-10,6.796488017373085e-13
	1.504970425290271e-10,0.0
	-1.964494406892359e+02,0.0
	3.137076610612995e+00,0.0

 60	5.623413251903512e-03,0.000000000000000e+00
	1.000000000000000e+00,0.000000000000000e+00
	4.842125453247899e-10,1.405616515459265e-07
	-1.688586093163770e-10,7.848458939793968e-13
	-1.688586093163770e-10,7.848458939793968e-13
	1.688604332676490e-10,0.0
	-1.954494420146863e+02,0.0
	3.136944739897700e+00,0.0

 61	5.787619883491228e-03,0.000000000000000e+00
	1.000000000000000e+00,0.000000000000000e+00
	5.432952687693111e-10,1.532380606661186e-07
	-1.894623239333258e-10,9.063255343865730e-13
	-1.894623239333258e-10,9.063255343865730e-13
	1.894644917027746e-10,0.0
	-1.944494434186694e+02,0.0
	3.136809018498860e+00,0.0

 62	5.956621435290127e-03,0.000000000000000e+00
	1.000000000000000e+00,0.000000000000000e+00
	6.095871478692186e-10,1.670576741524006e-07
