Title: * sky130 bjt 3-stage high-frequency fourth-pole ac: chout=15p
Date: Fri May 22 21:56:31  2026
Command: ngspice-46, Build Mar 29 2026   15:02:07
Plotname: AC Analysis
Flags: complex
No. Variables: 8
No. Points: 721
Variables:
	0	frequency	frequency grid=3
	1	v(vin)	voltage
	2	v(b3_collector)	voltage
	3	v(vout_final)	voltage
	4	gain	notype
	5	gain_vv	notype
	6	gain_db	decibel
	7	phase_deg	phase
Values:
 0	1.000000000000000e-03,0.000000000000000e+00
	1.000000000000000e+00,0.000000000000000e+00
	4.861096667822254e-13,7.904423276608954e-10
	-2.483247082381819e-13,2.309243974805688e-16
	-2.483247082381819e-13,2.309243974805688e-16
	2.483248156098288e-13,0.0
	-2.520995975667099e+02,0.0
	3.140662724657012e+00,0.0

 1	1.029200527194428e-03,0.000000000000000e+00
	1.000000000000000e+00,0.000000000000000e+00
	5.454240123252301e-13,8.617279547834594e-10
	-2.786248962776275e-13,2.666673296170546e-16
	-2.786248962776275e-13,2.666673296170546e-16
	2.786250238890674e-13,0.0
	-2.510995976255134e+02,0.0
	3.140635570243127e+00,0.0

 2	1.059253725177289e-03,0.000000000000000e+00
	1.000000000000000e+00,0.000000000000000e+00
	6.119758017588389e-13,9.394424379971301e-10
	-3.126222647256014e-13,3.079426227420414e-16
	-3.126222647256014e-13,3.079426227420414e-16
	3.126224163920797e-13,0.0
	-2.500995976877990e+02,0.0
	3.140607622906150e+00,0.0

 3	1.090184492385128e-03,0.000000000000000e+00
	1.000000000000000e+00,0.000000000000000e+00
	6.866481366349747e-13,1.024165560113937e-09
	-3.507679374999008e-13,3.556065864489206e-16
	-3.507679374999008e-13,3.556065864489206e-16
	3.507681177558455e-13,0.0
	-2.490995977537796e+02,0.0
	3.140578859492319e+00,0.0

 4	1.122018454301964e-03,0.000000000000000e+00
	1.000000000000000e+00,0.000000000000000e+00
	7.704318731625245e-13,1.116529391318429e-09
	-3.935680839016960e-13,4.106480715810759e-16
	-3.935680839016960e-13,4.106480715810759e-16
	3.935682981362842e-13,0.0
	-2.480995978236638e+02,0.0
	3.140549256171769e+00,0.0

 5	1.154781984689459e-03,0.000000000000000e+00
	1.000000000000000e+00,0.000000000000000e+00
	8.644387702547250e-13,1.217223004666012e-09
	-4.415906351552235e-13,4.742089852169261e-16
	-4.415906351552235e-13,4.742089852169261e-16
	4.415908897735045e-13,0.0
	-2.470995978976925e+02,0.0
	3.140518788418793e+00,0.0

 6	1.188502227437019e-03,0.000000000000000e+00
	1.000000000000000e+00,0.000000000000000e+00
	9.699162418865903e-13,1.326997616853322e-09
	-4.954728204900200e-13,5.476079810059562e-16
	-4.954728204900200e-13,5.476079810059562e-16
	4.954731231044086e-13,0.0
	-2.460995979761080e+02,0.0
	3.140487430991521e+00,0.0

 7	1.223207119049932e-03,0.000000000000000e+00
	1.000000000000000e+00,0.000000000000000e+00
	1.088263909506009e-12,1.446672192599208e-09
	-5.559296227596815e-13,6.323678163365745e-16
	-5.559296227596815e-13,6.323678163365745e-16
	5.559299824175495e-13,0.0
	-2.450995980591691e+02,0.0
	3.140455157911009e+00,0.0

 8	1.258925411794168e-03,0.000000000000000e+00
	1.000000000000000e+00,0.000000000000000e+00
	1.221052174145331e-12,1.577139554454867e-09
	-6.237632657999804e-13,7.302469438982216e-16
	-6.237632657999804e-13,7.302469438982216e-16
	6.237636932541490e-13,0.0
	-2.440995981471485e+02,0.0
	3.140421942439715e+00,0.0

 9	1.295686697517020e-03,0.000000000000000e+00
	1.000000000000000e+00,0.000000000000000e+00
	1.370043054668049e-12,1.719373043619459e-09
	-6.998738594150172e-13,8.432759930418898e-16
	-6.998738594150172e-13,8.432759930418898e-16
	6.998743674452378e-13,0.0
	-2.430995982403458e+02,0.0
	3.140387757059347e+00,0.0

 10	1.333521432163325e-03,0.000000000000000e+00
	1.000000000000000e+00,0.000000000000000e+00
	1.537213568671350e-12,1.874433781462887e-09
	-7.852713432466117e-13,9.737998977966107e-16
	-7.852713432466117e-13,9.737998977966107e-16
	7.852719470416468e-13,0.0
	-2.420995983390632e+02,0.0
	3.140352573448066e+00,0.0

 11	1.372460961007563e-03,0.000000000000000e+00
	1.000000000000000e+00,0.000000000000000e+00
	1.724781966278616e-12,2.043478585913826e-09
	-8.810888880074247e-13,1.124526545532162e-15
	-8.810888880074247e-13,1.124526545532162e-15
	8.810896056191514e-13,0.0
	-2.410995984436304e+02,0.0
	3.140316362457025e+00,0.0

 12	1.412537544622755e-03,0.000000000000000e+00
	1.000000000000000e+00,0.000000000000000e+00
	1.935237164940152e-12,2.227768601785907e-09
	-9.885979319079207e-13,1.298582955552731e-15
	-9.885979319079207e-13,1.298582955552731e-15
	9.885987847910345e-13,0.0
	-2.400995985543989e+02,0.0
	3.140279094086213e+00,0.0

 13	1.453784385607663e-03,0.000000000000000e+00
	1.000000000000000e+00,0.000000000000000e+00
	2.171371775824746e-12,2.428678709426294e-09
	-1.109225051799581e-12,1.499580153118232e-15
	-1.109225051799581e-12,1.499580153118232e-15
	1.109226065453034e-12,0.0
	-2.390995986717246e+02,0.0
	3.140240737459606e+00,0.0

 14	1.496235656094435e-03,0.000000000000000e+00
	1.000000000000000e+00,0.000000000000000e+00
	2.436319160021965e-12,2.647707781862501e-09
	-1.244570892894914e-12,1.731688084774439e-15
	-1.244570892894914e-12,1.731688084774439e-15
	1.244572097624266e-12,0.0
	-2.380995987959985e+02,0.0
	3.140201260799588e+00,0.0

 15	1.539926526059493e-03,0.000000000000000e+00
	1.000000000000000e+00,0.000000000000000e+00
	2.733595006287625e-12,2.886489866987844e-09
	-1.396431408255506e-12,1.999722129216098e-15
	-1.396431408255506e-12,1.999722129216098e-15
	1.396432840078981e-12,0.0
	-2.370995989276444e+02,0.0
	3.140160631400620e+00,0.0

 16	1.584893192461115e-03,0.000000000000000e+00
	1.000000000000000e+00,0.000000000000000e+00
	3.067143982047476e-12,3.146806378212106e-09
	-1.566821689882621e-12,2.309242998463319e-15
	-1.566821689882621e-12,2.309242998463319e-15
	1.566823391607956e-12,0.0
	-2.360995990670887e+02,0.0
	3.140118815602146e+00,0.0

 17	1.631172909227840e-03,0.000000000000000e+00
	1.000000000000000e+00,0.000000000000000e+00
	3.441392076655960e-12,3.430599384495833e-09
	-1.758002707617589e-12,2.666672101903862e-15
	-1.758002707617589e-12,2.666672101903862e-15
	1.758004730121871e-12,0.0
	-2.350995992147892e+02,0.0
	3.140075778760709e+00,0.0

 18	1.678804018122562e-03,0.000000000000000e+00
	1.000000000000000e+00,0.000000000000000e+00
	3.861305331490688e-12,3.739986098935241e-09
	-1.972511310664938e-12,3.079424766583211e-15
	-1.972511310664938e-12,3.079424766583211e-15
	1.972513714415696e-12,0.0
	-2.340995993712494e+02,0.0
	3.140031485221247e+00,0.0

 19	1.727825980507865e-03,0.000000000000000e+00
	1.000000000000000e+00,0.000000000000000e+00
	4.332455736221617e-12,4.077274674008245e-09
	-2.213193889846697e-12,3.556064077583710e-15
	-2.213193889846697e-12,3.556064077583710e-15
	2.213196746709718e-12,0.0
	-2.330995995369786e+02,0.0
	3.139985898287553e+00,0.0

 20	1.778279410038925e-03,0.000000000000000e+00
	1.000000000000000e+00,0.000000000000000e+00
	4.861095165593034e-12,4.444981421269588e-09
	-2.483244147234218e-12,4.106478530055966e-15
	-2.483244147234218e-12,4.106478530055966e-15
	2.483247542622144e-12,0.0
	-2.320995997125232e+02,0.0
	3.139938980191876e+00,0.0

 21	1.830206106311058e-03,0.000000000000000e+00
	1.000000000000000e+00,0.000000000000000e+00
	5.454238337848908e-12,4.845849583992883e-09
	-2.786245474346786e-12,4.742087178537883e-15
	-2.786245474346786e-12,4.742087178537883e-15
	2.786249509772726e-12,0.0
	-2.310995998984747e+02,0.0
	3.139890692063632e+00,0.0

 22	1.883649089489803e-03,0.000000000000000e+00
	1.000000000000000e+00,0.000000000000000e+00
	6.119755895632377e-12,5.282869802822192e-09
	-3.126218501249878e-12,5.476076539656182e-15
	-3.126218501249878e-12,5.476076539656182e-15
	3.126223297362379e-12,0.0
	-2.300996000954420e+02,0.0
	3.139840993897198e+00,0.0

 23	1.938652635952210e-03,0.000000000000000e+00
	1.000000000000000e+00,0.000000000000000e+00
	6.866478844398819e-12,5.759302427060950e-09
	-3.507674447461173e-12,6.323674162981675e-15
	-3.507674447461173e-12,6.323674162981675e-15
	3.507680147651288e-12,0.0
	-2.290996003040859e+02,0.0
	3.139789844518770e+00,0.0

 24	1.995262314968882e-03,0.000000000000000e+00
	1.000000000000000e+00,0.000000000000000e+00
	7.704315734280277e-12,6.278701838118083e-09
	-3.935674982627248e-12,7.302464545682997e-15
	-3.935674982627248e-12,7.302464545682997e-15
	3.935681757315552e-12,0.0
	-2.280996005250860e+02,0.0
	3.139737201552253e+00,0.0

 25	2.053525026457149e-03,0.000000000000000e+00
	1.000000000000000e+00,0.000000000000000e+00
	8.644384140196901e-12,6.844942966484818e-09
	-4.415899391220590e-12,8.432753944902242e-15
	-4.415899391220590e-12,8.432753944902242e-15
	4.415907442952295e-12,0.0
	-2.270996007591837e+02,0.0
	3.139683021384154e+00,0.0

 26	2.113489039836650e-03,0.000000000000000e+00
	1.000000000000000e+00,0.000000000000000e+00
	9.699158185006125e-12,7.462250200161009e-09
	-4.954719932531831e-12,9.737991656439863e-15
	-4.954719932531831e-12,9.737991656439863e-15
	4.954729502032349e-12,0.0
	-2.260996010071519e+02,0.0
	3.139627259127446e+00,0.0

 27	2.175204034019526e-03,0.000000000000000e+00
	1.000000000000000e+00,0.000000000000000e+00
	1.088263406310978e-11,8.135228900115258e-09
	-5.559286395869706e-12,1.124525649957948e-14
	-5.559286395869706e-12,1.124525649957948e-14
	5.559297769241698e-12,0.0
	-2.250996012698129e+02,0.0
	3.139569868584387e+00,0.0

 28	2.238721138568343e-03,0.000000000000000e+00
	1.000000000000000e+00,0.000000000000000e+00
	1.221051576096600e-11,8.868899757939372e-09
	-6.237620972969939e-12,1.298581860081192e-14
	-6.237620972969939e-12,1.298581860081192e-14
	6.237634490247018e-12,0.0
	-2.240996015480365e+02,0.0
	3.139510802208242e+00,0.0

 29	2.304092976055850e-03,0.000000000000000e+00
	1.000000000000000e+00,0.000000000000000e+00
	1.370042343886211e-11,9.668736251990014e-09
	-6.998724706468721e-12,1.499578813129579e-14
	-6.998724706468721e-12,1.499578813129579e-14
	6.998740771781547e-12,0.0
	-2.230996018427472e+02,0.0
	3.139450011063893e+00,0.0

 30	2.371373705661660e-03,0.000000000000000e+00
	1.000000000000000e+00,0.000000000000000e+00
	1.537212723905175e-11,1.054070548146625e-08
	-7.852696926925270e-12,1.731686445689413e-14
	-7.852696926925270e-12,1.731686445689413e-14
	7.852716020583974e-12,0.0
	-2.220996021549223e+02,0.0
	3.139387444787301e+00,0.0

 31	2.440619068041985e-03,0.000000000000000e+00
	1.000000000000000e+00,0.000000000000000e+00
	1.724780962272526e-11,1.149131268304678e-08
	-8.810869263205540e-12,1.999720124277174e-14
	-8.810869263205540e-12,1.999720124277174e-14
	8.810891956059708e-12,0.0
	-2.210996024855917e+02,0.0
	3.139323051543778e+00,0.0

 32	2.511886431509585e-03,0.000000000000000e+00
	1.000000000000000e+00,0.000000000000000e+00
	1.935235971677771e-11,1.252764976216156e-08
	-9.885956004393383e-12,2.309240546007930e-14
	-9.885956004393383e-12,2.309240546007930e-14
	9.885982974898932e-12,0.0
	-2.200996028358577e+02,0.0
	3.139256777985048e+00,0.0

 33	2.585234839562196e-03,0.000000000000000e+00
	1.000000000000000e+00,0.000000000000000e+00
	2.171370357629155e-11,1.365744820102509e-08
	-1.109222280844014e-11,2.666669102041071e-14
	-1.109222280844014e-11,2.666669102041071e-14
	1.109225486294332e-11,0.0
	-2.190996032068775e+02,0.0
	3.139188569205044e+00,0.0

 34	2.660725059798815e-03,0.000000000000000e+00
	1.000000000000000e+00,0.000000000000000e+00
	2.436317474492120e-11,1.488913673804427e-08
	-1.244567599607806e-11,3.079421097131627e-14
	-1.244567599607806e-11,3.079421097131627e-14
	1.244571409292303e-11,0.0
	-2.180996035998802e+02,0.0
	3.139118368694429e+00,0.0

 35	2.738419634264367e-03,0.000000000000000e+00
	1.000000000000000e+00,0.000000000000000e+00
	2.733593003032403e-11,1.623190424895146e-08
	-1.396427494177145e-11,3.556059589084490e-14
	-1.396427494177145e-11,3.556059589084490e-14
	1.396432021995221e-11,0.0
	-2.170996040161722e+02,0.0
	3.139046118293775e+00,0.0

 36	2.818382931264460e-03,0.000000000000000e+00
	1.000000000000000e+00,0.000000000000000e+00
	3.067141601176615e-11,1.769576829879037e-08
	-1.566817037993262e-11,4.106473039692297e-14
	-1.566817037993262e-11,4.106473039692297e-14
	1.566822419314583e-11,0.0
	-2.160996044571253e+02,0.0
	3.138971758145380e+00,0.0

 37	2.900681198693160e-03,0.000000000000000e+00
	1.000000000000000e+00,0.000000000000000e+00
	3.441389246983318e-11,1.929164987604051e-08
	-1.757997178836399e-11,4.742080462687922e-14
	-1.757997178836399e-11,4.742080462687922e-14
	1.758003574548088e-11,0.0
	-2.150996049242104e+02,0.0
	3.138895226643683e+00,0.0

 38	2.985382618917966e-03,0.000000000000000e+00
	1.000000000000000e+00,0.000000000000000e+00
	3.861301968418418e-11,2.103145486659439e-08
	-1.972504739696958e-11,5.476068324778402e-14
	-1.972504739696958e-11,5.476068324778402e-14
	1.972512341013678e-11,0.0
	-2.140996054189754e+02,0.0
	3.138816460384225e+00,0.0

 39	3.072557365267454e-03,0.000000000000000e+00
	1.000000000000000e+00,0.000000000000000e+00
	4.332451739204823e-11,2.292816287524177e-08
	-2.213186080238381e-11,6.323664114491237e-14
	-2.213186080238381e-11,6.323664114491237e-14
	2.213195114419142e-11,0.0
	-2.130996059430521e+02,0.0
	3.138735394111120e+00,0.0

 40	3.162277660168387e-03,0.000000000000000e+00
	1.000000000000000e+00,0.000000000000000e+00
	4.861090415127385e-11,2.499592405726243e-08
	-2.483234865497742e-11,7.302452254297821e-14
	-2.483234865497742e-11,7.302452254297821e-14
	2.483245602640326e-11,0.0
	-2.120996064981836e+02,0.0
	3.138651960662997e+00,0.0

 41	3.254617834980467e-03,0.000000000000000e+00
	1.000000000000000e+00,0.000000000000000e+00
	5.454232691907905e-11,2.725016468264297e-08
	-2.786234442982967e-11,8.432738909989136e-14
	-2.786234442982967e-11,8.432738909989136e-14
	2.786247204099114e-11,0.0
	-2.110996070862139e+02,0.0
	3.138566090917359e+00,0.0

 42	3.349654391578285e-03,0.000000000000000e+00
	1.000000000000000e+00,0.000000000000000e+00
	6.119749185419294e-11,2.970770222035174e-08
	-3.126205390451624e-11,9.737973265630725e-14
	-3.126205390451624e-11,9.737973265630725e-14
	3.126220557064411e-11,0.0
	-2.100996077090812e+02,0.0
	3.138477713733318e+00,0.0

 43	3.447466065731503e-03,0.000000000000000e+00
	1.000000000000000e+00,0.000000000000000e+00
	6.866470869303627e-11,3.238687080105600e-08
	-3.507658865253973e-11,1.124523400381794e-13
	-3.507658865253973e-11,1.124523400381794e-13
	3.507676890804310e-11,0.0
	-2.090996083688539e+02,0.0
	3.138386755892661e+00,0.0

 44	3.548133892335764e-03,0.000000000000000e+00
	1.000000000000000e+00,0.000000000000000e+00
	7.704306255854645e-11,3.530765799446936e-08
	-3.935656463139353e-11,1.298579108382902e-13
	-3.935656463139353e-11,1.298579108382902e-13
	3.935677886542626e-11,0.0
	-2.080996090677287e+02,0.0
	3.138293142039192e+00,0.0

 45	3.651741272548387e-03,0.000000000000000e+00
	1.000000000000000e+00,0.000000000000000e+00
	8.644372875075045e-11,3.849185392170350e-08
	-4.415877380775345e-11,1.499575447234253e-13
	-4.415877380775345e-11,1.499575447234253e-13
	4.415902842533508e-11,0.0
	-2.070996098080036e+02,0.0
	3.138196794616305e+00,0.0

 46	3.758374042884452e-03,0.000000000000000e+00
	1.000000000000000e+00,0.000000000000000e+00
	9.699144796382427e-11,4.196321381446719e-08
	-4.954693773072829e-11,1.731682328503013e-13
	-4.954693773072829e-11,1.731682328503013e-13
	4.954724034423647e-11,0.0
	-2.060996105921498e+02,0.0
	3.138097633802736e+00,0.0

 47	3.868120546330533e-03,0.000000000000000e+00
	1.000000000000000e+00,0.000000000000000e+00
	1.088261815070071e-10,4.574763523470079e-08
	-5.559255305300828e-11,1.999715088105843e-13
	-5.559255305300828e-11,1.999715088105843e-13
	5.559291270976793e-11,0.0
	-2.050996114227579e+02,0.0
	3.137995577446430e+00,0.0

 48	3.981071705534985e-03,0.000000000000000e+00
	1.000000000000000e+00,0.000000000000000e+00
	1.221049684903149e-10,4.987335127575563e-08
	-6.237584021766843e-11,2.309234385728904e-13
	-6.237584021766843e-11,2.309234385728904e-13
	6.237626767044165e-11,0.0
	-2.040996123025828e+02,0.0
	3.137890540996492e+00,0.0

 49	4.097321098135428e-03,0.000000000000000e+00
	1.000000000000000e+00,0.000000000000000e+00
	1.370040096198838e-10,5.437114118698795e-08
	-6.998680789892418e-11,2.666661566745977e-13
	-6.998680789892418e-11,2.666661566745977e-13
	6.998731592738809e-11,0.0
	-2.030996132345399e+02,0.0
	3.137782437433135e+00,0.0

 50	4.216965034285836e-03,0.000000000000000e+00
	1.000000000000000e+00,0.000000000000000e+00
	1.537210052524784e-10,5.927455999270702e-08
	-7.852644731993463e-11,3.079411879907474e-13
	-7.852644731993463e-11,3.079411879907474e-13
	7.852705111275813e-11,0.0
	-2.020996142217171e+02,0.0
	3.137671177195601e+00,0.0

 51	4.340102636447452e-03,0.000000000000000e+00
	1.000000000000000e+00,0.000000000000000e+00
	1.724777787331059e-10,6.462018881841651e-08
	-8.810807229428530e-11,3.556048314514043e-13
	-8.810807229428530e-11,3.556048314514043e-13
	8.810878990322791e-11,0.0
	-2.010996152673899e+02,0.0
	3.137556668107956e+00,0.0

 52	4.466835921509646e-03,0.000000000000000e+00
	1.000000000000000e+00,0.000000000000000e+00
	1.935232198253127e-10,7.044790779182520e-08
	-9.885882277132378e-11,4.106459248557783e-13
	-9.885882277132378e-11,4.106459248557783e-13
	9.885967565093265e-11,0.0
	-2.000996163750248e+02,0.0
	3.137438815302741e+00,0.0

 53	4.597269885308737e-03,0.000000000000000e+00
	1.000000000000000e+00,0.000000000000000e+00
	2.171365872906847e-10,7.680119355427766e-08
	-1.109213518345558e-10,4.742063593279144e-13
	-1.109213518345558e-10,4.742063593279144e-13
	1.109223654835964e-10,0.0
	-1.990996175482883e+02,0.0
	3.137317521142374e+00,0.0

 54	4.731512589614821e-03,0.000000000000000e+00
	1.000000000000000e+00,0.000000000000000e+00
	2.436312144389154e-10,8.372744360178270e-08
	-1.244557185361833e-10,5.476047690003881e-13
	-1.244557185361833e-10,5.476047690003881e-13
	1.244569232599806e-10,0.0
	-1.980996187910755e+02,0.0
	3.137192685138274e+00,0.0

 55	4.869675251658647e-03,0.000000000000000e+00
	1.000000000000000e+00,0.000000000000000e+00
	2.733586668196503e-10,9.127832987563135e-08
	-1.396415116827879e-10,6.323638873897764e-13
	-1.396415116827879e-10,6.323638873897764e-13
	1.396429434992698e-10,0.0
	-1.970996201074956e+02,0.0
	3.137064203867609e+00,0.0

 56	5.011872336272740e-03,0.000000000000000e+00
	1.000000000000000e+00,0.000000000000000e+00
	3.067134072209137e-10,9.951018423925055e-08
	-1.566802327490604e-10,7.302421379832717e-13
	-1.566802327490604e-10,7.302421379832717e-13
	1.566819344655912e-10,0.0
	-1.960996215019237e+02,0.0
	3.136931970887629e+00,0.0

 57	5.158221650723075e-03,0.000000000000000e+00
	1.000000000000000e+00,0.000000000000000e+00
	3.441380298791405e-10,1.084844187181302e-07
	-1.757979695378578e-10,8.432701144144820e-13
	-1.757979695378578e-10,8.432701144144820e-13
	1.757999920310562e-10,0.0
	-1.950996229789729e+02,0.0
	3.136795876647481e+00,0.0

 58	5.308844442309902e-03,0.000000000000000e+00
	1.000000000000000e+00,0.000000000000000e+00
	3.861291333475668e-10,1.182679836359779e-07
	-1.972483960577492e-10,9.737927070194944e-13
	-1.972483960577492e-10,9.737927070194944e-13
	1.972507997945533e-10,0.0
	-1.940996245435463e+02,0.0
	3.136655808397467e+00,0.0

 59	5.463865498818562e-03,0.000000000000000e+00
	1.000000000000000e+00,0.000000000000000e+00
	4.332439099552687e-10,1.289338670660304e-07
	-2.213161384218880e-10,1.124517749724818e-12
	-2.213161384218880e-10,1.124517749724818e-12
	2.213189952673420e-10,0.0
	-1.930996262008258e+02,0.0
	3.136511650095638e+00,0.0

 60	5.623413251903512e-03,0.000000000000000e+00
	1.000000000000000e+00,0.000000000000000e+00
	4.861075392874273e-10,1.405616393218420e-07
	-2.483205514236588e-10,1.298572196462428e-12
	-2.483205514236588e-10,1.298572196462428e-12
	2.483239467894697e-10,0.0
	-1.920996279563065e+02,0.0
	3.136363282311672e+00,0.0

 61	5.787619883491228e-03,0.000000000000000e+00
	1.000000000000000e+00,0.000000000000000e+00
	5.454214837936726e-10,1.532380465499799e-07
	-2.786199558963394e-10,1.499566992526991e-12
	-2.786199558963394e-10,1.499566992526991e-12
	2.786239912944382e-10,0.0
	-1.910996298158009e+02,0.0
	3.136210582127937e+00,0.0

 62	5.956621435290127e-03,0.000000000000000e+00
	1.000000000000000e+00,0.000000000000000e+00
	6.119727965937357e-10,1.670576578513274e-07
	-3.126163930737169e-10,1.731671986649525e-12
