Title: * sky130 bjt 3-stage explicit output low-pass section ac: rlp=68k, clp=33p, cload=10p
Date: Fri May 22 22:54:42  2026
Command: ngspice-46, Build Mar 29 2026   15:02:07
Plotname: AC Analysis
Flags: complex
No. Variables: 9
No. Points: 721
Variables:
	0	frequency	frequency grid=3
	1	v(vin)	voltage
	2	v(b3_collector)	voltage
	3	v(vout_drv)	voltage
	4	v(vout_final)	voltage
	5	gain	notype
	6	gain_vv	notype
	7	gain_db	decibel
	8	phase_deg	phase
Values:
 0	1.000000000000000e-03,0.000000000000000e+00
	1.000000000000000e+00,0.000000000000000e+00
	4.861096667811734e-13,7.904423276608954e-10
	-2.483247080632832e-13,2.310648217392870e-16
	-2.483247080590380e-13,2.310693839692263e-16
	-2.483247080590380e-13,2.310693839692263e-16
	2.483248155655545e-13,0.0
	-2.520995975682586e+02,0.0
	3.140662140798358e+00,0.0

 1	1.029200527194428e-03,0.000000000000000e+00
	1.000000000000000e+00,0.000000000000000e+00
	5.454240123239796e-13,8.617279547834594e-10
	-2.786248960697592e-13,2.668294890121830e-16
	-2.786248960647138e-13,2.668347573929561e-16
	-2.786248960647138e-13,2.668347573929561e-16
	2.786250238364464e-13,0.0
	-2.510995976271539e+02,0.0
	3.140634969335496e+00,0.0

 2	1.059253725177289e-03,0.000000000000000e+00
	1.000000000000000e+00,0.000000000000000e+00
	6.119758017573528e-13,9.394424379971301e-10
	-3.126222644785518e-13,3.081298814791152e-16
	-3.126222644725553e-13,3.081359653101115e-16
	-3.126222644725553e-13,3.081359653101115e-16
	3.126224163295419e-13,0.0
	-2.500995976895365e+02,0.0
	3.140607004451704e+00,0.0

 3	1.090184492385128e-03,0.000000000000000e+00
	1.000000000000000e+00,0.000000000000000e+00
	6.866481366332085e-13,1.024165560113937e-09
	-3.507679372062815e-13,3.558228294514256e-16
	-3.507679371991546e-13,3.558298549496023e-16
	-3.507679371991546e-13,3.558298549496023e-16
	3.507681176815186e-13,0.0
	-2.490995977556201e+02,0.0
	3.140578222978681e+00,0.0

 4	1.122018454301964e-03,0.000000000000000e+00
	1.000000000000000e+00,0.000000000000000e+00
	7.704318731604254e-13,1.116529391318429e-09
	-3.935680835527276e-13,4.108977850881166e-16
	-3.935680835442572e-13,4.109058980065317e-16
	-3.935680835442572e-13,4.109058980065317e-16
	3.935682980479455e-13,0.0
	-2.480995978256134e+02,0.0
	3.140548601071601e+00,0.0

 5	1.154781984689459e-03,0.000000000000000e+00
	1.000000000000000e+00,0.000000000000000e+00
	8.644387702522303e-13,1.217223004666012e-09
	-4.415906347404745e-13,4.744973498559279e-16
	-4.415906347304076e-13,4.745067185075745e-16
	-4.415906347304076e-13,4.745067185075745e-16
	4.415908896685145e-13,0.0
	-2.470995978997577e+02,0.0
	3.140518114189360e+00,0.0

 6	1.188502227437019e-03,0.000000000000000e+00
	1.000000000000000e+00,0.000000000000000e+00
	9.699162418836255e-13,1.326997616853322e-09
	-4.954728199970920e-13,5.479409792713135e-16
	-4.954728199851274e-13,5.479517980209879e-16
	-4.954728199851274e-13,5.479517980209879e-16
	4.954731229796298e-13,0.0
	-2.460995979782954e+02,0.0
	3.140486737074239e+00,0.0

 7	1.223207119049932e-03,0.000000000000000e+00
	1.000000000000000e+00,0.000000000000000e+00
	1.088263909502485e-12,1.446672192599208e-09
	-5.559296221738376e-13,6.327523567040262e-16
	-5.559296221596177e-13,6.327648500006747e-16
	-5.559296221596177e-13,6.327648500006747e-16
	5.559299822692519e-13,0.0
	-2.450995980614861e+02,0.0
	3.140454443730982e+00,0.0

 8	1.258925411794168e-03,0.000000000000000e+00
	1.000000000000000e+00,0.000000000000000e+00
	1.221052174141143e-12,1.577139554454867e-09
	-6.237632651037041e-13,7.306910041498555e-16
	-6.237632650868037e-13,7.307054311830544e-16
	-6.237632650868037e-13,7.307054311830544e-16
	6.237636930778973e-13,0.0
	-2.440995981496028e+02,0.0
	3.140421207405261e+00,0.0

 9	1.295686697517020e-03,0.000000000000000e+00
	1.000000000000000e+00,0.000000000000000e+00
	1.370043054663071e-12,1.719373043619459e-09
	-6.998738585874827e-13,8.437887857752156e-16
	-6.998738585673963e-13,8.438054458523897e-16
	-6.998738585673963e-13,8.438054458523897e-16
	6.998743672357534e-13,0.0
	-2.430995982429457e+02,0.0
	3.140387000561506e+00,0.0

 10	1.333521432163325e-03,0.000000000000000e+00
	1.000000000000000e+00,0.000000000000000e+00
	1.537213568665434e-12,1.874433781462887e-09
	-7.852713422630888e-13,9.743920615514514e-16
	-7.852713422392162e-13,9.744113003073883e-16
	-7.852713422392162e-13,9.744113003073883e-16
	7.852719467926779e-13,0.0
	-2.420995983418171e+02,0.0
	3.140351794860098e+00,0.0

 11	1.372460961007563e-03,0.000000000000000e+00
	1.000000000000000e+00,0.000000000000000e+00
	1.724781966271584e-12,2.043478585913826e-09
	-8.810888868385076e-13,1.125210365500366e-15
	-8.810888868101350e-13,1.125232582067848e-15
	-8.810888868101350e-13,1.125232582067848e-15
	8.810896053232536e-13,0.0
	-2.410995984465474e+02,0.0
	3.140315561133885e+00,0.0

 12	1.412537544622755e-03,0.000000000000000e+00
	1.000000000000000e+00,0.000000000000000e+00
	1.935237164931796e-12,2.227768601785907e-09
	-9.885979305186652e-13,1.299372618449767e-15
	-9.885979304849442e-13,1.299398273740090e-15
	-9.885979304849442e-13,1.299398273740090e-15
	9.885987844393640e-13,0.0
	-2.400995985574887e+02,0.0
	3.140278269364024e+00,0.0

 13	1.453784385607663e-03,0.000000000000000e+00
	1.000000000000000e+00,0.000000000000000e+00
	2.171371775814814e-12,2.428678709426294e-09
	-1.109225050148452e-12,1.500492041504158e-15
	-1.109225050108375e-12,1.500521667769317e-15
	-1.109225050108375e-12,1.500521667769317e-15
	1.109226065035078e-12,0.0
	-2.390995986749974e+02,0.0
	3.140239888655105e+00,0.0

 14	1.496235656094435e-03,0.000000000000000e+00
	1.000000000000000e+00,0.000000000000000e+00
	2.436319160010160e-12,2.647707781862501e-09
	-1.244570890932543e-12,1.732741116930327e-15
	-1.244570890884911e-12,1.732775328805262e-15
	-1.244570890884911e-12,1.732775328805262e-15
	1.244572097127523e-12,0.0
	-2.380995987994652e+02,0.0
	3.140200387209558e+00,0.0

 15	1.539926526059493e-03,0.000000000000000e+00
	1.000000000000000e+00,0.000000000000000e+00
	2.733595006273595e-12,2.886489866987844e-09
	-1.396431405923212e-12,2.000938151627041e-15
	-1.396431405866601e-12,2.000977658881010e-15
	-1.396431405866601e-12,2.000977658881010e-15
	1.396432839488589e-12,0.0
	-2.370995989313167e+02,0.0
	3.140159732301313e+00,0.0

 16	1.584893192461115e-03,0.000000000000000e+00
	1.000000000000000e+00,0.000000000000000e+00
	3.067143982030802e-12,3.146806378212106e-09
	-1.566821687110693e-12,2.310647239050601e-15
	-1.566821687043411e-12,2.310692861312239e-15
	-1.566821687043411e-12,2.310692861312239e-15
	1.566823390906282e-12,0.0
	-2.360995990709785e+02,0.0
	3.140117890248678e+00,0.0

 17	1.631172909227840e-03,0.000000000000000e+00
	1.000000000000000e+00,0.000000000000000e+00
	3.441392076636144e-12,3.430599384495833e-09
	-1.758002704323142e-12,2.668293693408860e-15
	-1.758002704243177e-12,2.668346377170409e-15
	-1.758002704243177e-12,2.668346377170409e-15
	1.758004729287926e-12,0.0
	-2.350995992189095e+02,0.0
	3.140074826386446e+00,0.0

 18	1.678804018122562e-03,0.000000000000000e+00
	1.000000000000000e+00,0.000000000000000e+00
	3.861305331467135e-12,3.739986098935241e-09
	-1.972511306749502e-12,3.081297350961645e-15
	-1.972511306654464e-12,3.081358189215118e-15
	-1.972511306654464e-12,3.081358189215118e-15
	1.972513713424571e-12,0.0
	-2.340995993756138e+02,0.0
	3.140030505037168e+00,0.0

 19	1.727825980507865e-03,0.000000000000000e+00
	1.000000000000000e+00,0.000000000000000e+00
	4.332455736193624e-12,4.077274674008245e-09
	-2.213193885193161e-12,3.558226503948489e-15
	-2.213193885080207e-12,3.558296758861156e-15
	-2.213193885080207e-12,3.558296758861156e-15
	2.213196745531731e-12,0.0
	-2.330995995416017e+02,0.0
	3.139984889481599e+00,0.0

 20	1.778279410038925e-03,0.000000000000000e+00
	1.000000000000000e+00,0.000000000000000e+00
	4.861095165559765e-12,4.444981421269588e-09
	-2.483244141703495e-12,4.108975660649151e-15
	-2.483244141569250e-12,4.109056789748781e-15
	-2.483244141569250e-12,4.109056789748781e-15
	2.483247541222119e-12,0.0
	-2.320995997174202e+02,0.0
	3.139937941928275e+00,0.0

 21	1.830206106311058e-03,0.000000000000000e+00
	1.000000000000000e+00,0.000000000000000e+00
	5.454238337809369e-12,4.845849583992883e-09
	-2.786245467773520e-12,4.744970819451345e-15
	-2.786245467613969e-12,4.745064505864423e-15
	-2.786245467613969e-12,4.745064505864423e-15
	2.786249508108804e-12,0.0
	-2.310995999036618e+02,0.0
	3.139889623482206e+00,0.0

 22	1.883649089489803e-03,0.000000000000000e+00
	1.000000000000000e+00,0.000000000000000e+00
	6.119755895585383e-12,5.282869802822192e-09
	-3.126218493437579e-12,5.479406515610859e-15
	-3.126218493247952e-12,5.479514702981138e-15
	-3.126218493247952e-12,5.479514702981138e-15
	3.126223295384845e-12,0.0
	-2.300996001009364e+02,0.0
	3.139839894112652e+00,0.0

 23	1.938652635952210e-03,0.000000000000000e+00
	1.000000000000000e+00,0.000000000000000e+00
	6.866478844342966e-12,5.759302427060950e-09
	-3.507674438176176e-12,6.327519558461873e-15
	-3.507674437950804e-12,6.327644491273665e-15
	-3.507674437950804e-12,6.327644491273665e-15
	3.507680145300922e-12,0.0
	-2.290996003099060e+02,0.0
	3.139788712619959e+00,0.0

 24	1.995262314968882e-03,0.000000000000000e+00
	1.000000000000000e+00,0.000000000000000e+00
	7.704315734213896e-12,6.278701838118083e-09
	-3.935674971592031e-12,7.306905138176035e-15
	-3.935674971324177e-12,7.307049408318804e-15
	-3.935674971324177e-12,7.307049408318804e-15
	3.935681754522158e-12,0.0
	-2.280996005312509e+02,0.0
	3.139736036601426e+00,0.0

 25	2.053525026457149e-03,0.000000000000000e+00
	1.000000000000000e+00,0.000000000000000e+00
	8.644384140118007e-12,6.844942966484818e-09
	-4.415899378105228e-12,8.437881859975108e-15
	-4.415899377786882e-12,8.438048460515394e-15
	-4.415899377786882e-12,8.438048460515394e-15
	4.415907439632356e-12,0.0
	-2.270996007657139e+02,0.0
	3.139681822416176e+00,0.0

 26	2.113489039836650e-03,0.000000000000000e+00
	1.000000000000000e+00,0.000000000000000e+00
	9.699158184912363e-12,7.462250200161009e-09
	-4.954719916944175e-12,9.743913278991159e-15
	-4.954719916565821e-12,9.744105666267410e-15
	-4.954719916565821e-12,9.744105666267410e-15
	4.954729498086576e-12,0.0
	-2.260996010140690e+02,0.0
	3.139626025149002e+00,0.0

 27	2.175204034019526e-03,0.000000000000000e+00
	1.000000000000000e+00,0.000000000000000e+00
	1.088263406299834e-11,8.135228900115258e-09
	-5.559286377343777e-12,1.125209468091700e-14
	-5.559286376894102e-12,1.125231684624551e-14
	-5.559286376894102e-12,1.125231684624551e-14
	5.559297764552171e-12,0.0
	-2.250996012771398e+02,0.0
	3.139568598573155e+00,0.0

 28	2.238721138568343e-03,0.000000000000000e+00
	1.000000000000000e+00,0.000000000000000e+00
	1.221051576083355e-11,8.868899757939372e-09
	-6.237620950951775e-12,1.299371520734289e-14
	-6.237620950417334e-12,1.299397175982251e-14
	-6.237620950417334e-12,1.299397175982251e-14
	6.237634484673444e-12,0.0
	-2.240996015557977e+02,0.0
	3.139509495112048e+00,0.0

 29	2.304092976055850e-03,0.000000000000000e+00
	1.000000000000000e+00,0.000000000000000e+00
	1.370042343870469e-11,9.668736251990014e-09
	-6.998724680300096e-12,1.500490698770697e-14
	-6.998724679664912e-12,1.500520324984040e-14
	-6.998724679664912e-12,1.500520324984040e-14
	6.998740765157351e-12,0.0
	-2.230996018509682e+02,0.0
	3.139448665799840e+00,0.0

 30	2.371373705661660e-03,0.000000000000000e+00
	1.000000000000000e+00,0.000000000000000e+00
	1.537212723886467e-11,1.054070548146625e-08
	-7.852696895823761e-12,1.732739474487821e-14
	-7.852696895068844e-12,1.732773686299374e-14
	-7.852696895068844e-12,1.732773686299374e-14
	7.852716012711056e-12,0.0
	-2.220996021636306e+02,0.0
	3.139386060240872e+00,0.0

 31	2.440619068041985e-03,0.000000000000000e+00
	1.000000000000000e+00,0.000000000000000e+00
	1.724780962250291e-11,1.149131268304678e-08
	-8.810869226241430e-12,2.000936142581278e-14
	-8.810869225344210e-12,2.000975649757718e-14
	-8.810869225344210e-12,2.000975649757718e-14
	8.810891946702830e-12,0.0
	-2.210996024948159e+02,0.0
	3.139321626567910e+00,0.0

 32	2.511886431509585e-03,0.000000000000000e+00
	1.000000000000000e+00,0.000000000000000e+00
	1.935235971651344e-11,1.252764976216156e-08
	-9.885955960461398e-12,2.310644781571659e-14
	-9.885955959395049e-12,2.310690403738463e-14
	-9.885955959395049e-12,2.310690403738463e-14
	9.885982963778193e-12,0.0
	-2.200996028456285e+02,0.0
	3.139255311399184e+00,0.0

 33	2.585234839562196e-03,0.000000000000000e+00
	1.000000000000000e+00,0.000000000000000e+00
	2.171370357597747e-11,1.365744820102509e-08
	-1.109222275622696e-11,2.668290687401256e-14
	-1.109222275495960e-11,2.668343371046803e-14
	-1.109222275495960e-11,2.668343371046803e-14
	1.109225484972637e-11,0.0
	-2.190996032172272e+02,0.0
	3.139187059794156e+00,0.0

 34	2.660725059798815e-03,0.000000000000000e+00
	1.000000000000000e+00,0.000000000000000e+00
	2.436317474454792e-11,1.488913673804428e-08
	-1.244567593402260e-11,3.081293673993643e-14
	-1.244567593251635e-11,3.081354512105220e-14
	-1.244567593251635e-11,3.081354512105220e-14
	1.244571407721468e-11,0.0
	-2.180996036108431e+02,0.0
	3.139116815208008e+00,0.0

 35	2.738419634264367e-03,0.000000000000000e+00
	1.000000000000000e+00,0.000000000000000e+00
	2.733593002988038e-11,1.623190424895146e-08
	-1.396427486801864e-11,3.558222006255283e-14
	-1.396427486622845e-11,3.558292260994385e-14
	-1.396427486622845e-11,3.558292260994385e-14
	1.396432020128302e-11,0.0
	-2.170996040277846e+02,0.0
	3.139044519444797e+00,0.0

 36	2.818382931264460e-03,0.000000000000000e+00
	1.000000000000000e+00,0.000000000000000e+00
	3.067141601123888e-11,1.769576829879037e-08
	-1.566817029227702e-11,4.108970159039222e-14
	-1.566817029014938e-11,4.109051287926544e-14
	-1.566817029014938e-11,4.109051287926544e-14
	1.566822417095723e-11,0.0
	-2.160996044694259e+02,0.0
	3.138970112609241e+00,0.0

 37	2.900681198693160e-03,0.000000000000000e+00
	1.000000000000000e+00,0.000000000000000e+00
	3.441389246920650e-11,1.929164987604051e-08
	-1.757997168418517e-11,4.744964089844864e-14
	-1.757997168165646e-11,4.745057775998244e-14
	-1.757997168165646e-11,4.745057775998244e-14
	1.758003571910969e-11,0.0
	-2.150996049372398e+02,0.0
	3.138893533057100e+00,0.0

 38	2.985382618917966e-03,0.000000000000000e+00
	1.000000000000000e+00,0.000000000000000e+00
	3.861301968343938e-11,2.103145486659439e-08
	-1.972504727315288e-11,5.479398283905929e-14
	-1.972504727014750e-11,5.479506470958545e-14
	-1.972504727014750e-11,5.479506470958545e-14
	1.972512337879462e-11,0.0
	-2.140996054327768e+02,0.0
	3.138814717344107e+00,0.0

 39	3.072557365267454e-03,0.000000000000000e+00
	1.000000000000000e+00,0.000000000000000e+00
	4.332451739116304e-11,2.292816287524177e-08
	-2.213186065522736e-11,6.327509489388479e-14
	-2.213186065165546e-11,6.327634421811703e-14
	-2.213186065165546e-11,6.327634421811703e-14
	2.213195110694114e-11,0.0
	-2.130996059576713e+02,0.0
	3.138733600173405e+00,0.0

 40	3.162277660168387e-03,0.000000000000000e+00
	1.000000000000000e+00,0.000000000000000e+00
	4.861090415022179e-11,2.499592405726243e-08
	-2.483234848008153e-11,7.306892821613519e-14
	-2.483234847583632e-11,7.307037091280988e-14
	-2.483234847583632e-11,7.307037091280988e-14
	2.483245598213104e-11,0.0
	-2.120996065136691e+02,0.0
	3.138650114341457e+00,0.0

 41	3.254617834980467e-03,0.000000000000000e+00
	1.000000000000000e+00,0.000000000000000e+00
	5.454232691782867e-11,2.725016468264298e-08
	-2.786234422196596e-11,8.437866794265027e-14
	-2.786234421692053e-11,8.438033394223924e-14
	-2.786234421692053e-11,8.438033394223924e-14
	2.786247198837391e-11,0.0
	-2.110996071026169e+02,0.0
	3.138564190682367e+00,0.0

 42	3.349654391578285e-03,0.000000000000000e+00
	1.000000000000000e+00,0.000000000000000e+00
	6.119749185270687e-11,2.970770222035174e-08
	-3.126205365746983e-11,9.743894850511010e-14
	-3.126205365147332e-11,9.744087237076101e-14
	-3.126205365147332e-11,9.744087237076101e-14
	3.126220550810843e-11,0.0
	-2.100996077264561e+02,0.0
	3.138475758010583e+00,0.0

 43	3.447466065731503e-03,0.000000000000000e+00
	1.000000000000000e+00,0.000000000000000e+00
	6.866470869127006e-11,3.238687080105600e-08
	-3.507658835892438e-11,1.125207213907584e-13
	-3.507658835179752e-11,1.125229430353445e-13
	-3.507658835179752e-11,1.125229430353445e-13
	3.507676883371909e-11,0.0
	-2.090996083872584e+02,0.0
	3.138384743061923e+00,0.0

 44	3.548133892335764e-03,0.000000000000000e+00
	1.000000000000000e+00,0.000000000000000e+00
	7.704306255644734e-11,3.530765799446937e-08
	-3.935656428243118e-11,1.299368763399526e-13
	-3.935656427396089e-11,1.299394418541082e-13
	-3.935656427396089e-11,1.299394418541082e-13
	3.935677877709206e-11,0.0
	-2.080996090872237e+02,0.0
	3.138291070432879e+00,0.0

 45	3.651741272548387e-03,0.000000000000000e+00
	1.000000000000000e+00,0.000000000000000e+00
	8.644372874825562e-11,3.849185392170351e-08
	-4.415877339301157e-11,1.500487325980822e-13
	-4.415877338294462e-11,1.500516952064008e-13
	-4.415877338294462e-11,1.500516952064008e-13
	4.415902832035022e-11,0.0
	-2.070996098286536e+02,0.0
	3.138194662518153e+00,0.0

 46	3.758374042884452e-03,0.000000000000000e+00
	1.000000000000000e+00,0.000000000000000e+00
	9.699144796085917e-11,4.196321381446719e-08
	-4.954693723780683e-11,1.732735348867975e-13
	-4.954693722584224e-11,1.732769560520320e-13
	-4.954693722584224e-11,1.732769560520320e-13
	4.954724021946177e-11,0.0
	-2.060996106140234e+02,0.0
	3.138095439446364e+00,0.0

 47	3.868120546330533e-03,0.000000000000000e+00
	1.000000000000000e+00,0.000000000000000e+00
	1.088261815034831e-10,4.574763523470081e-08
	-5.559255246716926e-11,2.000931096094022e-13
	-5.559255245294931e-11,2.000970603075717e-13
	-5.559255245294931e-11,2.000970603075717e-13
	5.559291256147194e-11,0.0
	-2.050996114459278e+02,0.0
	3.137993319013882e+00,0.0

 48	3.981071705534985e-03,0.000000000000000e+00
	1.000000000000000e+00,0.000000000000000e+00
	1.221049684861266e-10,4.987335127575565e-08
	-6.237583952139819e-11,2.310638608674170e-13
	-6.237583950449776e-11,2.310684230602760e-13
	-6.237583950449776e-11,2.310684230602760e-13
	6.237626749419204e-11,0.0
	-2.040996123271256e+02,0.0
	3.137888216616725e+00,0.0

 49	4.097321098135428e-03,0.000000000000000e+00
	1.000000000000000e+00,0.000000000000000e+00
	1.370040096149060e-10,5.437114118698797e-08
	-6.998680707140559e-11,2.668283136671138e-13
	-6.998680705131937e-11,2.668335820025301e-13
	-6.998680705131937e-11,2.668335820025301e-13
	6.998731571791484e-11,0.0
	-2.030996132605370e+02,0.0
	3.137780045180476e+00,0.0

 50	4.216965034285836e-03,0.000000000000000e+00
	1.000000000000000e+00,0.000000000000000e+00
	1.537210052465623e-10,5.927455999270703e-08
	-7.852644633642805e-11,3.081284437889303e-13
	-7.852644631255556e-11,3.081345275644457e-13
	-7.852644631255556e-11,3.081345275644457e-13
	7.852705086379946e-11,0.0
	-2.020996142492544e+02,0.0
	3.137668715088143e+00,0.0

 51	4.340102636447452e-03,0.000000000000000e+00
	1.000000000000000e+00,0.000000000000000e+00
	1.724777787260746e-10,6.462018881841653e-08
	-8.810807112538531e-11,3.558210708590345e-13
	-8.810807109701281e-11,3.558280962893467e-13
	-8.810807109701281e-11,3.558280962893467e-13
	8.810878960733926e-11,0.0
	-2.010996152965590e+02,0.0
	3.137554134105926e+00,0.0

 52	4.466835921509646e-03,0.000000000000000e+00
	1.000000000000000e+00,0.000000000000000e+00
	1.935232198169560e-10,7.044790779182521e-08
	-9.885882138208596e-11,4.108956339655551e-13
	-9.885882134836522e-11,4.109037468009580e-13
	-9.885882134836522e-11,4.109037468009580e-13
	9.885967529927017e-11,0.0
	-2.000996164059222e+02,0.0
	3.137436207306803e+00,0.0

 53	4.597269885308737e-03,0.000000000000000e+00
	1.000000000000000e+00,0.000000000000000e+00
	2.171365872807527e-10,7.680119355427769e-08
	-1.109213501834436e-10,4.744947185881483e-13
	-1.109213501433665e-10,4.745040871382536e-13
	-1.109213501433665e-10,4.745040871382536e-13
	1.109223650656441e-10,0.0
	-1.990996175810166e+02,0.0
	3.137314836991892e+00,0.0

 54	4.731512589614821e-03,0.000000000000000e+00
	1.000000000000000e+00,0.000000000000000e+00
	2.436312144271113e-10,8.372744360178275e-08
