Title: * sky130 bjt 3-stage gain/headroom sweep ac candidate: re=18k
Date: Fri May 22 20:42:57  2026
Command: ngspice-46, Build Mar 29 2026   15:02:07
Plotname: AC Analysis
Flags: complex
No. Variables: 7
No. Points: 721
Variables:
	0	frequency	frequency grid=3
	1	v(vin)	voltage
	2	v(vout_final)	voltage
	3	gain	notype
	4	gain_vv	notype
	5	gain_db	decibel
	6	phase_deg	phase
Values:
 0	1.000000000000000e-03,0.000000000000000e+00
	1.000000000000000e+00,0.000000000000000e+00
	4.935940566220046e-13,8.210775515023307e-10
	4.935940566220046e-13,8.210775515023307e-10
	8.210776998653386e-10,0.0
	-1.817123148594125e+02,0.0
	1.570195172864602e+00,0.0

 1	1.029200527194428e-03,0.000000000000000e+00
	1.000000000000000e+00,0.000000000000000e+00
	5.538216360292991e-13,8.951260008735988e-10
	5.538216360292991e-13,8.951260008735988e-10
	8.951261722005265e-10,0.0
	-1.809623148908123e+02,0.0
	1.570177618853421e+00,0.0

 2	1.059253725177289e-03,0.000000000000000e+00
	1.000000000000000e+00,0.000000000000000e+00
	6.213980907469701e-13,9.758524700798601e-10
	6.213980907469701e-13,9.758524700798601e-10
	9.758526679251080e-10,0.0
	-1.802123149240655e+02,0.0
	1.570159552255906e+00,0.0

 3	1.090184492385128e-03,0.000000000000000e+00
	1.000000000000000e+00,0.000000000000000e+00
	6.972201190227453e-13,1.063859212641710e-09
	6.972201190227453e-13,1.063859212641710e-09
	1.063859441109836e-09,0.0
	-1.794623149592934e+02,0.0
	1.570140958104268e+00,0.0

 4	1.122018454301964e-03,0.000000000000000e+00
	1.000000000000000e+00,0.000000000000000e+00
	7.822938328101308e-13,1.159802795962005e-09
	7.822938328101308e-13,1.159802795962005e-09
	1.159803059792879e-09,0.0
	-1.787123149966084e+02,0.0
	1.570121820993654e+00,0.0

 5	1.154781984689459e-03,0.000000000000000e+00
	1.000000000000000e+00,0.000000000000000e+00
	8.777481082525416e-13,1.264398999586291e-09
	8.777481082525416e-13,1.264398999586291e-09
	1.264399304253429e-09,0.0
	-1.779623150361332e+02,0.0
	1.570102125069382e+00,0.0

 6	1.188502227437019e-03,0.000000000000000e+00
	1.000000000000000e+00,0.000000000000000e+00
	9.848495651729899e-13,1.378428155211083e-09
	9.848495651729899e-13,1.378428155211083e-09
	1.378428507035202e-09,0.0
	-1.772123150780017e+02,0.0
	1.570081854013801e+00,0.0

 7	1.223207119049932e-03,0.000000000000000e+00
	1.000000000000000e+00,0.000000000000000e+00
	1.105019374338497e-12,1.502740968278556e-09
	1.105019374338497e-12,1.502740968278556e-09
	1.502741374558706e-09,0.0
	-1.764623151223499e+02,0.0
	1.570060991032782e+00,0.0

 8	1.258925411794168e-03,0.000000000000000e+00
	1.000000000000000e+00,0.000000000000000e+00
	1.239852115516927e-12,1.638264864584720e-09
	1.239852115516927e-12,1.638264864584720e-09
	1.638265333749714e-09,0.0
	-1.757123151693230e+02,0.0
	1.570039518841795e+00,0.0

 9	1.295686697517020e-03,0.000000000000000e+00
	1.000000000000000e+00,0.000000000000000e+00
	1.391136936562540e-12,1.786010909250666e-09
	1.391136936562540e-12,1.786010909250666e-09
	1.786011451033942e-09,0.0
	-1.749623152190848e+02,0.0
	1.570017419651595e+00,0.0

 10	1.333521432163325e-03,0.000000000000000e+00
	1.000000000000000e+00,0.000000000000000e+00
	1.560881294304133e-12,1.947081349682287e-09
	1.560881294304133e-12,1.947081349682287e-09
	1.947081975323847e-09,0.0
	-1.742123152717940e+02,0.0
	1.569994675153482e+00,0.0

 11	1.372460961007563e-03,0.000000000000000e+00
	1.000000000000000e+00,0.000000000000000e+00
	1.751337592249781e-12,2.122677838777308e-09
	1.751337592249781e-12,2.122677838777308e-09
	2.122678561256900e-09,0.0
	-1.734623153276236e+02,0.0
	1.569971266504134e+00,0.0

 12	1.412537544622755e-03,0.000000000000000e+00
	1.000000000000000e+00,0.000000000000000e+00
	1.965033068581607e-12,2.314110399737649e-09
	1.965033068581607e-12,2.314110399737649e-09
	2.314111234044055e-09,0.0
	-1.727123153867651e+02,0.0
	1.569947174309993e+00,0.0

 13	1.453784385607663e-03,0.000000000000000e+00
	1.000000000000000e+00,0.000000000000000e+00
	2.204803331041116e-12,2.522807199372241e-09
	2.204803331041116e-12,2.522807199372241e-09
	2.522808162814236e-09,0.0
	-1.719623154494088e+02,0.0
	1.569922378611200e+00,0.0

 14	1.496235656094435e-03,0.000000000000000e+00
	1.000000000000000e+00,0.000000000000000e+00
	2.473829983675542e-12,2.750325202787342e-09
	2.473829983675542e-12,2.750325202787342e-09
	2.750326315352784e-09,0.0
	-1.712123155157608e+02,0.0
	1.569896858865059e+00,0.0

 15	1.539926526059493e-03,0.000000000000000e+00
	1.000000000000000e+00,0.000000000000000e+00
	2.775682844737909e-12,2.998361788962297e-09
	2.775682844737909e-12,2.998361788962297e-09
	2.998363073732806e-09,0.0
	-1.704623155860493e+02,0.0
	1.569870593929019e+00,0.0

 16	1.584893192461115e-03,0.000000000000000e+00
	1.000000000000000e+00,0.000000000000000e+00
	3.114367315955063e-12,3.268767413874519e-09
	3.114367315955063e-12,3.268767413874519e-09
	3.268768897504333e-09,0.0
	-1.697123156605034e+02,0.0
	1.569843562043153e+00,0.0

 17	1.631172909227840e-03,0.000000000000000e+00
	1.000000000000000e+00,0.000000000000000e+00
	3.494377531702339e-12,3.563559415626481e-09
	3.494377531702339e-12,3.563559415626481e-09
	3.563561128895431e-09,0.0
	-1.689623157393652e+02,0.0
	1.569815740812136e+00,0.0

 18	1.678804018122562e-03,0.000000000000000e+00
	1.000000000000000e+00,0.000000000000000e+00
	3.920755993345908e-12,3.884937064572784e-09
	3.920755993345908e-12,3.884937064572784e-09
	3.884939043024865e-09,0.0
	-1.682123158229016e+02,0.0
	1.569787107186690e+00,0.0

 19	1.727825980507865e-03,0.000000000000000e+00
	1.000000000000000e+00,0.000000000000000e+00
	4.399160480082159e-12,4.235297970739399e-09
	4.399160480082159e-12,4.235297970739399e-09
	4.235300255420176e-09,0.0
	-1.674623159113890e+02,0.0
	1.569757637444483e+00,0.0

 20	1.778279410038925e-03,0.000000000000000e+00
	1.000000000000000e+00,0.000000000000000e+00
	4.935939124112982e-12,4.617255970923137e-09
	4.935939124112982e-12,4.617255970923137e-09
	4.617258609231282e-09,0.0
	-1.667123160051141e+02,0.0
	1.569727307170486e+00,0.0

 21	1.830206106311058e-03,0.000000000000000e+00
	1.000000000000000e+00,0.000000000000000e+00
	5.538214646345470e-12,5.033660628906082e-09
	5.538214646345470e-12,5.033660628906082e-09
	5.033663675576731e-09,0.0
	-1.659623161044010e+02,0.0
	1.569696091236735e+00,0.0

 22	1.883649089489803e-03,0.000000000000000e+00
	1.000000000000000e+00,0.000000000000000e+00
	6.213978870439226e-12,5.487618494315176e-09
	6.213978870439226e-12,5.487618494315176e-09
	5.487622012555472e-09,0.0
	-1.652123162095642e+02,0.0
	1.569663963781519e+00,0.0

 23	1.938652635952210e-03,0.000000000000000e+00
	1.000000000000000e+00,0.000000000000000e+00
	6.972198769209799e-12,5.982516278630205e-09
	6.972198769209799e-12,5.982516278630205e-09
	5.982520341430615e-09,0.0
	-1.644623163209648e+02,0.0
	1.569630898187955e+00,0.0

 24	1.995262314968882e-03,0.000000000000000e+00
	1.000000000000000e+00,0.000000000000000e+00
	7.822935450719227e-12,6.522046121356298e-09
	7.822935450719227e-12,6.522046121356298e-09
	6.522050813004894e-09,0.0
	-1.637123164389617e+02,0.0
	1.569596867061934e+00,0.0

 25	2.053525026457149e-03,0.000000000000000e+00
	1.000000000000000e+00,0.000000000000000e+00
	8.777477662746141e-12,7.110233134735783e-09
	8.777477662746141e-12,7.110233134735783e-09
	7.110238552566907e-09,0.0
	-1.629623165639547e+02,0.0
	1.569561842209427e+00,0.0

 26	2.113489039836650e-03,0.000000000000000e+00
	1.000000000000000e+00,0.000000000000000e+00
	9.848491587320070e-12,7.751465432602534e-09
	9.848491587320070e-12,7.751465432602534e-09
	7.751471689016126e-09,0.0
	-1.622123166963486e+02,0.0
	1.569525794613126e+00,0.0

 27	2.175204034019526e-03,0.000000000000000e+00
	1.000000000000000e+00,0.000000000000000e+00
	1.105018891282401e-11,8.450526867292674e-09
	1.105018891282401e-11,8.450526867292674e-09
	8.450534092086152e-09,0.0
	-1.614623168365902e+02,0.0
	1.569488694408407e+00,0.0

 28	2.238721138568343e-03,0.000000000000000e+00
	1.000000000000000e+00,0.000000000000000e+00
	1.239851541403002e-11,9.212632718942090e-09
	1.239851541403002e-11,9.212632718942090e-09
	9.212641062003165e-09,0.0
	-1.607123169851424e+02,0.0
	1.569450510858584e+00,0.0

 29	2.304092976055850e-03,0.000000000000000e+00
	1.000000000000000e+00,0.000000000000000e+00
	1.391136254227685e-11,1.004346860334429e-08
	1.391136254227685e-11,1.004346860334429e-08
	1.004347823776058e-08,0.0
	-1.599623171424943e+02,0.0
	1.569411212329449e+00,0.0

 30	2.371373705661660e-03,0.000000000000000e+00
	1.000000000000000e+00,0.000000000000000e+00
	1.560880483347692e-11,1.094923288865295e-08
	1.560880483347692e-11,1.094923288865295e-08
	1.094924401430289e-08,0.0
	-1.592123173091727e+02,0.0
	1.569370766263060e+00,0.0

 31	2.440619068041985e-03,0.000000000000000e+00
	1.000000000000000e+00,0.000000000000000e+00
	1.751336628426225e-11,1.193668293740539e-08
	1.751336628426225e-11,1.193668293740539e-08
	1.193669578510500e-08,0.0
	-1.584623174857246e+02,0.0
	1.569329139150771e+00,0.0

 32	2.511886431509585e-03,0.000000000000000e+00
	1.000000000000000e+00,0.000000000000000e+00
	1.965031923075315e-11,1.301318551876052e-08
	1.965031923075315e-11,1.301318551876052e-08
	1.301320035505195e-08,0.0
	-1.577123176727413e+02,0.0
	1.569286296505470e+00,0.0

 33	2.585234839562196e-03,0.000000000000000e+00
	1.000000000000000e+00,0.000000000000000e+00
	2.204801969604275e-11,1.418677176714300e-08
	2.204801969604275e-11,1.418677176714300e-08
	1.418678889982431e-08,0.0
	-1.569623178708378e+02,0.0
	1.569242202833008e+00,0.0

 34	2.660725059798815e-03,0.000000000000000e+00
	1.000000000000000e+00,0.000000000000000e+00
	2.473828365604392e-11,1.546619709718913e-08
	2.473828365604392e-11,1.546619709718913e-08
	1.546621688169992e-08,0.0
	-1.562123180806700e+02,0.0
	1.569196821602790e+00,0.0

 35	2.738419634264367e-03,0.000000000000000e+00
	1.000000000000000e+00,0.000000000000000e+00
	2.775680921655666e-11,1.686100652202532e-08
	2.775680921655666e-11,1.686100652202532e-08
	1.686102936882082e-08,0.0
	-1.554623183029417e+02,0.0
	1.569150115217520e+00,0.0

 36	2.818382931264460e-03,0.000000000000000e+00
	1.000000000000000e+00,0.000000000000000e+00
	3.114365030371272e-11,1.838160586223552e-08
	3.114365030371272e-11,1.838160586223552e-08
	1.838163224530198e-08,0.0
	-1.547123185383740e+02,0.0
	1.569102044982040e+00,0.0

 37	2.900681198693160e-03,0.000000000000000e+00
	1.000000000000000e+00,0.000000000000000e+00
	3.494374815279488e-11,2.003933937649647e-08
	3.494374815279488e-11,2.003933937649647e-08
	2.003936984318462e-08,0.0
	-1.539623187877631e+02,0.0
	1.569052571071285e+00,0.0

 38	2.985382618917966e-03,0.000000000000000e+00
	1.000000000000000e+00,0.000000000000000e+00
	3.920752764870069e-11,2.184657439339891e-08
	3.920752764870069e-11,2.184657439339891e-08
	2.184660957577942e-08,0.0
	-1.532123190519309e+02,0.0
	1.569001652497282e+00,0.0

 39	3.072557365267454e-03,0.000000000000000e+00
	1.000000000000000e+00,0.000000000000000e+00
	4.399156643033781e-11,2.381679357547045e-08
	4.399156643033781e-11,2.381679357547045e-08
	2.381683420344710e-08,0.0
	-1.524623193317471e+02,0.0
	1.568949247075194e+00,0.0

 40	3.162277660168387e-03,0.000000000000000e+00
	1.000000000000000e+00,0.000000000000000e+00
	4.935934563767478e-11,2.596469550382082e-08
	4.935934563767478e-11,2.596469550382082e-08
	2.596474242027320e-08,0.0
	-1.517123196281483e+02,0.0
	1.568895311388375e+00,0.0

 41	3.254617834980467e-03,0.000000000000000e+00
	1.000000000000000e+00,0.000000000000000e+00
	5.538209226367954e-11,2.830630433391970e-08
	5.538209226367954e-11,2.830630433391970e-08
	2.830635851218989e-08,0.0
	-1.509623199421098e+02,0.0
	1.568839800752398e+00,0.0

 42	3.349654391578285e-03,0.000000000000000e+00
	1.000000000000000e+00,0.000000000000000e+00
	6.213972428782787e-11,3.085908934026981e-08
	6.213972428782787e-11,3.085908934026981e-08
	3.085915190435551e-08,0.0
	-1.502123202746731e+02,0.0
	1.568782669178036e+00,0.0

 43	3.447466065731503e-03,0.000000000000000e+00
	1.000000000000000e+00,0.000000000000000e+00
	6.972191113292130e-11,3.364209524200486e-08
	6.972191113292130e-11,3.364209524200486e-08
	3.364216748987820e-08,0.0
	-1.494623206269420e+02,0.0
	1.568723869333167e+00,0.0

 44	3.548133892335764e-03,0.000000000000000e+00
	1.000000000000000e+00,0.000000000000000e+00
	7.822926351636805e-11,3.667608428153095e-08
	7.822926351636805e-11,3.667608428153095e-08
	3.667616771206653e-08,0.0
	-1.487123210000910e+02,0.0
	1.568663352503555e+00,0.0

 45	3.651741272548387e-03,0.000000000000000e+00
	1.000000000000000e+00,0.000000000000000e+00
	8.777466848474642e-11,3.998369111627954e-08
	8.777466848474642e-11,3.998369111627954e-08
	3.998378746035046e-08,0.0
	-1.479623213953421e+02,0.0
	1.568601068552494e+00,0.0

 46	3.758374042884452e-03,0.000000000000000e+00
	1.000000000000000e+00,0.000000000000000e+00
	9.848478734533675e-11,4.358959167862149e-08
	9.848478734533675e-11,4.358959167862149e-08
	4.358970293500848e-08,0.0
	-1.472123218140148e+02,0.0
	1.568536965879278e+00,0.0

 47	3.868120546330533e-03,0.000000000000000e+00
	1.000000000000000e+00,0.000000000000000e+00
	1.105017363725824e-10,4.752068726424796e-08
	1.105017363725824e-10,4.752068726424796e-08
	4.752081574110655e-08,0.0
	-1.464623222574983e+02,0.0
	1.568470991376445e+00,0.0

 48	3.981071705534985e-03,0.000000000000000e+00
	1.000000000000000e+00,0.000000000000000e+00
	1.239849725899321e-10,5.180630522185647e-08
	1.239849725899321e-10,5.180630522185647e-08
	5.180645358460258e-08,0.0
	-1.457123227272563e+02,0.0
	1.568403090385784e+00,0.0

 49	4.097321098135428e-03,0.000000000000000e+00
	1.000000000000000e+00,0.000000000000000e+00
	1.391134096497001e-10,5.647841774125106e-08
	1.391134096497001e-10,5.647841774125106e-08
	5.647858906785833e-08,0.0
	-1.449623232248536e+02,0.0
	1.568333206653057e+00,0.0

 50	4.216965034285836e-03,0.000000000000000e+00
	1.000000000000000e+00,0.000000000000000e+00
	1.560877918881118e-10,6.157188037240120e-08
	1.560877918881118e-10,6.157188037240120e-08
	6.157207821725738e-08,0.0
	-1.442123237519303e+02,0.0
	1.568261282281388e+00,0.0

 51	4.340102636447452e-03,0.000000000000000e+00
	1.000000000000000e+00,0.000000000000000e+00
	1.751333580552387e-10,6.712469205409564e-08
	1.751333580552387e-10,6.712469205409564e-08
	6.712492052174269e-08,0.0
	-1.434623243102393e+02,0.0
	1.568187257683306e+00,0.0

 52	4.466835921509646e-03,0.000000000000000e+00
	1.000000000000000e+00,0.000000000000000e+00
	1.965028300670194e-10,7.317827859258528e-08
	1.965028300670194e-10,7.317827859258528e-08
	7.317854242287318e-08,0.0
	-1.427123249016363e+02,0.0
	1.568111071531378e+00,0.0

 53	4.597269885308737e-03,0.000000000000000e+00
	1.000000000000000e+00,0.000000000000000e+00
	2.204797664368386e-10,7.977780170466714e-08
	2.204797664368386e-10,7.977780170466714e-08
	7.977810637108780e-08,0.0
	-1.419623255280712e+02,0.0
	1.568032660707402e+00,0.0

 54	4.731512589614821e-03,0.000000000000000e+00
	1.000000000000000e+00,0.000000000000000e+00
	2.473823248821882e-10,8.697249593012844e-08
	2.473823248821882e-10,8.697249593012844e-08
	8.697284775336998e-08,0.0
	-1.412123261916248e+02,0.0
	1.567951960250119e+00,0.0

 55	4.869675251658647e-03,0.000000000000000e+00
	1.000000000000000e+00,0.000000000000000e+00
	2.775674840350691e-10,9.481603592756330e-08
	2.775674840350691e-10,9.481603592756330e-08
	9.481644220664034e-08,0.0
	-1.404623268944970e+02,0.0
	1.567868903301400e+00,0.0

 56	5.011872336272740e-03,0.000000000000000e+00
	1.000000000000000e+00,0.000000000000000e+00
	3.114357802726797e-10,1.033669368929342e-07
	3.114357802726797e-10,1.033669368929342e-07
	1.033674060566148e-07,0.0
	-1.397123276390129e+02,0.0
	1.567783421050854e+00,0.0

 57	5.158221650723075e-03,0.000000000000000e+00
	1.000000000000000e+00,0.000000000000000e+00
	3.494366225210201e-10,1.126889910877020e-07
	3.494366225210201e-10,1.126889910877020e-07
	1.126895328693723e-07,0.0
	-1.389623284276466e+02,0.0
	1.567695442678827e+00,0.0

 58	5.308844442309902e-03,0.000000000000000e+00
	1.000000000000000e+00,0.000000000000000e+00
	3.920742555556364e-10,1.228517437333999e-07
	3.920742555556364e-10,1.228517437333999e-07
	1.228523693729951e-07,0.0
	-1.382123292630114e+02,0.0
	1.567604895297736e+00,0.0

 59	5.463865498818562e-03,0.000000000000000e+00
	1.000000000000000e+00,0.000000000000000e+00
	4.399144509241068e-10,1.339310118218827e-07
	4.399144509241068e-10,1.339310118218827e-07
	1.339317342990727e-07,0.0
	-1.374623301478761e+02,0.0
	1.567511703891681e+00,0.0

 60	5.623413251903512e-03,0.000000000000000e+00
	1.000000000000000e+00,0.000000000000000e+00
	4.935920142734564e-10,1.460094497117078e-07
	4.935920142734564e-10,1.460094497117078e-07
	1.460102840151757e-07,0.0
	-1.367123310851673e+02,0.0
	1.567415791254309e+00,0.0

 61	5.787619883491228e-03,0.000000000000000e+00
	1.000000000000000e+00,0.000000000000000e+00
	5.538192086942603e-10,1.591771657290088e-07
	5.538192086942603e-10,1.591771657290088e-07
	1.591781291674088e-07,0.0
	-1.359623320779985e+02,0.0
	1.567317077924849e+00,0.0

 62	5.956621435290127e-03,0.000000000000000e+00
	1.000000000000000e+00,0.000000000000000e+00
	6.213952058538170e-10,1.735323943731828e-07
	6.213952058538170e-10,1.735323943731828e-07
	1.735335069342278e-07,0.0
	-1.352123331296620e+02,0.0
	1.567215482122292e+00,0.0

 63	6.130557921498231e-03,0.000000000000000e+00
	1.000000000000000e+00,0.000000000000000e+00
	6.972166903217434e-10,1.891822291408048e-07
	6.972166903217434e-10,1.891822291408048e-07
	1.891835139059354e-07,0.0
	-1.344623342436356e+02,0.0
	1.567110919677640e+00,0.0

 64	6.309573444801957e-03,0.000000000000000e+00
	1.000000000000000e+00,0.000000000000000e+00
	7.822897577923278e-10,2.062434214334900e-07
	7.822897577923278e-10,2.062434214334900e-07
	2.062449050567246e-07,0.0
	-1.337123354236170e+02,0.0
	1.567003303964182e+00,0.0

 65	6.493816315762139e-03,0.000000000000000e+00
	1.000000000000000e+00,0.000000000000000e+00
	8.777432650855580e-10,2.248432515101181e-07
	8.777432650855580e-10,2.248432515101181e-07
	2.248449647710209e-07,0.0
	-1.329623366735193e+02,0.0
	1.566892545825734e+00,0.0

 66	6.683439175686173e-03,0.000000000000000e+00
	1.000000000000000e+00,0.000000000000000e+00
	9.848438090595168e-10,2.451204779787551e-07
	9.848438090595168e-10,2.451204779787551e-07
	2.451224564209930e-07,0.0
	-1.322123379974824e+02,0.0
	1.566778553502785e+00,0.0

 67	6.878599123088104e-03,0.000000000000000e+00
	1.000000000000000e+00,0.000000000000000e+00
	1.105012533186408e-09,2.672263729104243e-07
	1.105012533186408e-09,2.672263729104243e-07
	2.672286575791595e-07,0.0
	-1.314623393998936e+02,0.0
	1.566661232556481e+00,0.0

 68	7.079457843841408e-03,0.000000000000000e+00
	1.000000000000000e+00,0.000000000000000e+00
	1.239843984793724e-09,2.913258502956091e-07
	1.239843984793724e-09,2.913258502956091e-07
	2.913284885890260e-07,0.0
	-1.307123408854041e+02,0.0
	1.566540485790400e+00,0.0

 69	7.286181745132307e-03,0.000000000000000e+00
	1.000000000000000e+00,0.000000000000000e+00
	1.391127273183864e-09,3.175986962607156e-07
	1.391127273183864e-09,3.175986962607156e-07
	3.176017429133481e-07,0.0
	-1.299623424589308e+02,0.0
	1.566416213170034e+00,0.0

 70	7.498942093324590e-03,0.000000000000000e+00
	1.000000000000000e+00,0.000000000000000e+00
	1.560869809360638e-09,3.462409102182143e-07
	1.560869809360638e-09,3.462409102182143e-07
	3.462444284364722e-07,0.0
	-1.292123441256987e+02,0.0
	1.566288311739926e+00,0.0

 71	7.717915155850157e-03,0.000000000000000e+00
	1.000000000000000e+00,0.000000000000000e+00
	1.751323942371877e-09,3.774661669564511e-07
	1.751323942371877e-09,3.774661669564511e-07
	3.774702297299041e-07,0.0
	-1.284623458912314e+02,0.0
	1.566156675538390e+00,0.0

 72	7.943282347242850e-03,0.000000000000000e+00
	1.000000000000000e+00,0.000000000000000e+00
	1.965016845676980e-09,4.115074105709630e-07
	1.965016845676980e-09,4.115074105709630e-07
	4.115121021865857e-07,0.0
	-1.277123477613761e+02,0.0
	1.566021195509729e+00,0.0

 73	8.175230379436536e-03,0.000000000000000e+00
	1.000000000000000e+00,0.000000000000000e+00
	2.204784050088896e-09,4.486185921258301e-07
	2.204784050088896e-09,4.486185921258301e-07
