Title: * sky130 bjt 3-stage high-frequency fourth-pole ac: chout=33p
Date: Fri May 22 21:56:33  2026
Command: ngspice-46, Build Mar 29 2026   15:02:07
Plotname: AC Analysis
Flags: complex
No. Variables: 8
No. Points: 721
Variables:
	0	frequency	frequency grid=3
	1	v(vin)	voltage
	2	v(b3_collector)	voltage
	3	v(vout_final)	voltage
	4	gain	notype
	5	gain_vv	notype
	6	gain_db	decibel
	7	phase_deg	phase
Values:
 0	1.000000000000000e-03,0.000000000000000e+00
	1.000000000000000e+00,0.000000000000000e+00
	4.861096667811734e-13,7.904423276608954e-10
	-2.483247080632920e-13,2.310648217392978e-16
	-2.483247080632920e-13,2.310648217392978e-16
	2.483248155655633e-13,0.0
	-2.520995975682582e+02,0.0
	3.140662159170391e+00,0.0

 1	1.029200527194428e-03,0.000000000000000e+00
	1.000000000000000e+00,0.000000000000000e+00
	5.454240123239796e-13,8.617279547834594e-10
	-2.786248960697704e-13,2.668294890121974e-16
	-2.786248960697704e-13,2.668294890121974e-16
	2.786250238364576e-13,0.0
	-2.510995976271535e+02,0.0
	3.140634988244003e+00,0.0

 2	1.059253725177289e-03,0.000000000000000e+00
	1.000000000000000e+00,0.000000000000000e+00
	6.119758017573528e-13,9.394424379971301e-10
	-3.126222644785628e-13,3.081298814791297e-16
	-3.126222644785628e-13,3.081298814791297e-16
	3.126224163295529e-13,0.0
	-2.500995976895362e+02,0.0
	3.140607023912349e+00,0.0

 3	1.090184492385128e-03,0.000000000000000e+00
	1.000000000000000e+00,0.000000000000000e+00
	6.866481366332085e-13,1.024165560113937e-09
	-3.507679372062949e-13,3.558228294514439e-16
	-3.507679372062949e-13,3.558228294514439e-16
	3.507681176815322e-13,0.0
	-2.490995977556198e+02,0.0
	3.140578243007587e+00,0.0

 4	1.122018454301964e-03,0.000000000000000e+00
	1.000000000000000e+00,0.000000000000000e+00
	7.704318731604254e-13,1.116529391318429e-09
	-3.935680835527447e-13,4.108977850881405e-16
	-3.935680835527447e-13,4.108977850881405e-16
	3.935682980479627e-13,0.0
	-2.480995978256130e+02,0.0
	3.140548621685362e+00,0.0

 5	1.154781984689459e-03,0.000000000000000e+00
	1.000000000000000e+00,0.000000000000000e+00
	8.644387702522303e-13,1.217223004666012e-09
	-4.415906347404941e-13,4.744973498559560e-16
	-4.415906347404941e-13,4.744973498559560e-16
	4.415908896685341e-13,0.0
	-2.470995978997573e+02,0.0
	3.140518135405054e+00,0.0

 6	1.188502227437019e-03,0.000000000000000e+00
	1.000000000000000e+00,0.000000000000000e+00
	9.699162418836255e-13,1.326997616853322e-09
	-4.954728199971132e-13,5.479409792713450e-16
	-4.954728199971132e-13,5.479409792713450e-16
	4.954731229796511e-13,0.0
	-2.460995979782951e+02,0.0
	3.140486758909442e+00,0.0

 7	1.223207119049932e-03,0.000000000000000e+00
	1.000000000000000e+00,0.000000000000000e+00
	1.088263909502485e-12,1.446672192599208e-09
	-5.559296221738607e-13,6.327523567040617e-16
	-5.559296221738607e-13,6.327523567040617e-16
	5.559299822692751e-13,0.0
	-2.450995980614857e+02,0.0
	3.140454466203785e+00,0.0

 8	1.258925411794168e-03,0.000000000000000e+00
	1.000000000000000e+00,0.000000000000000e+00
	1.221052174141143e-12,1.577139554454867e-09
	-6.237632651037311e-13,7.306910041498980e-16
	-6.237632651037311e-13,7.306910041498980e-16
	6.237636930779244e-13,0.0
	-2.440995981496025e+02,0.0
	3.140421230534281e+00,0.0

 9	1.295686697517020e-03,0.000000000000000e+00
	1.000000000000000e+00,0.000000000000000e+00
	1.370043054663071e-12,1.719373043619459e-09
	-6.998738585875236e-13,8.437887857752815e-16
	-6.998738585875236e-13,8.437887857752815e-16
	6.998743672357946e-13,0.0
	-2.430995982429451e+02,0.0
	3.140387024365906e+00,0.0

 10	1.333521432163325e-03,0.000000000000000e+00
	1.000000000000000e+00,0.000000000000000e+00
	1.537213568665434e-12,1.874433781462887e-09
	-7.852713422631335e-13,9.743920615515258e-16
	-7.852713422631335e-13,9.743920615515258e-16
	7.852719467927227e-13,0.0
	-2.420995983418166e+02,0.0
	3.140351819359599e+00,0.0

 11	1.372460961007563e-03,0.000000000000000e+00
	1.000000000000000e+00,0.000000000000000e+00
	1.724781966271584e-12,2.043478585913826e-09
	-8.810888868385588e-13,1.125210365500454e-15
	-8.810888868385588e-13,1.125210365500454e-15
	8.810896053233050e-13,0.0
	-2.410995984465469e+02,0.0
	3.140315586348785e+00,0.0

 12	1.412537544622755e-03,0.000000000000000e+00
	1.000000000000000e+00,0.000000000000000e+00
	1.935237164931796e-12,2.227768601785907e-09
	-9.885979305187211e-13,1.299372618449865e-15
	-9.885979305187211e-13,1.299372618449865e-15
	9.885987844394204e-13,0.0
	-2.400995985574882e+02,0.0
	3.140278295315212e+00,0.0

 13	1.453784385607663e-03,0.000000000000000e+00
	1.000000000000000e+00,0.000000000000000e+00
	2.171371775814814e-12,2.428678709426294e-09
	-1.109225050148514e-12,1.500492041504270e-15
	-1.109225050148514e-12,1.500492041504270e-15
	1.109226065035140e-12,0.0
	-2.390995986749969e+02,0.0
	3.140239915364081e+00,0.0

 14	1.496235656094435e-03,0.000000000000000e+00
	1.000000000000000e+00,0.000000000000000e+00
	2.436319160010160e-12,2.647707781862501e-09
	-1.244570890932617e-12,1.732741116930467e-15
	-1.244570890932617e-12,1.732741116930467e-15
	1.244572097127598e-12,0.0
	-2.380995987994648e+02,0.0
	3.140200414698450e+00,0.0

 15	1.539926526059493e-03,0.000000000000000e+00
	1.000000000000000e+00,0.000000000000000e+00
	2.733595006273595e-12,2.886489866987844e-09
	-1.396431405923312e-12,2.000938151627234e-15
	-1.396431405923312e-12,2.000938151627234e-15
	1.396432839488690e-12,0.0
	-2.370995989313161e+02,0.0
	3.140159760592895e+00,0.0

 16	1.584893192461115e-03,0.000000000000000e+00
	1.000000000000000e+00,0.000000000000000e+00
	3.067143982030802e-12,3.146806378212106e-09
	-1.566821687110804e-12,2.310647239050820e-15
	-1.566821687110804e-12,2.310647239050820e-15
	1.566823390906393e-12,0.0
	-2.360995990709779e+02,0.0
	3.140117919366389e+00,0.0

 17	1.631172909227840e-03,0.000000000000000e+00
	1.000000000000000e+00,0.000000000000000e+00
	3.441392076636144e-12,3.430599384495833e-09
	-1.758002704323278e-12,2.668293693409136e-15
	-1.758002704323278e-12,2.668293693409136e-15
	1.758004729288063e-12,0.0
	-2.350995992189088e+02,0.0
	3.140074856354410e+00,0.0

 18	1.678804018122562e-03,0.000000000000000e+00
	1.000000000000000e+00,0.000000000000000e+00
	3.861305331467135e-12,3.739986098935241e-09
	-1.972511306749643e-12,3.081297350961940e-15
	-1.972511306749643e-12,3.081297350961940e-15
	1.972513713424713e-12,0.0
	-2.340995993756131e+02,0.0
	3.140030535880213e+00,0.0

 19	1.727825980507865e-03,0.000000000000000e+00
	1.000000000000000e+00,0.000000000000000e+00
	4.332455736193624e-12,4.077274674008245e-09
	-2.213193885193361e-12,3.558226503948919e-15
	-2.213193885193361e-12,3.558226503948919e-15
	2.213196745531932e-12,0.0
	-2.330995995416009e+02,0.0
	3.139984921225276e+00,0.0

 20	1.778279410038925e-03,0.000000000000000e+00
	1.000000000000000e+00,0.000000000000000e+00
	4.861095165559765e-12,4.444981421269588e-09
	-2.483244141703718e-12,4.108975660649644e-15
	-2.483244141703718e-12,4.108975660649644e-15
	2.483247541222343e-12,0.0
	-2.320995997174194e+02,0.0
	3.139937974598884e+00,0.0

 21	1.830206106311058e-03,0.000000000000000e+00
	1.000000000000000e+00,0.000000000000000e+00
	5.454238337809369e-12,4.845849583992883e-09
	-2.786245467773774e-12,4.744970819451925e-15
	-2.786245467773774e-12,4.744970819451925e-15
	2.786249508109059e-12,0.0
	-2.310995999036610e+02,0.0
	3.139889657106814e+00,0.0

 22	1.883649089489803e-03,0.000000000000000e+00
	1.000000000000000e+00,0.000000000000000e+00
	6.119755895585383e-12,5.282869802822192e-09
	-3.126218493437840e-12,5.479406515611472e-15
	-3.126218493437840e-12,5.479406515611472e-15
	3.126223295385107e-12,0.0
	-2.300996001009356e+02,0.0
	3.139839928719117e+00,0.0

 23	1.938652635952210e-03,0.000000000000000e+00
	1.000000000000000e+00,0.000000000000000e+00
	6.866478844342966e-12,5.759302427060950e-09
	-3.507674438176549e-12,6.327519558462774e-15
	-3.507674438176549e-12,6.327519558462774e-15
	3.507680145301297e-12,0.0
	-2.290996003099050e+02,0.0
	3.139788748236951e+00,0.0

 24	1.995262314968882e-03,0.000000000000000e+00
	1.000000000000000e+00,0.000000000000000e+00
	7.704315734213896e-12,6.278701838118083e-09
	-3.935674971592454e-12,7.306905138177084e-15
	-3.935674971592454e-12,7.306905138177084e-15
	3.935681754522584e-12,0.0
	-2.280996005312500e+02,0.0
	3.139736073258453e+00,0.0

 25	2.053525026457149e-03,0.000000000000000e+00
	1.000000000000000e+00,0.000000000000000e+00
	8.644384140118007e-12,6.844942966484818e-09
	-4.415899378105713e-12,8.437881859976351e-15
	-4.415899378105713e-12,8.437881859976351e-15
	4.415907439632845e-12,0.0
	-2.270996007657129e+02,0.0
	3.139681860143607e+00,0.0

 26	2.113489039836650e-03,0.000000000000000e+00
	1.000000000000000e+00,0.000000000000000e+00
	9.699158184912363e-12,7.462250200161009e-09
	-4.954719916944770e-12,9.743913278992728e-15
	-4.954719916944770e-12,9.743913278992728e-15
	4.954729498087174e-12,0.0
	-2.260996010140680e+02,0.0
	3.139626063978094e+00,0.0

 27	2.175204034019526e-03,0.000000000000000e+00
	1.000000000000000e+00,0.000000000000000e+00
	1.088263406299834e-11,8.135228900115258e-09
	-5.559286377344454e-12,1.125209468091884e-14
	-5.559286377344454e-12,1.125209468091884e-14
	5.559297764552852e-12,0.0
	-2.250996012771387e+02,0.0
	3.139568638536077e+00,0.0

 28	2.238721138568343e-03,0.000000000000000e+00
	1.000000000000000e+00,0.000000000000000e+00
	1.221051576083355e-11,8.868899757939372e-09
	-6.237620950952638e-12,1.299371520734530e-14
	-6.237620950952638e-12,1.299371520734530e-14
	6.237634484674313e-12,0.0
	-2.240996015557965e+02,0.0
	3.139509536241909e+00,0.0

 29	2.304092976055850e-03,0.000000000000000e+00
	1.000000000000000e+00,0.000000000000000e+00
	1.370042343870469e-11,9.668736251990014e-09
	-6.998724680301114e-12,1.500490698770989e-14
	-6.998724680301114e-12,1.500490698770989e-14
	6.998740765158375e-12,0.0
	-2.230996018509670e+02,0.0
	3.139448708130714e+00,0.0

 30	2.371373705661660e-03,0.000000000000000e+00
	1.000000000000000e+00,0.000000000000000e+00
	1.537212723886467e-11,1.054070548146625e-08
	-7.852696895825016e-12,1.732739474488192e-14
	-7.852696895825016e-12,1.732739474488192e-14
	7.852716012712320e-12,0.0
	-2.220996021636292e+02,0.0
	3.139386103807830e+00,0.0

 31	2.440619068041985e-03,0.000000000000000e+00
	1.000000000000000e+00,0.000000000000000e+00
	1.724780962250291e-11,1.149131268304678e-08
	-8.810869226242821e-12,2.000936142581701e-14
	-8.810869226242821e-12,2.000936142581701e-14
	8.810891946704229e-12,0.0
	-2.210996024948145e+02,0.0
	3.139321671407046e+00,0.0

 32	2.511886431509585e-03,0.000000000000000e+00
	1.000000000000000e+00,0.000000000000000e+00
	1.935235971651344e-11,1.252764976216156e-08
	-9.885955960463120e-12,2.310644781572199e-14
	-9.885955960463120e-12,2.310644781572199e-14
	9.885982963779928e-12,0.0
	-2.200996028456269e+02,0.0
	3.139255357547647e+00,0.0

 33	2.585234839562196e-03,0.000000000000000e+00
	1.000000000000000e+00,0.000000000000000e+00
	2.171370357597747e-11,1.365744820102509e-08
	-1.109222275622893e-11,2.668290687401891e-14
	-1.109222275622893e-11,2.668290687401891e-14
	1.109225484972835e-11,0.0
	-2.190996032172256e+02,0.0
	3.139187107290178e+00,0.0

 34	2.660725059798815e-03,0.000000000000000e+00
	1.000000000000000e+00,0.000000000000000e+00
	2.436317474454792e-11,1.488913673804428e-08
	-1.244567593402494e-11,3.081293673994418e-14
	-1.244567593402494e-11,3.081293673994418e-14
	1.244571407721703e-11,0.0
	-2.180996036108414e+02,0.0
	3.139116864090938e+00,0.0

 35	2.738419634264367e-03,0.000000000000000e+00
	1.000000000000000e+00,0.000000000000000e+00
	2.733593002988038e-11,1.623190424895146e-08
	-1.396427486802118e-11,3.558222006256153e-14
	-1.396427486802118e-11,3.558222006256153e-14
	1.396432020128558e-11,0.0
	-2.170996040277830e+02,0.0
	3.139044569755135e+00,0.0

 36	2.818382931264460e-03,0.000000000000000e+00
	1.000000000000000e+00,0.000000000000000e+00
	3.067141601123888e-11,1.769576829879037e-08
	-1.566817029228028e-11,4.108970159040367e-14
	-1.566817029228028e-11,4.108970159040367e-14
	1.566822417096051e-11,0.0
	-2.160996044694241e+02,0.0
	3.138970164388667e+00,0.0

 37	2.900681198693160e-03,0.000000000000000e+00
	1.000000000000000e+00,0.000000000000000e+00
	3.441389246920650e-11,1.929164987604051e-08
	-1.757997168418902e-11,4.744964089846256e-14
	-1.757997168418902e-11,4.744964089846256e-14
	1.758003571911357e-11,0.0
	-2.150996049372379e+02,0.0
	3.138893586348513e+00,0.0

 38	2.985382618917966e-03,0.000000000000000e+00
	1.000000000000000e+00,0.000000000000000e+00
	3.861301968343938e-11,2.103145486659439e-08
	-1.972504727315741e-11,5.479398283907614e-14
	-1.972504727315741e-11,5.479398283907614e-14
	1.972512337879918e-11,0.0
	-2.140996054327748e+02,0.0
	3.138814772191657e+00,0.0

 39	3.072557365267454e-03,0.000000000000000e+00
	1.000000000000000e+00,0.000000000000000e+00
	4.332451739116304e-11,2.292816287524177e-08
	-2.213186065523281e-11,6.327509489390567e-14
	-2.213186065523281e-11,6.327509489390567e-14
	2.213195110694662e-11,0.0
	-2.130996059576691e+02,0.0
	3.138733656622533e+00,0.0

 40	3.162277660168387e-03,0.000000000000000e+00
	1.000000000000000e+00,0.000000000000000e+00
	4.861090415022179e-11,2.499592405726243e-08
	-2.483234848008818e-11,7.306892821616145e-14
	-2.483234848008818e-11,7.306892821616145e-14
	2.483245598213774e-11,0.0
	-2.120996065136667e+02,0.0
	3.138650172438929e+00,0.0

 41	3.254617834980467e-03,0.000000000000000e+00
	1.000000000000000e+00,0.000000000000000e+00
	5.454232691782867e-11,2.725016468264298e-08
	-2.786234422197347e-11,8.437866794268075e-14
	-2.786234422197347e-11,8.437866794268075e-14
	2.786247198838147e-11,0.0
	-2.110996071026145e+02,0.0
	3.138564250476316e+00,0.0

 42	3.349654391578285e-03,0.000000000000000e+00
	1.000000000000000e+00,0.000000000000000e+00
	6.119749185270687e-11,2.970770222035174e-08
	-3.126205365747875e-11,9.743894850514732e-14
	-3.126205365747875e-11,9.743894850514732e-14
	3.126220550811741e-11,0.0
	-2.100996077264536e+02,0.0
	3.138475819550547e+00,0.0

 43	3.447466065731503e-03,0.000000000000000e+00
	1.000000000000000e+00,0.000000000000000e+00
	6.866470869127006e-11,3.238687080105600e-08
	-3.507658835893521e-11,1.125207213908049e-13
	-3.507658835893521e-11,1.125207213908049e-13
	3.507676883372999e-11,0.0
	-2.090996083872557e+02,0.0
	3.138384806398886e+00,0.0

 44	3.548133892335764e-03,0.000000000000000e+00
	1.000000000000000e+00,0.000000000000000e+00
	7.704306255644734e-11,3.530765799446937e-08
	-3.935656428244402e-11,1.299368763400094e-13
	-3.935656428244402e-11,1.299368763400094e-13
	3.935677877710499e-11,0.0
	-2.080996090872209e+02,0.0
	3.138291135619315e+00,0.0

 45	3.651741272548387e-03,0.000000000000000e+00
	1.000000000000000e+00,0.000000000000000e+00
	8.644372874825562e-11,3.849185392170351e-08
	-4.415877339302633e-11,1.500487325981493e-13
	-4.415877339302633e-11,1.500487325981493e-13
	4.415902832036507e-11,0.0
	-2.070996098286507e+02,0.0
	3.138194729608067e+00,0.0

 46	3.758374042884452e-03,0.000000000000000e+00
	1.000000000000000e+00,0.000000000000000e+00
	9.699144796085917e-11,4.196321381446719e-08
	-4.954693723782434e-11,1.732735348868796e-13
	-4.954693723782434e-11,1.732735348868796e-13
	4.954724021947940e-11,0.0
	-2.060996106140203e+02,0.0
	3.138095508495339e+00,0.0

 47	3.868120546330533e-03,0.000000000000000e+00
	1.000000000000000e+00,0.000000000000000e+00
	1.088261815034831e-10,4.574763523470081e-08
	-5.559255246719107e-11,2.000931096095073e-13
	-5.559255246719107e-11,2.000931096095073e-13
	5.559291256149389e-11,0.0
	-2.050996114459244e+02,0.0
	3.137993390079123e+00,0.0

 48	3.981071705534985e-03,0.000000000000000e+00
	1.000000000000000e+00,0.000000000000000e+00
	1.221049684861266e-10,4.987335127575565e-08
	-6.237583952142364e-11,2.310638608675432e-13
	-6.237583952142364e-11,2.310638608675432e-13
	6.237626749421766e-11,0.0
	-2.040996123271220e+02,0.0
	3.137888289757109e+00,0.0

 49	4.097321098135428e-03,0.000000000000000e+00
	1.000000000000000e+00,0.000000000000000e+00
	1.370040096149060e-10,5.437114118698797e-08
	-6.998680707143604e-11,2.668283136672694e-13
	-6.998680707143604e-11,2.668283136672694e-13
	6.998731571794552e-11,0.0
	-2.030996132605331e+02,0.0
	3.137780120456597e+00,0.0

 50	4.216965034285836e-03,0.000000000000000e+00
	1.000000000000000e+00,0.000000000000000e+00
	1.537210052465623e-10,5.927455999270703e-08
	-7.852644633646355e-11,3.081284437891169e-13
	-7.852644633646355e-11,3.081284437891169e-13
	7.852705086383520e-11,0.0
	-2.020996142492505e+02,0.0
	3.137668792562367e+00,0.0

 51	4.340102636447452e-03,0.000000000000000e+00
	1.000000000000000e+00,0.000000000000000e+00
	1.724777787260746e-10,6.462018881841653e-08
	-8.810807112542832e-11,3.558210708592670e-13
	-8.810807112542832e-11,3.558210708592670e-13
	8.810878960738254e-11,0.0
	-2.010996152965548e+02,0.0
	3.137554213842438e+00,0.0

 52	4.466835921509646e-03,0.000000000000000e+00
	1.000000000000000e+00,0.000000000000000e+00
	1.935232198169560e-10,7.044790779182521e-08
	-9.885882138213533e-11,4.108956339658299e-13
	-9.885882138213533e-11,4.108956339658299e-13
	9.885967529931985e-11,0.0
	-2.000996164059178e+02,0.0
	3.137436289371662e+00,0.0

 53	4.597269885308737e-03,0.000000000000000e+00
	1.000000000000000e+00,0.000000000000000e+00
	2.171365872807527e-10,7.680119355427769e-08
	-1.109213501835031e-10,4.744947185884890e-13
	-1.109213501835031e-10,4.744947185884890e-13
	1.109223650657039e-10,0.0
	-1.990996175810119e+02,0.0
	3.137314921453089e+00,0.0

 54	4.731512589614821e-03,0.000000000000000e+00
	1.000000000000000e+00,0.000000000000000e+00
	2.436312144271113e-10,8.372744360178275e-08
	-1.244557165739046e-10,5.479377606868144e-13
	-1.244557165739046e-10,5.479377606868144e-13
	1.244569227633147e-10,0.0
	-1.980996188257379e+02,0.0
	3.137190009537032e+00,0.0

 55	4.869675251658647e-03,0.000000000000000e+00
	1.000000000000000e+00,0.000000000000000e+00
	2.733586668056210e-10,9.127832987563143e-08
	-1.396415093506167e-10,6.327484197098335e-13
	-1.396415093506167e-10,6.327484197098335e-13
	1.396429429089813e-10,0.0
	-1.970996201442119e+02,0.0
	3.137061450137772e+00,0.0

 56	5.011872336272740e-03,0.000000000000000e+00
	1.000000000000000e+00,0.000000000000000e+00
	3.067134072042400e-10,9.951018423925061e-08
	-1.566802299772715e-10,7.306861883912792e-13
	-1.566802299772715e-10,7.306861883912792e-13
	1.566819337640322e-10,0.0
	-1.960996215408156e+02,0.0
	3.136929136747834e+00,0.0

 57	5.158221650723075e-03,0.000000000000000e+00
	1.000000000000000e+00,0.000000000000000e+00
	3.441380298593235e-10,1.084844187181303e-07
	-1.757979662435826e-10,8.437828951070331e-13
	-1.757979662435826e-10,8.437828951070331e-13
	1.757999911972521e-10,0.0
	-1.950996230201693e+02,0.0
	3.136792959749752e+00,0.0

 58	5.308844442309902e-03,0.000000000000000e+00
	1.000000000000000e+00,0.000000000000000e+00
	3.861291333240144e-10,1.182679836359780e-07
	-1.972483921424987e-10,9.743848560459753e-13
	-1.972483921424987e-10,9.743848560459753e-13
	1.972507988035756e-10,0.0
	-1.940996245871838e+02,0.0
	3.136652806325268e+00,0.0

 59	5.463865498818562e-03,0.000000000000000e+00
	1.000000000000000e+00,0.000000000000000e+00
	4.332439099272768e-10,1.289338670660305e-07
	-2.213161337686076e-10,1.125201551677194e-12
	-2.213161337686076e-10,1.125201551677194e-12
	2.213189940895632e-10,0.0
	-1.930996262470490e+02,0.0
	3.136508560361873e+00,0.0

 60	5.623413251903512e-03,0.000000000000000e+00
	1.000000000000000e+00,0.000000000000000e+00
	4.861075392541588e-10,1.405616393218421e-07
	-2.483205458932289e-10,1.299361837322378e-12
	-2.483205458932289e-10,1.299361837322378e-12
	2.483239453896774e-10,0.0
	-1.920996280052685e+02,0.0
	3.136360102356624e+00,0.0

 61	5.787619883491228e-03,0.000000000000000e+00
	1.000000000000000e+00,0.000000000000000e+00
	5.454214837541329e-10,1.532380465499800e-07
	-2.786199493234168e-10,1.500478853957006e-12
	-2.786199493234168e-10,1.500478853957006e-12
	2.786239896307827e-10,0.0
	-1.910996298676641e+02,0.0
	3.136207309317149e+00,0.0

 62	5.956621435290127e-03,0.000000000000000e+00
	1.000000000000000e+00,0.000000000000000e+00
	6.119727965467427e-10,1.670576578513275e-07
	-3.126163852617906e-10,1.732724985832774e-12
