Title: * sky130 bjt 3-stage high-frequency ch/riso sweep ac: ch=18p, riso=330k
Date: Fri May 22 22:49:30  2026
Command: ngspice-46, Build Mar 29 2026   15:02:07
Plotname: AC Analysis
Flags: complex
No. Variables: 9
No. Points: 721
Variables:
	0	frequency	frequency grid=3
	1	v(vin)	voltage
	2	v(b3_collector)	voltage
	3	v(vout_drv)	voltage
	4	v(vout_final)	voltage
	5	gain	notype
	6	gain_vv	notype
	7	gain_db	decibel
	8	phase_deg	phase
Values:
 0	1.000000000000000e-03,0.000000000000000e+00
	1.000000000000000e+00,0.000000000000000e+00
	4.860883475702307e-13,7.904423276747670e-10
	-2.483247083902651e-13,2.308006796385496e-16
	-2.483247083854795e-13,2.308058285300748e-16
	-2.483247083854795e-13,2.308058285300748e-16
	2.483248156468940e-13,0.0
	-2.520995975654135e+02,0.0
	3.140663202132595e+00,0.0

 1	1.029200527194428e-03,0.000000000000000e+00
	1.000000000000000e+00,0.000000000000000e+00
	5.454000917764013e-13,8.617279547994776e-10
	-2.786248964583783e-13,2.665244624897040e-16
	-2.786248964526905e-13,2.665304083366859e-16
	-2.786248964526905e-13,2.665304083366859e-16
	2.786250239331190e-13,0.0
	-2.510995976241402e+02,0.0
	3.140636061661247e+00,0.0

 2	1.059253725177289e-03,0.000000000000000e+00
	1.000000000000000e+00,0.000000000000000e+00
	6.119489624621634e-13,9.394424380156280e-10
	-3.126222649404242e-13,3.077776423667117e-16
	-3.126222649336642e-13,3.077845085234549e-16
	-3.126222649336642e-13,3.077845085234549e-16
	3.126224164444352e-13,0.0
	-2.500995976863443e+02,0.0
	3.140608128673934e+00,0.0

 3	1.090184492385128e-03,0.000000000000000e+00
	1.000000000000000e+00,0.000000000000000e+00
	6.866180224494548e-13,1.024165560135297e-09
	-3.507679377552172e-13,3.554160700953294e-16
	-3.507679377471830e-13,3.554239990091527e-16
	-3.507679377471830e-13,3.554239990091527e-16
	3.507681178180690e-13,0.0
	-2.490995977522388e+02,0.0
	3.140579380028786e+00,0.0

 4	1.122018454301964e-03,0.000000000000000e+00
	1.000000000000000e+00,0.000000000000000e+00
	7.703980844914081e-13,1.116529391343095e-09
	-3.935680842051402e-13,4.104280667424327e-16
	-3.935680841955915e-13,4.104372229089219e-16
	-3.935680841955915e-13,4.104372229089219e-16
	3.935682982102371e-13,0.0
	-2.480995978220317e+02,0.0
	3.140549791908171e+00,0.0

 5	1.154781984689459e-03,0.000000000000000e+00
	1.000000000000000e+00,0.000000000000000e+00
	8.644008587431043e-13,1.217223004694497e-09
	-4.415906355158695e-13,4.739549276101768e-16
	-4.415906355045209e-13,4.739655009858565e-16
	-4.415906355045209e-13,4.739655009858565e-16
	4.415908898613996e-13,0.0
	-2.470995978959637e+02,0.0
	3.140519339798976e+00,0.0

 6	1.188502227437019e-03,0.000000000000000e+00
	1.000000000000000e+00,0.000000000000000e+00
	9.698737044720135e-13,1.326997616886216e-09
	-4.954728209186485e-13,5.473145998799636e-16
	-4.954728209051606e-13,5.473268098231893e-16
	-4.954728209051606e-13,5.473268098231893e-16
	4.954731232088720e-13,0.0
	-2.460995979742767e+02,0.0
	3.140487998472292e+00,0.0

 7	1.223207119049932e-03,0.000000000000000e+00
	1.000000000000000e+00,0.000000000000000e+00
	1.088216181743153e-12,1.446672192637194e-09
	-5.559296232691069e-13,6.320290251237516e-16
	-5.559296232530768e-13,6.320431249455783e-16
	-5.559296232530768e-13,6.320431249455783e-16
	5.559299825417043e-13,0.0
	-2.450995980572293e+02,0.0
	3.140455741962513e+00,0.0

 8	1.258925411794168e-03,0.000000000000000e+00
	1.000000000000000e+00,0.000000000000000e+00
	1.220998622716167e-12,1.577139554498732e-09
	-6.237632664054306e-13,7.298557139410298e-16
	-6.237632663863785e-13,7.298719961604743e-16
	-6.237632663863785e-13,7.298719961604743e-16
	6.237636934017040e-13,0.0
	-2.440995981450938e+02,0.0
	3.140422543545825e+00,0.0

 9	1.295686697517020e-03,0.000000000000000e+00
	1.000000000000000e+00,0.000000000000000e+00
	1.369982968978105e-12,1.719373043670115e-09
	-6.998738601345974e-13,8.428242077745392e-16
	-6.998738601119540e-13,8.428430101872602e-16
	-6.998738601119540e-13,8.428430101872602e-16
	6.998743676206086e-13,0.0
	-2.430995982381694e+02,0.0
	3.140388375718066e+00,0.0

 10	1.333521432163325e-03,0.000000000000000e+00
	1.000000000000000e+00,0.000000000000000e+00
	1.537146151420574e-12,1.874433781521383e-09
	-7.852713441018366e-13,9.732781843567380e-16
	-7.852713440749250e-13,9.732998970430376e-16
	-7.852713440749250e-13,9.732998970430376e-16
	7.852719472500777e-13,0.0
	-2.420995983367578e+02,0.0
	3.140353210171940e+00,0.0

 11	1.372460961007563e-03,0.000000000000000e+00
	1.000000000000000e+00,0.000000000000000e+00
	1.724706322881695e-12,2.043478585981374e-09
	-8.810888890238583e-13,1.123924080309101e-15
	-8.810888889918736e-13,1.123949153726636e-15
	-8.810888889918736e-13,1.123949153726636e-15
	8.810896058668690e-13,0.0
	-2.410995984411884e+02,0.0
	3.140317017773565e+00,0.0

 12	1.412537544622755e-03,0.000000000000000e+00
	1.000000000000000e+00,0.000000000000000e+00
	1.935152291655938e-12,2.227768601863910e-09
	-9.885979331159549e-13,1.297887239638271e-15
	-9.885979330779412e-13,1.297916193967371e-15
	-9.885979330779412e-13,1.297916193967371e-15
	9.885987850854482e-13,0.0
	-2.400995985518122e+02,0.0
	3.140279768538333e+00,0.0

 13	1.453784385607663e-03,0.000000000000000e+00
	1.000000000000000e+00,0.000000000000000e+00
	2.171276546437238e-12,2.428678709516373e-09
	-1.109225053235334e-12,1.498776753001251e-15
	-1.109225053190154e-12,1.498810188936716e-15
	-1.109225053190154e-12,1.498810188936716e-15
	1.109226065802947e-12,0.0
	-2.390995986689845e+02,0.0
	3.140241431606076e+00,0.0

 14	1.496235656094435e-03,0.000000000000000e+00
	1.000000000000000e+00,0.000000000000000e+00
	2.436212310896136e-12,2.647707781966522e-09
	-1.244570894601313e-12,1.730760332899886e-15
	-1.244570894547617e-12,1.730798944113161e-15
	-1.244570894547617e-12,1.730798944113161e-15
	1.244572098040142e-12,0.0
	-2.380995987930961e+02,0.0
	3.140201975215492e+00,0.0

 15	1.539926526059493e-03,0.000000000000000e+00
	1.000000000000000e+00,0.000000000000000e+00
	2.733475119601783e-12,2.886489867107964e-09
	-1.396431410283557e-12,1.998650778196007e-15
	-1.396431410219739e-12,1.998695365726275e-15
	-1.396431410219739e-12,1.998695365726275e-15
	1.396432840573242e-12,0.0
	-2.370995989245701e+02,0.0
	3.140161366677835e+00,0.0

 16	1.584893192461115e-03,0.000000000000000e+00
	1.000000000000000e+00,0.000000000000000e+00
	3.067009466979678e-12,3.146806378350819e-09
	-1.566821692292966e-12,2.308005821766181e-15
	-1.566821692217119e-12,2.308057310638926e-15
	-1.566821692217119e-12,2.308057310638926e-15
	1.566823392195389e-12,0.0
	-2.360995990638322e+02,0.0
	3.140119572349833e+00,0.0

 17	1.631172909227840e-03,0.000000000000000e+00
	1.000000000000000e+00,0.000000000000000e+00
	3.441241148274807e-12,3.430599384656015e-09
	-1.758002710482290e-12,2.665243432738014e-15
	-1.758002710392145e-12,2.665302891155839e-15
	-1.758002710392145e-12,2.665302891155839e-15
	1.758004730820037e-12,0.0
	-2.350995992113397e+02,0.0
	3.140076557605815e+00,0.0

 18	1.678804018122562e-03,0.000000000000000e+00
	1.000000000000000e+00,0.000000000000000e+00
	3.861135987070430e-12,3.739986099120221e-09
	-1.972511314069646e-12,3.077774965408024e-15
	-1.972511313962509e-12,3.077843626911856e-15
	-1.972511313962509e-12,3.077843626911856e-15
	1.972513715245472e-12,0.0
	-2.340995993675955e+02,0.0
	3.140032286809028e+00,0.0

 19	1.727825980507865e-03,0.000000000000000e+00
	1.000000000000000e+00,0.000000000000000e+00
	4.332265728667265e-12,4.077274674221855e-09
	-2.213193893893198e-12,3.554158917201370e-15
	-2.213193893765864e-12,3.554238206261805e-15
	-2.213193893765864e-12,3.554238206261805e-15
	2.213196747695906e-12,0.0
	-2.330995995331082e+02,0.0
	3.139986723282106e+00,0.0

 20	1.778279410038925e-03,0.000000000000000e+00
	1.000000000000000e+00,0.000000000000000e+00
	4.860881973622842e-12,4.444981421516262e-09
	-2.483244152043491e-12,4.104278485526995e-15
	-2.483244151892156e-12,4.104370047096727e-15
	-2.483244151892156e-12,4.104370047096727e-15
	2.483247543794230e-12,0.0
	-2.320995997084235e+02,0.0
	3.139939829276690e+00,0.0

 21	1.830206106311058e-03,0.000000000000000e+00
	1.000000000000000e+00,0.000000000000000e+00
	5.453999132538607e-12,4.845849584277736e-09
	-2.786245480062621e-12,4.739546607188851e-15
	-2.786245479882759e-12,4.739652340829247e-15
	-2.786245479882759e-12,4.739652340829247e-15
	2.786249511165756e-12,0.0
	-2.310995998941320e+02,0.0
	3.139891565942154e+00,0.0

 22	1.883649089489803e-03,0.000000000000000e+00
	1.000000000000000e+00,0.000000000000000e+00
	6.119487502877154e-12,5.282869803151134e-09
	-3.126218508043152e-12,5.473142734167894e-15
	-3.126218507829386e-12,5.473264833457766e-15
	-3.126218507829386e-12,5.473264833457766e-15
	3.126223299017991e-12,0.0
	-2.300996000908421e+02,0.0
	3.139841893293415e+00,0.0

 23	1.938652635952210e-03,0.000000000000000e+00
	1.000000000000000e+00,0.000000000000000e+00
	6.866177702795027e-12,5.759302427440810e-09
	-3.507674455535002e-12,6.320286257913377e-15
	-3.507674455280939e-12,6.320427255957479e-15
	-3.507674455280939e-12,6.320427255957479e-15
	3.507680149618995e-12,0.0
	-2.290996002992134e+02,0.0
	3.139790770177812e+00,0.0

 24	1.995262314968882e-03,0.000000000000000e+00
	1.000000000000000e+00,0.000000000000000e+00
	7.703977847867910e-12,6.278701838556734e-09
	-3.935674992222997e-12,7.298552254746850e-15
	-3.935674991921043e-12,7.298715076728255e-15
	-3.935674991921043e-12,7.298715076728255e-15
	3.935681759654161e-12,0.0
	-2.280996005199248e+02,0.0
	3.139738154241006e+00,0.0

 25	2.053525026457149e-03,0.000000000000000e+00
	1.000000000000000e+00,0.000000000000000e+00
	8.644005025435820e-12,6.844942966991365e-09
	-4.415899402625173e-12,8.428236102792098e-15
	-4.415899402266300e-12,8.428424126658716e-15
	-4.415899402266300e-12,8.428424126658716e-15
	4.415907445731752e-12,0.0
	-2.270996007537167e+02,0.0
	3.139684001891896e+00,0.0

 26	2.113489039836650e-03,0.000000000000000e+00
	1.000000000000000e+00,0.000000000000000e+00
	9.698732811282422e-12,7.462250200745958e-09
	-4.954719946086195e-12,9.732774534962254e-15
	-4.954719945659674e-12,9.732991661506493e-15
	-4.954719945659674e-12,9.732991661506493e-15
	4.954729505335734e-12,0.0
	-2.260996010013609e+02,0.0
	3.139628268266507e+00,0.0

 27	2.175204034019526e-03,0.000000000000000e+00
	1.000000000000000e+00,0.000000000000000e+00
	1.088215678598286e-11,8.135228900790756e-09
	-5.559286411979121e-12,1.123923186315418e-14
	-5.559286411472200e-12,1.123948259693963e-14
	-5.559286411472200e-12,1.123948259693963e-14
	5.559297773167804e-12,0.0
	-2.250996012636787e+02,0.0
	3.139570907190813e+00,0.0

 28	2.238721138568343e-03,0.000000000000000e+00
	1.000000000000000e+00,0.000000000000000e+00
	1.220998024727054e-11,8.868899758719422e-09
	-6.237620992115999e-12,1.297886146100043e-14
	-6.237620991513522e-12,1.297915100381449e-14
	-6.237620991513522e-12,1.297915100381449e-14
	6.237634494913189e-12,0.0
	-2.240996015415388e+02,0.0
	3.139511871142492e+00,0.0

 29	2.304092976055850e-03,0.000000000000000e+00
	1.000000000000000e+00,0.000000000000000e+00
	1.369982258267123e-11,9.668736252890798e-09
	-6.998724729223875e-12,1.498775415377442e-14
	-6.998724728507830e-12,1.498808851254568e-14
	-6.998724728507830e-12,1.498808851254568e-14
	6.998740777327324e-12,0.0
	-2.230996018358645e+02,0.0
	3.139451111211554e+00,0.0

 30	2.371373705661660e-03,0.000000000000000e+00
	1.000000000000000e+00,0.000000000000000e+00
	1.537145306738611e-11,1.054070548250646e-08
	-7.852696953969782e-12,1.730758696707538e-14
	-7.852696953118763e-12,1.730797307849452e-14
	-7.852696953118763e-12,1.730797307849452e-14
	7.852716027175108e-12,0.0
	-2.220996021476319e+02,0.0
	3.139388577059818e+00,0.0

 31	2.440619068041985e-03,0.000000000000000e+00
	1.000000000000000e+00,0.000000000000000e+00
	1.724705318975692e-11,1.149131268424800e-08
	-8.810869295348003e-12,1.998648776795441e-14
	-8.810869294336563e-12,1.998693364238420e-14
	-8.810869294336563e-12,1.998693364238420e-14
	8.810891963893288e-12,0.0
	-2.210996024778693e+02,0.0
	3.139324216879211e+00,0.0

 32	2.511886431509585e-03,0.000000000000000e+00
	1.000000000000000e+00,0.000000000000000e+00
	1.935151098512753e-11,1.252764976355026e-08
	-9.885956042595990e-12,2.308003373639220e-14
	-9.885956041393891e-12,2.308054862405192e-14
	-9.885956041393891e-12,2.308054862405192e-14
	9.885982984210379e-12,0.0
	-2.200996028276766e+02,0.0
	3.139257977348846e+00,0.0

 33	2.585234839562196e-03,0.000000000000000e+00
	1.000000000000000e+00,0.000000000000000e+00
	2.171275128382829e-11,1.365744820262581e-08
	-1.109222285384167e-11,2.665240438169208e-14
	-1.109222285241297e-11,2.665299896456429e-14
	-1.109222285241297e-11,2.665299896456429e-14
	1.109225487400765e-11,0.0
	-2.190996031982135e+02,0.0
	3.139189803590852e+00,0.0

 34	2.660725059798815e-03,0.000000000000000e+00
	1.000000000000000e+00,0.000000000000000e+00
	2.436210625534318e-11,1.488913673989404e-08
	-1.244567605003889e-11,3.077771302432335e-14
	-1.244567604834089e-11,3.077839963776409e-14
	-1.244567604834089e-11,3.077839963776409e-14
	1.244571410607404e-11,0.0
	-2.180996035907021e+02,0.0
	3.139119639124903e+00,0.0

 35	2.738419634264367e-03,0.000000000000000e+00
	1.000000000000000e+00,0.000000000000000e+00
	2.733473116546264e-11,1.623190425108755e-08
	-1.396427500590402e-11,3.554154436623517e-14
	-1.396427500388594e-11,3.554233725488536e-14
	-1.396427500388594e-11,3.554233725488536e-14
	1.396432023558222e-11,0.0
	-2.170996040064502e+02,0.0
	3.139047425821432e+00,0.0

 36	2.818382931264460e-03,0.000000000000000e+00
	1.000000000000000e+00,0.000000000000000e+00
	3.067007086346419e-11,1.769576830125855e-08
	-1.566817045615568e-11,4.104273004853168e-14
	-1.566817045375718e-11,4.104364566183864e-14
	-1.566817045375718e-11,4.104364566183864e-14
	1.566822421172350e-11,0.0
	-2.160996044468266e+02,0.0
	3.138973103853474e+00,0.0

 37	2.900681198693160e-03,0.000000000000000e+00
	1.000000000000000e+00,0.000000000000000e+00
	3.441238318884250e-11,1.929164987888902e-08
	-1.757997187895365e-11,4.739539903191125e-14
	-1.757997187610303e-11,4.739645636539135e-14
	-1.757997187610303e-11,4.739645636539135e-14
	1.758003576755887e-11,0.0
	-2.150996049133022e+02,0.0
	3.138896611647098e+00,0.0

 38	2.985382618917966e-03,0.000000000000000e+00
	1.000000000000000e+00,0.000000000000000e+00
	3.861132624333418e-11,2.103145486988381e-08
	-1.972504750463556e-11,5.473134533787867e-14
	-1.972504750124759e-11,5.473256632720089e-14
	-1.972504750124759e-11,5.473256632720089e-14
	1.972512343637653e-11,0.0
	-2.140996054074208e+02,0.0
	3.138817885830399e+00,0.0

 39	3.072557365267454e-03,0.000000000000000e+00
	1.000000000000000e+00,0.000000000000000e+00
	4.332261732048925e-11,2.292816287904034e-08
	-2.213186093034503e-11,6.320276227156667e-14
	-2.213186092631842e-11,6.320417224763288e-14
	-2.213186092631842e-11,6.320417224763288e-14
	2.213195117537741e-11,0.0
	-2.130996059308128e+02,0.0
	3.138736861180996e+00,0.0

 40	3.162277660168387e-03,0.000000000000000e+00
	1.000000000000000e+00,0.000000000000000e+00
	4.860877223630756e-11,2.499592406164893e-08
	-2.483234880705956e-11,7.298539985053713e-14
	-2.483234880227393e-11,7.298702806499988e-14
	-2.483234880227393e-11,7.298702806499988e-14
	2.483245606346785e-11,0.0
	-2.120996064852191e+02,0.0
	3.138653470572002e+00,0.0

 41	3.254617834980467e-03,0.000000000000000e+00
	1.000000000000000e+00,0.000000000000000e+00
	5.453993487160430e-11,2.725016468770843e-08
	-2.786234461057954e-11,8.428221094412782e-14
	-2.786234460489180e-11,8.428409117624826e-14
	-2.786234460489180e-11,8.428409117624826e-14
	2.786247208504243e-11,0.0
	-2.110996070724813e+02,0.0
	3.138567644916410e+00,0.0

 42	3.349654391578285e-03,0.000000000000000e+00
	1.000000000000000e+00,0.000000000000000e+00
	6.119480793332995e-11,2.970770222620125e-08
	-3.126205411933784e-11,9.732756176609460e-14
	-3.126205411257796e-11,9.732973302353019e-14
	-3.126205411257796e-11,9.732973302353019e-14
	3.126220562299920e-11,0.0
	-2.100996076945349e+02,0.0
	3.138479313109860e+00,0.0

 43	3.447466065731503e-03,0.000000000000000e+00
	1.000000000000000e+00,0.000000000000000e+00
	6.866169728494854e-11,3.238687080781090e-08
	-3.507658890785557e-11,1.123920940709338e-13
	-3.507658889982142e-11,1.123946013989943e-13
	-3.507658889982142e-11,1.123946013989943e-13
	3.507676897026719e-11,0.0
	-2.090996083534456e+02,0.0
	3.138388401971730e+00,0.0

 44	3.548133892335764e-03,0.000000000000000e+00
	1.000000000000000e+00,0.000000000000000e+00
	7.703968370387857e-11,3.530765800227278e-08
	-3.935656493484025e-11,1.297883399258096e-13
	-3.935656492529167e-11,1.297912353419702e-13
	-3.935656492529167e-11,1.297912353419702e-13
	3.935677893938311e-11,0.0
	-2.080996090514067e+02,0.0
	3.138294836184518e+00,0.0

 45	3.651741272548387e-03,0.000000000000000e+00
	1.000000000000000e+00,0.000000000000000e+00
	8.643993761436954e-11,3.849185393071129e-08
	-4.415877416839653e-11,1.498772055422284e-13
	-4.415877415704801e-11,1.498805491152868e-13
	-4.415877415704801e-11,1.498805491152868e-13
	4.415902851322903e-11,0.0
	-2.070996097907152e+02,0.0
	3.138198538231438e+00,0.0

 46	3.758374042884452e-03,0.000000000000000e+00
	1.000000000000000e+00,0.000000000000000e+00
	9.698719423993405e-11,4.196321382486923e-08
	-4.954693815935336e-11,1.730754586787205e-13
	-4.954693814586563e-11,1.730793197749870e-13
	-4.954693814586563e-11,1.730793197749870e-13
	4.954724044869874e-11,0.0
	-2.060996105738370e+02,0.0
	3.138099428332207e+00,0.0

 47	3.868120546330533e-03,0.000000000000000e+00
	1.000000000000000e+00,0.000000000000000e+00
	1.088214087516005e-10,4.574763524671286e-08
	-5.559255356242974e-11,1.998643749512002e-13
	-5.559255354639954e-11,1.998688336735721e-13
	-5.559255354639954e-11,1.998688336735721e-13
	5.559291283392132e-11,0.0
	-2.050996114033601e+02,0.0
	3.137997424376953e+00,0.0

 48	3.981071705534985e-03,0.000000000000000e+00
	1.000000000000000e+00,0.000000000000000e+00
	1.220996133722132e-10,4.987335128962701e-08
	-6.237584082311674e-11,2.307997224231635e-13
	-6.237584080406482e-11,2.308048712729407e-13
	-6.237584080406482e-11,2.308048712729407e-13
	6.237626781799822e-11,0.0
	-2.040996122820356e+02,0.0
	3.137892441858189e+00,0.0

 49	4.097321098135428e-03,0.000000000000000e+00
	1.000000000000000e+00,0.000000000000000e+00
	1.369980010803818e-10,5.437114120300634e-08
	-6.998680861850066e-11,2.665232916172715e-13
	-6.998680859585742e-11,2.665292374131872e-13
	-6.998680859585742e-11,2.665292374131872e-13
	6.998731610275949e-11,0.0
	-2.030996132127752e+02,0.0
	3.137784393800812e+00,0.0

 50	4.216965034285836e-03,0.000000000000000e+00
	1.000000000000000e+00,0.000000000000000e+00
	1.537142635624523e-10,5.927456001120472e-08
	-7.852644817515241e-11,3.077762101474851e-13
	-7.852644814824088e-11,3.077830762417636e-13
	-7.852644814824088e-11,3.077830762417636e-13
	7.852705132118730e-11,0.0
	-2.020996141986627e+02,0.0
	3.137673190690043e+00,0.0

 51	4.340102636447452e-03,0.000000000000000e+00
	1.000000000000000e+00,0.000000000000000e+00
	1.724702144350727e-10,6.462018883977733e-08
	-8.810807331071312e-11,3.554143181950562e-13
	-8.810807327872870e-11,3.554222470324722e-13
	-8.810807327872870e-11,3.554222470324722e-13
	8.810879015094642e-11,0.0
	-2.010996152429695e+02,0.0
	3.137558740397278e+00,0.0

 52	4.466835921509646e-03,0.000000000000000e+00
	1.000000000000000e+00,0.000000000000000e+00
	1.935147325464030e-10,7.044790781649228e-08
	-9.885882397934953e-11,4.104259238057012e-13
	-9.885882394133599e-11,4.104350798787285e-13
	-9.885882394133599e-11,4.104350798787285e-13
	9.885967594534619e-11,0.0
	-2.000996163491574e+02,0.0
	3.137440948103765e+00,0.0

 53	4.597269885308737e-03,0.000000000000000e+00
	1.000000000000000e+00,0.000000000000000e+00
	2.171270644107984e-10,7.680119358276923e-08
	-1.109213532703060e-10,4.739523063554060e-13
	-1.109213532251268e-10,4.739628796167626e-13
	-1.109213532251268e-10,4.739628796167626e-13
	1.109223658335171e-10,0.0
	-1.990996175208874e+02,0.0
	3.137319716222051e+00,0.0

 54	4.731512589614821e-03,0.000000000000000e+00
	1.000000000000000e+00,0.000000000000000e+00
	2.436205295962697e-10,8.372744363467686e-08
