Title: * sky130 bjt 3-stage high-frequency fourth-pole ac: chout=47p
Date: Fri May 22 21:56:34  2026
Command: ngspice-46, Build Mar 29 2026   15:02:07
Plotname: AC Analysis
Flags: complex
No. Variables: 8
No. Points: 721
Variables:
	0	frequency	frequency grid=3
	1	v(vin)	voltage
	2	v(b3_collector)	voltage
	3	v(vout_final)	voltage
	4	gain	notype
	5	gain_vv	notype
	6	gain_db	decibel
	7	phase_deg	phase
Values:
 0	1.000000000000000e-03,0.000000000000000e+00
	1.000000000000000e+00,0.000000000000000e+00
	4.861096667803552e-13,7.904423276608954e-10
	-2.483247079271566e-13,2.311740406070267e-16
	-2.483247079271566e-13,2.311740406070267e-16
	2.483248155310796e-13,0.0
	-2.520995975694644e+02,0.0
	3.140661719347465e+00,0.0

 1	1.029200527194428e-03,0.000000000000000e+00
	1.000000000000000e+00,0.000000000000000e+00
	5.454240123230073e-13,8.617279547834594e-10
	-2.786248959079733e-13,2.669556129859879e-16
	-2.786248959079733e-13,2.669556129859879e-16
	2.786250237954737e-13,0.0
	-2.510995976284312e+02,0.0
	3.140634535578018e+00,0.0

 2	1.059253725177289e-03,0.000000000000000e+00
	1.000000000000000e+00,0.000000000000000e+00
	6.119758017561969e-13,9.394424379971301e-10
	-3.126222642862666e-13,3.082755271632753e-16
	-3.126222642862666e-13,3.082755271632753e-16
	3.126224162808435e-13,0.0
	-2.500995976908895e+02,0.0
	3.140606558028281e+00,0.0

 3	1.090184492385128e-03,0.000000000000000e+00
	1.000000000000000e+00,0.000000000000000e+00
	6.866481366318348e-13,1.024165560113937e-09
	-3.507679369777504e-13,3.559910184530927e-16
	-3.507679369777504e-13,3.559910184530927e-16
	3.507681176236408e-13,0.0
	-2.490995977570533e+02,0.0
	3.140577763519462e+00,0.0

 4	1.122018454301964e-03,0.000000000000000e+00
	1.000000000000000e+00,0.000000000000000e+00
	7.704318731587927e-13,1.116529391318429e-09
	-3.935680832811191e-13,4.110920067043625e-16
	-3.935680832811191e-13,4.110920067043625e-16
	3.935682979791588e-13,0.0
	-2.480995978271315e+02,0.0
	3.140548128195935e+00,0.0

 5	1.154781984689459e-03,0.000000000000000e+00
	1.000000000000000e+00,0.000000000000000e+00
	8.644387702502898e-13,1.217223004666012e-09
	-4.415906344176665e-13,4.747216334636208e-16
	-4.415906344176665e-13,4.747216334636208e-16
	4.415908895867604e-13,0.0
	-2.470995979013657e+02,0.0
	3.140517627505479e+00,0.0

 6	1.188502227437019e-03,0.000000000000000e+00
	1.000000000000000e+00,0.000000000000000e+00
	9.699162418813190e-13,1.326997616853322e-09
	-4.954728196134319e-13,5.481999779216284e-16
	-4.954728196134319e-13,5.481999779216284e-16
	4.954731228824630e-13,0.0
	-2.460995979799988e+02,0.0
	3.140486236178936e+00,0.0

 7	1.223207119049932e-03,0.000000000000000e+00
	1.000000000000000e+00,0.000000000000000e+00
	1.088263909499744e-12,1.446672192599208e-09
	-5.559296217178546e-13,6.330514436558489e-16
	-5.559296217178546e-13,6.330514436558489e-16
	5.559299821537665e-13,0.0
	-2.450995980632904e+02,0.0
	3.140453928209277e+00,0.0

 8	1.258925411794168e-03,0.000000000000000e+00
	1.000000000000000e+00,0.000000000000000e+00
	1.221052174137886e-12,1.577139554454867e-09
	-6.237632645617668e-13,7.310363843447872e-16
	-6.237632645617668e-13,7.310363843447872e-16
	6.237636929406423e-13,0.0
	-2.440995981515141e+02,0.0
	3.140420676830055e+00,0.0

 9	1.295686697517020e-03,0.000000000000000e+00
	1.000000000000000e+00,0.000000000000000e+00
	1.370043054659199e-12,1.719373043619459e-09
	-6.998738579433978e-13,8.441876245668687e-16
	-6.998738579433978e-13,8.441876245668687e-16
	6.998743670726346e-13,0.0
	-2.430995982449701e+02,0.0
	3.140386454493230e+00,0.0

 10	1.333521432163325e-03,0.000000000000000e+00
	1.000000000000000e+00,0.000000000000000e+00
	1.537213568660832e-12,1.874433781462887e-09
	-7.852713414975888e-13,9.748526333596183e-16
	-7.852713414975888e-13,9.748526333596183e-16
	7.852719465988070e-13,0.0
	-2.420995983439615e+02,0.0
	3.140351232846347e+00,0.0

 11	1.372460961007563e-03,0.000000000000000e+00
	1.000000000000000e+00,0.000000000000000e+00
	1.724781966266116e-12,2.043478585913826e-09
	-8.810888859287072e-13,1.125742225474219e-15
	-8.810888859287072e-13,1.125742225474219e-15
	8.810896050928354e-13,0.0
	-2.410995984488189e+02,0.0
	3.140314982709043e+00,0.0

 12	1.412537544622755e-03,0.000000000000000e+00
	1.000000000000000e+00,0.000000000000000e+00
	1.935237164925296e-12,2.227768601785907e-09
	-9.885979294373604e-13,1.299986800701268e-15
	-9.885979294373604e-13,1.299986800701268e-15
	9.885987841655069e-13,0.0
	-2.400995985598948e+02,0.0
	3.140277674048878e+00,0.0

 13	1.453784385607663e-03,0.000000000000000e+00
	1.000000000000000e+00,0.000000000000000e+00
	2.171371775807090e-12,2.428678709426294e-09
	-1.109225048863315e-12,1.501201288024392e-15
	-1.109225048863315e-12,1.501201288024392e-15
	1.109226064709593e-12,0.0
	-2.390995986775461e+02,0.0
	3.140239275956450e+00,0.0

 14	1.496235656094435e-03,0.000000000000000e+00
	1.000000000000000e+00,0.000000000000000e+00
	2.436319160000979e-12,2.647707781862501e-09
	-1.244570889405155e-12,1.733560141937832e-15
	-1.244570889405155e-12,1.733560141937832e-15
	1.244572096740684e-12,0.0
	-2.380995988021650e+02,0.0
	3.140199756619789e+00,0.0

 15	1.539926526059493e-03,0.000000000000000e+00
	1.000000000000000e+00,0.000000000000000e+00
	2.733595006262683e-12,2.886489866987844e-09
	-1.396431404107919e-12,2.001883946832374e-15
	-1.396431404107919e-12,2.001883946832374e-15
	1.396432839028842e-12,0.0
	-2.370995989341763e+02,0.0
	3.140159083297998e+00,0.0

 16	1.584893192461115e-03,0.000000000000000e+00
	1.000000000000000e+00,0.000000000000000e+00
	3.067143982017833e-12,3.146806378212106e-09
	-1.566821684953206e-12,2.311739426170125e-15
	-1.566821684953206e-12,2.311739426170125e-15
	1.566823390359864e-12,0.0
	-2.360995990740076e+02,0.0
	3.140117222294135e+00,0.0

 17	1.631172909227840e-03,0.000000000000000e+00
	1.000000000000000e+00,0.000000000000000e+00
	3.441392076620731e-12,3.430599384495833e-09
	-1.758002701758969e-12,2.669554931241305e-15
	-1.758002701758969e-12,2.669554931241305e-15
	1.758004728638511e-12,0.0
	-2.350995992221181e+02,0.0
	3.140074138927289e+00,0.0

 18	1.678804018122562e-03,0.000000000000000e+00
	1.000000000000000e+00,0.000000000000000e+00
	3.861305331448816e-12,3.739986098935241e-09
	-1.972511303701955e-12,3.082753805472286e-15
	-1.972511303701955e-12,3.082753805472286e-15
	1.972513712652719e-12,0.0
	-2.340995993790126e+02,0.0
	3.140029797503853e+00,0.0

 19	1.727825980507865e-03,0.000000000000000e+00
	1.000000000000000e+00,0.000000000000000e+00
	4.332455736171853e-12,4.077274674008245e-09
	-2.213193881571178e-12,3.559908391113980e-15
	-2.213193881571178e-12,3.559908391113980e-15
	2.213196744614416e-12,0.0
	-2.330995995452018e+02,0.0
	3.139984161287951e+00,0.0

 20	1.778279410038925e-03,0.000000000000000e+00
	1.000000000000000e+00,0.000000000000000e+00
	4.861095165533889e-12,4.444981421269588e-09
	-2.483244137398745e-12,4.110917873323977e-15
	-2.483244137398745e-12,4.110917873323977e-15
	2.483247540131873e-12,0.0
	-2.320995997212336e+02,0.0
	3.139937192471002e+00,0.0

 21	1.830206106311058e-03,0.000000000000000e+00
	1.000000000000000e+00,0.000000000000000e+00
	5.454238337778615e-12,4.845849583992883e-09
	-2.786245462657305e-12,4.747213651262164e-15
	-2.786245462657305e-12,4.747213651262164e-15
	2.786249506813033e-12,0.0
	-2.310995999077013e+02,0.0
	3.139888852140401e+00,0.0

 22	1.883649089489803e-03,0.000000000000000e+00
	1.000000000000000e+00,0.000000000000000e+00
	6.119755895548832e-12,5.282869802822192e-09
	-3.126218487356906e-12,5.481996496895606e-15
	-3.126218487356906e-12,5.481996496895606e-15
	3.126223293844778e-12,0.0
	-2.300996001052153e+02,0.0
	3.139839100247277e+00,0.0

 23	1.938652635952210e-03,0.000000000000000e+00
	1.000000000000000e+00,0.000000000000000e+00
	6.866478844299525e-12,5.759302427060950e-09
	-3.507674430949345e-12,6.330510421597094e-15
	-3.507674430949345e-12,6.330510421597094e-15
	3.507680143470611e-12,0.0
	-2.290996003144383e+02,0.0
	3.139787895573315e+00,0.0

 24	1.995262314968882e-03,0.000000000000000e+00
	1.000000000000000e+00,0.000000000000000e+00
	7.704315734162267e-12,6.278701838118083e-09
	-3.935674963002908e-12,7.310358932317569e-15
	-3.935674963002908e-12,7.310358932317569e-15
	3.935681752346810e-12,0.0
	-2.280996005360518e+02,0.0
	3.139735195696609e+00,0.0

 25	2.053525026457149e-03,0.000000000000000e+00
	1.000000000000000e+00,0.000000000000000e+00
	8.644384140056646e-12,6.844942966484818e-09
	-4.415899367897020e-12,8.441870238340922e-15
	-4.415899367897020e-12,8.441870238340922e-15
	4.415907437046934e-12,0.0
	-2.270996007707993e+02,0.0
	3.139680956956516e+00,0.0

 26	2.113489039836650e-03,0.000000000000000e+00
	1.000000000000000e+00,0.000000000000000e+00
	9.699158184839434e-12,7.462250200161009e-09
	-4.954719904811718e-12,9.748518985390439e-15
	-4.954719904811718e-12,9.748518985390439e-15
	4.954729495013815e-12,0.0
	-2.260996010194557e+02,0.0
	3.139625134417488e+00,0.0

 27	2.175204034019526e-03,0.000000000000000e+00
	1.000000000000000e+00,0.000000000000000e+00
	1.088263406291167e-11,8.135228900115258e-09
	-5.559286362924295e-12,1.125741326636550e-14
	-5.559286362924295e-12,1.125741326636550e-14
	5.559297760900155e-12,0.0
	-2.250996012828458e+02,0.0
	3.139567681831837e+00,0.0

 28	2.238721138568343e-03,0.000000000000000e+00
	1.000000000000000e+00,0.000000000000000e+00
	1.221051576073054e-11,8.868899757939372e-09
	-6.237620933814249e-12,1.299985701237849e-14
	-6.237620933814249e-12,1.299985701237849e-14
	6.237634480333076e-12,0.0
	-2.240996015618416e+02,0.0
	3.139508551601428e+00,0.0

 29	2.304092976055850e-03,0.000000000000000e+00
	1.000000000000000e+00,0.000000000000000e+00
	1.370042343858226e-11,9.668736251990014e-09
	-6.998724659932100e-12,1.501199943152842e-14
	-6.998724659932100e-12,1.501199943152842e-14
	6.998740759998803e-12,0.0
	-2.230996018573703e+02,0.0
	3.139447694738244e+00,0.0

 30	2.371373705661660e-03,0.000000000000000e+00
	1.000000000000000e+00,0.000000000000000e+00
	1.537212723871916e-11,1.054070548146625e-08
	-7.852696871616406e-12,1.733558496880014e-14
	-7.852696871616406e-12,1.733558496880014e-14
	7.852716006580163e-12,0.0
	-2.220996021704120e+02,0.0
	3.139385060823798e+00,0.0

 31	2.440619068041985e-03,0.000000000000000e+00
	1.000000000000000e+00,0.000000000000000e+00
	1.724780962232997e-11,1.149131268304678e-08
	-8.810869197470836e-12,2.001881934587490e-14
	-8.810869197470836e-12,2.001881934587490e-14
	8.810891939416144e-12,0.0
	-2.210996025019992e+02,0.0
	3.139320597967368e+00,0.0

 32	2.511886431509585e-03,0.000000000000000e+00
	1.000000000000000e+00,0.000000000000000e+00
	1.935235971630790e-11,1.252764976216156e-08
	-9.885955926267556e-12,2.311736964778034e-14
	-9.885955926267556e-12,2.311736964778034e-14
	9.885982955118020e-12,0.0
	-2.200996028532373e+02,0.0
	3.139254252763003e+00,0.0

 33	2.585234839562196e-03,0.000000000000000e+00
	1.000000000000000e+00,0.000000000000000e+00
	2.171370357573319e-11,1.365744820102509e-08
	-1.109222271558743e-11,2.669551920447076e-14
	-1.109222271558743e-11,2.669551920447076e-14
	1.109225483943366e-11,0.0
	-2.190996032252870e+02,0.0
	3.139185970245284e+00,0.0

 34	2.660725059798815e-03,0.000000000000000e+00
	1.000000000000000e+00,0.000000000000000e+00
	2.436317474425758e-11,1.488913673804428e-08
	-1.244567588572244e-11,3.082750122649293e-14
	-1.244567588572244e-11,3.082750122649293e-14
	1.244571406498176e-11,0.0
	-2.180996036193804e+02,0.0
	3.139115693843782e+00,0.0

 35	2.738419634264367e-03,0.000000000000000e+00
	1.000000000000000e+00,0.000000000000000e+00
	2.733593002953532e-11,1.623190424895146e-08
	-1.396427481061356e-11,3.559903886258758e-14
	-1.396427481061356e-11,3.559903886258758e-14
	1.396432018674394e-11,0.0
	-2.170996040368280e+02,0.0
	3.139043365336196e+00,0.0

 36	2.818382931264460e-03,0.000000000000000e+00
	1.000000000000000e+00,0.000000000000000e+00
	3.067141601082877e-11,1.769576829879037e-08
	-1.566817022405121e-11,4.110912362953538e-14
	-1.566817022405121e-11,4.110912362953538e-14
	1.566822415367774e-11,0.0
	-2.160996044790050e+02,0.0
	3.138968924800116e+00,0.0

 37	2.900681198693160e-03,0.000000000000000e+00
	1.000000000000000e+00,0.000000000000000e+00
	3.441389246871909e-11,1.929164987604051e-08
	-1.757997160309864e-11,4.747206910939783e-14
	-1.757997160309864e-11,4.747206910939783e-14
	1.758003569857297e-11,0.0
	-2.150996049473866e+02,0.0
	3.138892310563384e+00,0.0

 38	2.985382618917966e-03,0.000000000000000e+00
	1.000000000000000e+00,0.000000000000000e+00
	3.861301968286009e-11,2.103145486659439e-08
	-1.972504717678133e-11,5.481988252082992e-14
	-1.972504717678133e-11,5.481988252082992e-14
	1.972512335438663e-11,0.0
	-2.140996054435248e+02,0.0
	3.138813459152996e+00,0.0

 39	3.072557365267454e-03,0.000000000000000e+00
	1.000000000000000e+00,0.000000000000000e+00
	4.332451739047457e-11,2.292816287524177e-08
	-2.213186054068965e-11,6.330500336490169e-14
	-2.213186054068965e-11,6.330500336490169e-14
	2.213195107793225e-11,0.0
	-2.130996059690561e+02,0.0
	3.138732305242524e+00,0.0

 40	3.162277660168387e-03,0.000000000000000e+00
	1.000000000000000e+00,0.000000000000000e+00
	4.861090414940353e-11,2.499592405726243e-08
	-2.483234834395342e-11,7.310346596142849e-14
	-2.483234834395342e-11,7.310346596142849e-14
	2.483245594765410e-11,0.0
	-2.120996065257285e+02,0.0
	3.138648781597991e+00,0.0

 41	3.254617834980467e-03,0.000000000000000e+00
	1.000000000000000e+00,0.000000000000000e+00
	5.454232691685615e-11,2.725016468264298e-08
	-2.786234406017704e-11,8.441855148640936e-14
	-2.786234406017704e-11,8.441855148640936e-14
	2.786247194739760e-11,0.0
	-2.110996071153909e+02,0.0
	3.138562819022176e+00,0.0

 42	3.349654391578285e-03,0.000000000000000e+00
	1.000000000000000e+00,0.000000000000000e+00
	6.119749185155105e-11,2.970770222035175e-08
	-3.126205346518340e-11,9.748500527565624e-14
	-3.126205346518340e-11,9.748500527565624e-14
	3.126220545940799e-11,0.0
	-2.100996077399870e+02,0.0
	3.138474346297285e+00,0.0

 43	3.447466065731503e-03,0.000000000000000e+00
	1.000000000000000e+00,0.000000000000000e+00
	6.866470868989636e-11,3.238687080105600e-08
	-3.507658813039181e-11,1.125739068862992e-13
	-3.507658813039181e-11,1.125739068862992e-13
	3.507676877583874e-11,0.0
	-2.090996084015910e+02,0.0
	3.138383290125955e+00,0.0

 44	3.548133892335764e-03,0.000000000000000e+00
	1.000000000000000e+00,0.000000000000000e+00
	7.704306255481468e-11,3.530765799446937e-08
	-3.935656401081978e-11,1.299982939512439e-13
	-3.935656401081978e-11,1.299982939512439e-13
	3.935677870830112e-11,0.0
	-2.080996091024056e+02,0.0
	3.138289575070528e+00,0.0

 45	3.651741272548387e-03,0.000000000000000e+00
	1.000000000000000e+00,0.000000000000000e+00
	8.644372874631522e-11,3.849185392170351e-08
	-4.415877307020042e-11,1.501196564992278e-13
	-4.415877307020042e-11,1.501196564992278e-13
	4.415902823859154e-11,0.0
	-2.070996098447352e+02,0.0
	3.138193123490555e+00,0.0

 46	3.758374042884452e-03,0.000000000000000e+00
	1.000000000000000e+00,0.000000000000000e+00
	9.699144795855299e-11,4.196321381446720e-08
	-4.954693685414516e-11,1.733554364690690e-13
	-4.954693685414516e-11,1.733554364690690e-13
	4.954724012229139e-11,0.0
	-2.060996106310579e+02,0.0
	3.138093855478482e+00,0.0

 47	3.868120546330533e-03,0.000000000000000e+00
	1.000000000000000e+00,0.000000000000000e+00
	1.088261815007422e-10,4.574763523470081e-08
	-5.559255201118768e-11,2.001876880064484e-13
	-5.559255201118768e-11,2.001876880064484e-13
	5.559291244598574e-11,0.0
	-2.050996114639715e+02,0.0
	3.137991688793448e+00,0.0

 48	3.981071705534985e-03,0.000000000000000e+00
	1.000000000000000e+00,0.000000000000000e+00
	1.221049684828690e-10,4.987335127575565e-08
	-6.237583897946283e-11,2.311730782051117e-13
	-6.237583897946283e-11,2.311730782051117e-13
	6.237626735693601e-11,0.0
	-2.040996123462385e+02,0.0
	3.137886538793153e+00,0.0

 49	4.097321098135428e-03,0.000000000000000e+00
	1.000000000000000e+00,0.000000000000000e+00
	1.370040096110344e-10,5.437114118698798e-08
	-6.998680642731467e-11,2.669544357693572e-13
	-6.998680642731467e-11,2.669544357693572e-13
	6.998731555478599e-11,0.0
	-2.030996132807823e+02,0.0
	3.137778318363743e+00,0.0

 50	4.216965034285836e-03,0.000000000000000e+00
	1.000000000000000e+00,0.000000000000000e+00
	1.537210052419609e-10,5.927455999270705e-08
	-7.852644557092420e-11,3.082740871837833e-13
	-7.852644557092420e-11,3.082740871837833e-13
	7.852705066991979e-11,0.0
	-2.020996142706995e+02,0.0
	3.137666937847640e+00,0.0

 51	4.340102636447452e-03,0.000000000000000e+00
	1.000000000000000e+00,0.000000000000000e+00
	1.724777787206058e-10,6.462018881841655e-08
	-8.810807021558351e-11,3.559892570604097e-13
	-8.810807021558351e-11,3.559892570604097e-13
	8.810878937691369e-11,0.0
	-2.010996153192747e+02,0.0
	3.137552304969269e+00,0.0

 52	4.466835921509646e-03,0.000000000000000e+00
	1.000000000000000e+00,0.000000000000000e+00
	1.935232198104563e-10,7.044790779182524e-08
	-9.885882030078332e-11,4.110898521564539e-13
	-9.885882030078332e-11,4.110898521564539e-13
	9.885967502540717e-11,0.0
	-2.000996164299840e+02,0.0
	3.137434324758614e+00,0.0

 53	4.597269885308737e-03,0.000000000000000e+00
	1.000000000000000e+00,0.000000000000000e+00
	2.171365872730279e-10,7.680119355427770e-08
	-1.109213488983144e-10,4.747189980059395e-13
	-1.109213488983144e-10,4.747189980059395e-13
	1.109223647401581e-10,0.0
	-1.990996176065040e+02,0.0
	3.137312899472548e+00,0.0

 54	4.731512589614821e-03,0.000000000000000e+00
	1.000000000000000e+00,0.000000000000000e+00
	2.436312144179303e-10,8.372744360178277e-08
	-1.244557150464560e-10,5.481967542116003e-13
	-1.244557150464560e-10,5.481967542116003e-13
	1.244569223764029e-10,0.0
	-1.980996188527407e+02,0.0
	3.137187928513859e+00,0.0

 55	4.869675251658647e-03,0.000000000000000e+00
	1.000000000000000e+00,0.000000000000000e+00
	2.733586667947094e-10,9.127832987563145e-08
	-1.396415075352416e-10,6.330475003920784e-13
	-1.396415075352416e-10,6.330475003920784e-13
	1.396429424491359e-10,0.0
	-1.970996201728146e+02,0.0
	3.137059308347915e+00,0.0

 56	5.011872336272740e-03,0.000000000000000e+00
	1.000000000000000e+00,0.000000000000000e+00
	3.067134071912714e-10,9.951018423925065e-08
	-1.566802278196955e-10,7.310315609172227e-13
	-1.566802278196955e-10,7.310315609172227e-13
	1.566819332175051e-10,0.0
	-1.960996215711131e+02,0.0
	3.136926932416900e+00,0.0

 57	5.158221650723075e-03,0.000000000000000e+00
	1.000000000000000e+00,0.000000000000000e+00
	3.441380298439104e-10,1.084844187181303e-07
	-1.757979636793006e-10,8.441817245179161e-13
	-1.757979636793006e-10,8.441817245179161e-13
	1.757999905477037e-10,0.0
	-1.950996230522620e+02,0.0
	3.136790691051537e+00,0.0

 58	5.308844442309902e-03,0.000000000000000e+00
	1.000000000000000e+00,0.000000000000000e+00
	3.861291333056960e-10,1.182679836359781e-07
	-1.972483890948459e-10,9.748454163795298e-13
	-1.972483890948459e-10,9.748454163795298e-13
	1.972507980315861e-10,0.0
	-1.940996246211782e+02,0.0
	3.136650471380245e+00,0.0

 59	5.463865498818562e-03,0.000000000000000e+00
	1.000000000000000e+00,0.000000000000000e+00
	4.332439099055052e-10,1.289338670660306e-07
	-2.213161301464681e-10,1.125733397615230e-12
	-2.213161301464681e-10,1.125733397615230e-12
	2.213189931720523e-10,0.0
	-1.930996262830576e+02,0.0
	3.136506157235634e+00,0.0

 60	5.623413251903512e-03,0.000000000000000e+00
	1.000000000000000e+00,0.000000000000000e+00
	4.861075392282833e-10,1.405616393218422e-07
	-2.483205415883116e-10,1.299976002405187e-12
	-2.483205415883116e-10,1.299976002405187e-12
	2.483239442992142e-10,0.0
	-1.920996280434108e+02,0.0
	3.136357629058278e+00,0.0

 61	5.787619883491228e-03,0.000000000000000e+00
	1.000000000000000e+00,0.000000000000000e+00
	5.454214837233798e-10,1.532380465499801e-07
	-2.786199442070172e-10,1.501188079476393e-12
	-2.786199442070172e-10,1.501188079476393e-12
	2.786239883347652e-10,0.0
	-1.910996299080664e+02,0.0
	3.136204763797675e+00,0.0

 62	5.956621435290127e-03,0.000000000000000e+00
	1.000000000000000e+00,0.000000000000000e+00
	6.119727965101926e-10,1.670576578513277e-07
	-3.126163791809437e-10,1.733543985151908e-12
