Title: * sky130 bjt 3-stage output rebias target-band noise candidate: cout=68n, rout=10meg/10meg
Date: Fri May 22 20:57:18  2026
Command: ngspice-46, Build Mar 29 2026   15:02:07
Plotname: Noise Spectral Density Curves
Flags: real
No. Variables: 3
No. Points: 265
Variables:
	0	frequency	frequency grid=3
	1	onoise_spectrum	voltage-density
	2	inoise_spectrum	voltage-density
Values:
 0	1.000000000000000e+01
	3.989994551137435e-04
	5.903104008518962e-06

 1	1.029200527194428e+01
	3.887696555442759e-04
	5.654677952979527e-06

 2	1.059253725177289e+01
	3.785307167496115e-04
	5.416977740271057e-06

 3	1.090184492385128e+01
	3.683074069276620e-04
	5.189532437332155e-06

 4	1.122018454301964e+01
	3.581229518526315e-04
	4.971892783186088e-06

 5	1.154781984689458e+01
	3.479989993688671e-04
	4.763630098273512e-06

 6	1.188502227437019e+01
	3.379556012783638e-04
	4.564335257158696e-06

 7	1.223207119049932e+01
	3.280112110808363e-04
	4.373617720178124e-06

 8	1.258925411794168e+01
	3.181826959542614e-04
	4.191104619968293e-06

 9	1.295686697517020e+01
	3.084853613360923e-04
	4.016439899142462e-06

 10	1.333521432163325e+01
	2.989329864712245e-04
	3.849283495688432e-06

 11	1.372460961007563e+01
	2.895378693274823e-04
	3.689310572932937e-06

 12	1.412537544622755e+01
	2.803108793417092e-04
	3.536210791167984e-06

 13	1.453784385607663e+01
	2.712615165366115e-04
	3.389687618260173e-06

 14	1.496235656094434e+01
	2.623979756449049e-04
	3.249457676770239e-06

 15	1.539926526059493e+01
	2.537272139825593e-04
	3.115250125298280e-06

 16	1.584893192461115e+01
	2.452550219236729e-04
	2.986806071940525e-06

 17	1.631172909227840e+01
	2.369860949458444e-04
	2.863878017900955e-06

 18	1.678804018122562e+01
	2.289241063302016e-04
	2.746229329442472e-06

 19	1.727825980507865e+01
	2.210717797133410e-04
	2.633633736494860e-06

 20	1.778279410038925e+01
	2.134309607995953e-04
	2.525874856354983e-06

 21	1.830206106311058e+01
	2.060026876443905e-04
	2.422745741025404e-06

 22	1.883649089489803e+01
	1.987872590194088e-04
	2.324048446838170e-06

 23	1.938652635952210e+01
	1.917843004591457e-04
	2.229593625103139e-06

 24	1.995262314968882e+01
	1.849928276716930e-04
	2.139200132605463e-06

 25	2.053525026457149e+01
	1.784113070718781e-04
	2.052694660855875e-06

 26	2.113489039836650e+01
	1.720377132611041e-04
	1.969911383068722e-06

 27	2.175204034019526e+01
	1.658695833369481e-04
	1.890691617911639e-06

 28	2.238721138568343e+01
	1.599040679682584e-04
	1.814883509130047e-06

 29	2.304092976055849e+01
	1.541379792144749e-04
	1.742341720209480e-06

 30	2.371373705661659e+01
	1.485678351068145e-04
	1.672927143290043e-06

 31	2.440619068041984e+01
	1.431899010397306e-04
	1.606506621597758e-06

 32	2.511886431509584e+01
	1.380002280482259e-04
	1.542952684702485e-06

 33	2.585234839562195e+01
	1.329946880660679e-04
	1.482143295955615e-06

 34	2.660725059798814e+01
	1.281690062785608e-04
	1.423961611499698e-06

 35	2.738419634264367e+01
	1.235187906941359e-04
	1.368295750279816e-06

 36	2.818382931264459e+01
	1.190395590698482e-04
	1.315038574520487e-06

 37	2.900681198693160e+01
	1.147267633304806e-04
	1.264087480164822e-06

 38	2.985382618917966e+01
	1.105758116259490e-04
	1.215344196802245e-06

 39	3.072557365267453e+01
	1.065820881720390e-04
	1.168714596639843e-06

 40	3.162277660168386e+01
	1.027409710193504e-04
	1.124108512098436e-06

 41	3.254617834980466e+01
	9.904784789346849e-05
	1.081439561639310e-06

 42	3.349654391578284e+01
	9.549813024617875e-05
	1.040624983450840e-06

 43	3.447466065731501e+01
	9.208726565304114e-05
	1.001585476645414e-06

 44	3.548133892335763e+01
	8.881074868835011e-05
	9.642450496375067e-07

 45	3.651741272548386e+01
	8.566413040201949e-05
	9.285308753924734e-07

 46	3.758374042884451e+01
	8.264302651822784e-05
	8.943731532527667e-07

 47	3.868120546330531e+01
	7.974312446846066e-05
	8.617049770647225e-07

 48	3.981071705534983e+01
	7.696018936563542e-05
	8.304622093437899e-07

 49	4.097321098135426e+01
	7.429006901976642e-05
	8.005833612295541e-07

 50	4.216965034285834e+01
	7.172869808890164e-05
	7.720094779946207e-07

 51	4.340102636447450e+01
	6.927210145282633e-05
	7.446840298825372e-07

 52	4.466835921509644e+01
	6.691639689099095e-05
	7.185528080600935e-07

 53	4.597269885308735e+01
	6.465779713987702e-05
	6.935638254784384e-07

 54	4.731512589614819e+01
	6.249261139925510e-05
	6.696672224454043e-07

 55	4.869675251658646e+01
	6.041724635106067e-05
	6.468151767184286e-07

 56	5.011872336272738e+01
	5.842820674952142e-05
	6.249618179334698e-07

 57	5.158221650723073e+01
	5.652209563543771e-05
	6.040631461904510e-07

 58	5.308844442309900e+01
	5.469561422314498e-05
	5.840769546200188e-07

 59	5.463865498818559e+01
	5.294556150375034e-05
	5.649627557600865e-07

 60	5.623413251903509e+01
	5.126883360381289e-05
	5.466817115734733e-07

 61	5.787619883491225e+01
	4.966242293459376e-05
	5.291965669403874e-07

 62	5.956621435290124e+01
	4.812341716300235e-05
	5.124715864615951e-07

 63	6.130557921498227e+01
	4.664899803185247e-05
	4.964724944097364e-07

 64	6.309573444801953e+01
	4.523644005346021e-05
	4.811664176679513e-07

 65	6.493816315762135e+01
	4.388310909770055e-05
	4.665218314964833e-07

 66	6.683439175686169e+01
	4.258646089269109e-05
	4.525085079696337e-07

 67	6.878599123088100e+01
	4.134403945354292e-05
	4.390974669274482e-07

 68	7.079457843841404e+01
	4.015347545246182e-05
	4.262609292887106e-07

 69	7.286181745132302e+01
	3.901248454124302e-05
	4.139722725746495e-07

 70	7.498942093324584e+01
	3.791886563521262e-05
	4.022059884960920e-07

 71	7.717915155850152e+01
	3.687049916640700e-05
	3.909376424606373e-07

 72	7.943282347242844e+01
	3.586534531179468e-05
	3.801438348611544e-07

 73	8.175230379436530e+01
	3.490144220179475e-05
	3.698021640119940e-07

 74	8.413951416451982e+01
	3.397690411279696e-05
	3.598911906054162e-07

 75	8.659643233600687e+01
	3.308991964691543e-05
	3.503904035672111e-07

 76	8.912509381337490e+01
	3.223874990149274e-05
	3.412801871977160e-07

 77	9.172759353897833e+01
	3.142172663041218e-05
	3.325417894920862e-07

 78	9.440608762859272e+01
	3.063725039892874e-05
	3.241572915418482e-07

 79	9.716279515771102e+01
	2.988378873360502e-05
	3.161095779281171e-07

 80	1.000000000000004e+02
	2.915987426879144e-05
	3.083823080255706e-07

 81	1.029200527194432e+02
	2.846410289109880e-05
	3.009598881448885e-07

 82	1.059253725177293e+02
	2.779513188341236e-05
	2.938274444501015e-07

 83	1.090184492385132e+02
	2.715167807003588e-05
	2.869707965956962e-07

 84	1.122018454301968e+02
	2.653251596487112e-05
	2.803764320364732e-07

 85	1.154781984689463e+02
	2.593647592440782e-05
	2.740314809710924e-07

 86	1.188502227437024e+02
	2.536244230785723e-05
	2.679236918872622e-07

 87	1.223207119049937e+02
	2.480935164655890e-05
	2.620414076835158e-07

 88	1.258925411794173e+02
	2.427619082520115e-05
	2.563735423483623e-07

 89	1.295686697517025e+02
	2.376199527734987e-05
	2.509095581831901e-07

 90	1.333521432163330e+02
	2.326584719801505e-05
	2.456394435598459e-07

 91	1.372460961007568e+02
	2.278687377586434e-05
	2.405536912079335e-07

 92	1.412537544622761e+02
	2.232424544790418e-05
	2.356432770300776e-07

 93	1.453784385607669e+02
	2.187717417924439e-05
	2.308996394460432e-07

 94	1.496235656094440e+02
	2.144491177067316e-05
	2.263146592685697e-07

 95	1.539926526059499e+02
	2.102674819651717e-05
	2.218806401151044e-07

 96	1.584893192461121e+02
	2.062200997526431e-05
	2.175902893604568e-07

 97	1.631172909227846e+02
	2.023005857522152e-05
	2.134366996356785e-07

 98	1.678804018122568e+02
	1.985028885725636e-05
	2.094133308783811e-07

 99	1.727825980507872e+02
	1.948212755659664e-05
	2.055139929391647e-07

 100	1.778279410038932e+02
	1.912503180528616e-05
	2.017328287480898e-07

 101	1.830206106311065e+02
	1.877848769681360e-05
	1.980642980440186e-07

 102	1.883649089489810e+02
	1.844200889414616e-05
	1.945031616684415e-07

 103	1.938652635952217e+02
	1.811513528211153e-05
	1.910444664240161e-07

 104	1.995262314968890e+02
	1.779743166494569e-05
	1.876835304966143e-07

 105	2.053525026457157e+02
	1.748848650952631e-05
	1.844159294381056e-07

 106	2.113489039836658e+02
	1.718791073459129e-05
	1.812374827056766e-07

 107	2.175204034019534e+02
	1.689533654607230e-05
	1.781442407519203e-07

 108	2.238721138568351e+02
	1.661041631844780e-05
	1.751324726585796e-07

 109	2.304092976055858e+02
	1.633282152183179e-05
	1.721986543054360e-07

 110	2.371373705661668e+02
	1.606224169435106e-05
	1.693394570645962e-07

 111	2.440619068041993e+02
	1.579838345924258e-05
	1.665517370093002e-07

 112	2.511886431509594e+02
	1.554096958587612e-05
	1.638325246253377e-07

 113	2.585234839562205e+02
	1.528973809389710e-05
	1.611790150122725e-07

 114	2.660725059798825e+02
	1.504444139948961e-05
	1.585885585608802e-07

 115	2.738419634264377e+02
	1.480484550268825e-05
	1.560586520925946e-07

 116	2.818382931264470e+02
	1.457072921463839e-05
	1.535869304461829e-07

 117	2.900681198693171e+02
	1.434188342354545e-05
	1.511711584965145e-07

 118	2.985382618917977e+02
	1.411811039812377e-05
	1.488092235899297e-07

 119	3.072557365267465e+02
	1.389922312717908e-05
	1.464991283806110e-07

 120	3.162277660168398e+02
	1.368504469407285e-05
	1.442389840521670e-07

 121	3.254617834980479e+02
	1.347540768468163e-05
	1.420270039087088e-07

 122	3.349654391578297e+02
	1.327015362752497e-05
	1.398614973197569e-07

 123	3.447466065731516e+02
	1.306913246472366e-05
	1.377408640034487e-07

 124	3.548133892335777e+02
	1.287220205242596e-05
	1.356635886327534e-07

 125	3.651741272548400e+02
	1.267922768942247e-05
	1.336282357496425e-07

 126	3.758374042884466e+02
	1.249008167259255e-05
	1.316334449725476e-07

 127	3.868120546330547e+02
	1.230464287795976e-05
	1.296779264826853e-07

 128	3.981071705534999e+02
	1.212279636606011e-05
	1.277604567753511e-07

 129	4.097321098135442e+02
	1.194443301045713e-05
	1.258798746625971e-07

 130	4.216965034285851e+02
	1.176944914816964e-05
	1.240350775142177e-07

 131	4.340102636447468e+02
	1.159774625091919e-05
	1.222250177243995e-07

 132	4.466835921509662e+02
	1.142923061606522e-05
	1.204486993918559e-07

 133	4.597269885308754e+02
	1.126381307617575e-05
	1.187051752017712e-07

 134	4.731512589614838e+02
	1.110140872620486e-05
	1.169935434983310e-07

 135	4.869675251658666e+02
	1.094193666731032e-05
	1.153129455371040e-07

 136	5.011872336272759e+02
	1.078531976635286e-05
	1.136625629070419e-07

 137	5.158221650723094e+02
	1.063148443020906e-05
	1.120416151122828e-07

 138	5.308844442309922e+02
	1.048036039400554e-05
	1.104493573044699e-07

 139	5.463865498818583e+02
	1.033188052250573e-05
	1.088850781566947e-07

 140	5.623413251903534e+02
	1.018598062381477e-05
	1.073480978706737e-07

 141	5.787619883491251e+02
	1.004259927473534e-05
	1.058377663091213e-07

 142	5.956621435290151e+02
	9.901677657003456e-06
	1.043534612457994e-07

 143	6.130557921498255e+02
	9.763159403795784e-06
	1.028945867260261e-07

 144	6.309573444801982e+02
	9.626990455857722e-06
	1.014605715308851e-07

 145	6.493816315762165e+02
	9.493118926659301e-06
	1.000508677387215e-07

 146	6.683439175686200e+02
	9.361494976017309e-06
	9.866494937786950e-08

 147	6.878599123088131e+02
	9.232070691661383e-06
	9.730231116490183e-08

 148	7.079457843841436e+02
	9.104799978235327e-06
	9.596246732303365e-08

 149	7.286181745132336e+02
	8.979638453267175e-06
	9.464495047559180e-08

 150	7.498942093324620e+02
	8.856543349662334e-06
	9.334931060979237e-08

 151	7.717915155850188e+02
	8.735473424292660e-06
	9.207511410634803e-08

 152	7.943282347242881e+02
	8.616388872315983e-06
	9.082194283065950e-08

 153	8.175230379436568e+02
	8.499251246819293e-06
	8.958939328164951e-08

 154	8.413951416452022e+02
	8.384023383456311e-06
	8.837707579451907e-08

 155	8.659643233600727e+02
	8.270669329763452e-06
	8.718461379391114e-08

 156	8.912509381337532e+02
	8.159154278823006e-06
	8.601164309423177e-08

 157	9.172759353897875e+02
	8.049444507002770e-06
	8.485781124404256e-08

 158	9.440608762859316e+02
	7.941507315487253e-06
	8.372277691160614e-08

 159	9.716279515771147e+02
	7.835310975372178e-06
	8.260620930901078e-08

 160	1.000000000000009e+03
	7.730824676051427e-06
	8.150778765217138e-08

 161	1.029200527194437e+03
	7.628018476694453e-06
	8.042720065447882e-08

 162	1.059253725177299e+03
	7.526863260607783e-06
	7.936414605181291e-08

 163	1.090184492385138e+03
	7.427330692253974e-06
	7.831833015689199e-08

 164	1.122018454301974e+03
	7.329393176801919e-06
	7.728946744096588e-08

 165	1.154781984689469e+03
	7.233023821959873e-06
	7.627728014110305e-08

 166	1.188502227437030e+03
	7.138196402005450e-06
	7.528149789132402e-08

 167	1.223207119049943e+03
	7.044885323802182e-06
	7.430185737603424e-08

 168	1.258925411794179e+03
	6.953065594703481e-06
	7.333810200425519e-08

 169	1.295686697517032e+03
	6.862712792177119e-06
	7.238998160328561e-08

 170	1.333521432163337e+03
	6.773803035048891e-06
	7.145725213051179e-08

 171	1.372460961007575e+03
	6.686312956243080e-06
	7.053967540209213e-08

 172	1.412537544622768e+03
	6.600219676899744e-06
	6.963701883754777e-08

 173	1.453784385607676e+03
	6.515500781784571e-06
	6.874905521901551e-08

 174	1.496235656094448e+03
	6.432134295878484e-06
	6.787556246432856e-08

 175	1.539926526059507e+03
	6.350098662061563e-06
	6.701632341295252e-08

 176	1.584893192461129e+03
	6.269372719813592e-06
	6.617112562393581e-08

 177	1.631172909227855e+03
	6.189935684841524e-06
	6.533976118507741e-08

 178	1.678804018122577e+03
	6.111767129562104e-06
	6.452202653259432e-08

 179	1.727825980507881e+03
	6.034846964376019e-06
	6.371772228053073e-08

 180	1.778279410038941e+03
	5.959155419650301e-06
	6.292665305940017e-08

 181	1.830206106311075e+03
	5.884673028369926e-06
	6.214862736330271e-08

 182	1.883649089489820e+03
	5.811380609383671e-06
	6.138345740507267e-08

 183	1.938652635952227e+03
	5.739259251187464e-06
	6.063095897890784e-08

 184	1.995262314968900e+03
	5.668290296204974e-06
	5.989095132995684e-08

 185	2.053525026457167e+03
	5.598455325502398e-06
	5.916325703052708e-08

 186	2.113489039836669e+03
	5.529736143909581e-06
	5.844770186234561e-08

 187	2.175204034019545e+03
	5.462114765482660e-06
	5.774411470461285e-08

 188	2.238721138568363e+03
	5.395573399276401e-06
	5.705232742740195e-08

 189	2.304092976055870e+03
	5.330094435391914e-06
	5.637217479017108e-08

 190	2.371373705661681e+03
	5.265660431254608e-06
	5.570349434495476e-08

 191	2.440619068042006e+03
	5.202254098089151e-06
	5.504612634402096e-08

 192	2.511886431509607e+03
	5.139858287558979e-06
	5.439991365176565e-08

 193	2.585234839562218e+03
	5.078455978543300e-06
	5.376470166049465e-08

 194	2.660725059798838e+03
	5.018030264016300e-06
	5.314033820992518e-08

 195	2.738419634264391e+03
	4.958564337998314e-06
	5.252667351025141e-08

 196	2.818382931264484e+03
	4.900041482562622e-06
	5.192356006842850e-08

 197	2.900681198693185e+03
	4.842445054866387e-06
	5.133085261769092e-08

 198	2.985382618917992e+03
	4.785758474182267e-06
	5.074840804993521e-08

 199	3.072557365267480e+03
	4.729965208912823e-06
	5.017608535102126e-08

 200	3.162277660168414e+03
	4.675048763571057e-06
	4.961374553864988e-08

 201	3.254617834980495e+03
	4.620992665697722e-06
	4.906125160288605e-08

 202	3.349654391578314e+03
	4.567780452715283e-06
	4.851846844902835e-08

 203	3.447466065731532e+03
	4.515395658695579e-06
	4.798526284285696e-08

 204	3.548133892335794e+03
	4.463821801023304e-06
	4.746150335811354e-08

 205	3.651741272548418e+03
	4.413042366968755e-06
	4.694706032606577e-08

 206	3.758374042884484e+03
	4.363040800133778e-06
	4.644180578718897e-08

 207	3.868120546330566e+03
	4.313800486786745e-06
	4.594561344480258e-08

 208	3.981071705535018e+03
	4.265304742080101e-06
	4.545835862062881e-08

 209	4.097321098135462e+03
	4.217536796147019e-06
	4.497991821223524e-08

 210	4.216965034285871e+03
	4.170479780095265e-06
	4.451017065223629e-08

 211	4.340102636447489e+03
	4.124116711883604e-06
	4.404899586928311e-08

 212	4.466835921509683e+03
	4.078430482126174e-06
	4.359627525079082e-08

 213	4.597269885308776e+03
	4.033403839815729e-06
	4.315189160730213e-08

 214	4.731512589614861e+03
	3.989019377998098e-06
	4.271572913851914e-08

 215	4.869675251658689e+03
	3.945259519440050e-06
	4.228767340094916e-08

 216	5.011872336272783e+03
	3.902106502296735e-06
	4.186761127712274e-08

 217	5.158221650723120e+03
	3.859542365849207e-06
	4.145543094642702e-08

 218	5.308844442309948e+03
	3.817548936348618e-06
	4.105102185742526e-08

 219	5.463865498818609e+03
	3.776107813023687e-06
	4.065427470175345e-08

 220	5.623413251903560e+03
	3.735200354323047e-06
	4.026508138953951e-08

 221	5.787619883491278e+03
	3.694807664468976e-06
	3.988333502628663e-08

 222	5.956621435290179e+03
	3.654910580408255e-06
	3.950892989130217e-08

 223	6.130557921498284e+03
	3.615489659260609e-06
	3.914176141760029e-08

 224	6.309573444802011e+03
	3.576525166381765e-06
	3.878172617326915e-08

 225	6.493816315762195e+03
	3.537997064151522e-06
	3.842872184436761e-08

 226	6.683439175686231e+03
	3.499885001652675e-06
	3.808264721925638e-08

 227	6.878599123088164e+03
	3.462168305368345e-06
	3.774340217441409e-08

 228	7.079457843841470e+03
	3.424825971093117e-06
	3.741088766174457e-08

 229	7.286181745132371e+03
	3.387836657232259e-06
	3.708500569735020e-08

 230	7.498942093324656e+03
	3.351178679710358e-06
	3.676565935177620e-08

 231	7.717915155850224e+03
	3.314830008697902e-06
	3.645275274174737e-08

 232	7.943282347242919e+03
	3.278768267428040e-06
	3.614619102336057e-08

 233	8.175230379436608e+03
	3.242970733346420e-06
	3.584588038678957e-08

 234	8.413951416452062e+03
	3.207414341896391e-06
	3.555172805246145e-08

 235	8.659643233600769e+03
	3.172075693236495e-06
	3.526364226872834e-08

 236	8.912509381337575e+03
	3.136931062232133e-06
	3.498153231103883e-08

 237	9.172759353897920e+03
	3.101956412052674e-06
	3.470530848260231e-08

 238	9.440608762859361e+03
	3.067127411749165e-06
	3.443488211658203e-08

 239	9.716279515771193e+03
	3.032419458189792e-06
	3.417016557979776e-08

 240	1.000000000000014e+04
	2.997807702749271e-06
	3.391107227794873e-08

 241	1.029200527194442e+04
	2.963267083159230e-06
	3.365751666239128e-08

 242	1.059253725177303e+04
	2.928772360933858e-06
	3.340941423846293e-08

 243	1.090184492385143e+04
	2.894298164786139e-06
	3.316668157535302e-08

 244	1.122018454301979e+04
	2.859819040442724e-06
	3.292923631758606e-08

 245	1.154781984689474e+04
	2.825309507276793e-06
	3.269699719808007e-08

 246	1.188502227437035e+04
	2.790744122121749e-06
	3.246988405282961e-08

 247	1.223207119049949e+04
	2.756097550655020e-06
	3.224781783722734e-08

 248	1.258925411794185e+04
	2.721344646647689e-06
	3.203072064407071e-08

 249	1.295686697517038e+04
	2.686460539376102e-06
	3.181851572325695e-08

 250	1.333521432163343e+04
	2.651420729414871e-06
	3.161112750319825e-08

 251	1.372460961007581e+04
	2.616201192938556e-06
	3.140848161404380e-08

 252	1.412537544622774e+04
	2.580778494620559e-06
	3.121050491266935e-08

 253	1.453784385607682e+04
	2.545129909057762e-06
	3.101712550958060e-08

 254	1.496235656094455e+04
	2.509233550584250e-06
	3.082827279771210e-08

 255	1.539926526059514e+04
	2.473068511176199e-06
	3.064387748319825e-08

 256	1.584893192461136e+04
	2.436615006010292e-06
	3.046387161821282e-08

 257	1.631172909227862e+04
	2.399854526066522e-06
	3.028818863592681e-08

 258	1.678804018122584e+04
	2.362769997016880e-06
	3.011676338767894e-08

 259	1.727825980507888e+04
	2.325345943418957e-06
	2.994953218245540e-08

 260	1.778279410038948e+04
	2.287568657055926e-06
	2.978643282877453e-08

 261	1.830206106311082e+04
	2.249426368056350e-06
	2.962740467911976e-08

 262	1.883649089489827e+04
	2.210909417209860e-06
	2.947238867699190e-08

 263	1.938652635952235e+04
	2.172010427705305e-06
	2.932132740680037e-08

 264	1.995262314968908e+04
	2.132724474293009e-06
	2.917416514666861e-08

