Title: * sky130 bjt 3-stage high-frequency output-isolation ac: riso=330k, cload=10p
Date: Fri May 22 22:02:51  2026
Command: ngspice-46, Build Mar 29 2026   15:02:07
Plotname: AC Analysis
Flags: complex
No. Variables: 9
No. Points: 721
Variables:
	0	frequency	frequency grid=3
	1	v(vin)	voltage
	2	v(b3_collector)	voltage
	3	v(vout_drv)	voltage
	4	v(vout_final)	voltage
	5	gain	notype
	6	gain_vv	notype
	7	gain_db	decibel
	8	phase_deg	phase
Values:
 0	1.000000000000000e-03,0.000000000000000e+00
	1.000000000000000e+00,0.000000000000000e+00
	4.861096667831021e-13,7.904423276608954e-10
	-2.483247083838010e-13,2.308073772647705e-16
	-2.483247083790152e-13,2.308125261562955e-16
	-2.483247083790152e-13,2.308125261562955e-16
	2.483248156466550e-13,0.0
	-2.520995975654218e+02,0.0
	3.140663175161350e+00,0.0

 1	1.029200527194428e-03,0.000000000000000e+00
	1.000000000000000e+00,0.000000000000000e+00
	5.454240123262721e-13,8.617279547834594e-10
	-2.786248964506959e-13,2.665321967875350e-16
	-2.786248964450079e-13,2.665381426345168e-16
	-2.786248964450079e-13,2.665381426345168e-16
	2.786250239328350e-13,0.0
	-2.510995976241490e+02,0.0
	3.140636033902427e+00,0.0

 2	1.059253725177289e-03,0.000000000000000e+00
	1.000000000000000e+00,0.000000000000000e+00
	6.119758017600773e-13,9.394424379971301e-10
	-3.126222649312935e-13,3.077865737941818e-16
	-3.126222649245334e-13,3.077934399509248e-16
	-3.126222649245334e-13,3.077934399509248e-16
	3.126224164440976e-13,0.0
	-2.500995976863537e+02,0.0
	3.140608100104543e+00,0.0

 3	1.090184492385128e-03,0.000000000000000e+00
	1.000000000000000e+00,0.000000000000000e+00
	6.866481366364465e-13,1.024165560113937e-09
	-3.507679377443654e-13,3.554263839464669e-16
	-3.507679377363310e-13,3.554343128602899e-16
	-3.507679377363310e-13,3.554343128602899e-16
	3.507681178176679e-13,0.0
	-2.490995977522487e+02,0.0
	3.140579350625153e+00,0.0

 4	1.122018454301964e-03,0.000000000000000e+00
	1.000000000000000e+00,0.000000000000000e+00
	7.704318731642739e-13,1.116529391318429e-09
	-3.935680841922429e-13,4.104399769914264e-16
	-3.935680841826940e-13,4.104491331579153e-16
	-3.935680841826940e-13,4.104491331579153e-16
	3.935682982097606e-13,0.0
	-2.480995978220422e+02,0.0
	3.140549761645937e+00,0.0

 5	1.154781984689459e-03,0.000000000000000e+00
	1.000000000000000e+00,0.000000000000000e+00
	8.644387702568041e-13,1.217223004666012e-09
	-4.415906355005408e-13,4.739686813505455e-16
	-4.415906354891919e-13,4.739792547262249e-16
	-4.415906354891919e-13,4.739792547262249e-16
	4.415908898608329e-13,0.0
	-2.470995978959749e+02,0.0
	3.140519308653069e+00,0.0

 6	1.188502227437019e-03,0.000000000000000e+00
	1.000000000000000e+00,0.000000000000000e+00
	9.699162418890615e-13,1.326997616853322e-09
	-4.954728209004301e-13,5.473304824508265e-16
	-4.954728208869420e-13,5.473426923940517e-16
	-4.954728208869420e-13,5.473426923940517e-16
	4.954731232081984e-13,0.0
	-2.460995979742885e+02,0.0
	3.140487966416908e+00,0.0

 7	1.223207119049932e-03,0.000000000000000e+00
	1.000000000000000e+00,0.000000000000000e+00
	1.088263909508945e-12,1.446672192599208e-09
	-5.559296232474545e-13,6.320473660295528e-16
	-5.559296232314239e-13,6.320614658513789e-16
	-5.559296232314239e-13,6.320614658513789e-16
	5.559299825409037e-13,0.0
	-2.450995980572418e+02,0.0
	3.140455708971094e+00,0.0

 8	1.258925411794168e-03,0.000000000000000e+00
	1.000000000000000e+00,0.000000000000000e+00
	1.221052174148822e-12,1.577139554454867e-09
	-6.237632663796968e-13,7.298768936875297e-16
	-6.237632663606442e-13,7.298931759069735e-16
	-6.237632663606442e-13,7.298931759069735e-16
	6.237636934007527e-13,0.0
	-2.440995981451071e+02,0.0
	3.140422509591040e+00,0.0

 9	1.295686697517020e-03,0.000000000000000e+00
	1.000000000000000e+00,0.000000000000000e+00
	1.370043054672197e-12,1.719373043619459e-09
	-6.998738601040124e-13,8.428486657628885e-16
	-6.998738600813685e-13,8.428674681756086e-16
	-6.998738600813685e-13,8.428674681756086e-16
	6.998743676194778e-13,0.0
	-2.430995982381834e+02,0.0
	3.140388340771783e+00,0.0

 10	1.333521432163325e-03,0.000000000000000e+00
	1.000000000000000e+00,0.000000000000000e+00
	1.537213568676280e-12,1.874433781462887e-09
	-7.852713440654862e-13,9.733064279994149e-16
	-7.852713440385738e-13,9.733281406857135e-16
	-7.852713440385738e-13,9.733281406857135e-16
	7.852719472487334e-13,0.0
	-2.420995983367727e+02,0.0
	3.140353174205208e+00,0.0

 11	1.372460961007563e-03,0.000000000000000e+00
	1.000000000000000e+00,0.000000000000000e+00
	1.724781966284475e-12,2.043478585913826e-09
	-8.810888889806567e-13,1.123956695556829e-15
	-8.810888889486711e-13,1.123981768974363e-15
	-8.810888889486711e-13,1.123981768974363e-15
	8.810896058652722e-13,0.0
	-2.410995984412041e+02,0.0
	3.140316980756585e+00,0.0

 12	1.412537544622755e-03,0.000000000000000e+00
	1.000000000000000e+00,0.000000000000000e+00
	1.935237164947117e-12,2.227768601785907e-09
	-9.885979330646092e-13,1.297924903136305e-15
	-9.885979330265944e-13,1.297953857465403e-15
	-9.885979330265944e-13,1.297953857465403e-15
	9.885987850835499e-13,0.0
	-2.400995985518288e+02,0.0
	3.140279730440438e+00,0.0

 13	1.453784385607663e-03,0.000000000000000e+00
	1.000000000000000e+00,0.000000000000000e+00
	2.171371775833023e-12,2.428678709426294e-09
	-1.109225053174309e-12,1.498820246127241e-15
	-1.109225053129128e-12,1.498853682062704e-15
	-1.109225053129128e-12,1.498853682062704e-15
	1.109226065800690e-12,0.0
	-2.390995986690022e+02,0.0
	3.140241392395702e+00,0.0

 14	1.496235656094435e-03,0.000000000000000e+00
	1.000000000000000e+00,0.000000000000000e+00
	2.436319160031802e-12,2.647707781862501e-09
	-1.244570894528784e-12,1.730810557974543e-15
	-1.244570894475087e-12,1.730849169187817e-15
	-1.244570894475087e-12,1.730849169187817e-15
	1.244572098037459e-12,0.0
	-2.380995987931148e+02,0.0
	3.140201934860154e+00,0.0

 15	1.539926526059493e-03,0.000000000000000e+00
	1.000000000000000e+00,0.000000000000000e+00
	2.733595006299316e-12,2.886489866987844e-09
	-1.396431410197358e-12,1.998708777202884e-15
	-1.396431410133538e-12,1.998753364733149e-15
	-1.396431410133538e-12,1.998753364733149e-15
	1.396432840570056e-12,0.0
	-2.370995989245899e+02,0.0
	3.140161325144100e+00,0.0

 16	1.584893192461115e-03,0.000000000000000e+00
	1.000000000000000e+00,0.000000000000000e+00
	3.067143982061371e-12,3.146806378212106e-09
	-1.566821692190518e-12,2.308072797968926e-15
	-1.566821692114668e-12,2.308124286841667e-15
	-1.566821692114668e-12,2.308124286841667e-15
	1.566823392191601e-12,0.0
	-2.360995990638532e+02,0.0
	3.140119529603291e+00,0.0

 17	1.631172909227840e-03,0.000000000000000e+00
	1.000000000000000e+00,0.000000000000000e+00
	3.441392076672475e-12,3.430599384495833e-09
	-1.758002710360531e-12,2.665320775643587e-15
	-1.758002710270383e-12,2.665380234061408e-15
	-1.758002710270383e-12,2.665380234061408e-15
	1.758004730815536e-12,0.0
	-2.350995992113619e+02,0.0
	3.140076513611052e+00,0.0

 18	1.678804018122562e-03,0.000000000000000e+00
	1.000000000000000e+00,0.000000000000000e+00
	3.861305331510314e-12,3.739986098935241e-09
	-1.972511313924933e-12,3.077864279593751e-15
	-1.972511313817793e-12,3.077932941097578e-15
	-1.972511313817793e-12,3.077932941097578e-15
	1.972513715240121e-12,0.0
	-2.340995993676191e+02,0.0
	3.140032241529595e+00,0.0

 19	1.727825980507865e-03,0.000000000000000e+00
	1.000000000000000e+00,0.000000000000000e+00
	4.332455736244943e-12,4.077274674008245e-09
	-2.213193893721207e-12,3.554262055603909e-15
	-2.213193893593870e-12,3.554341344664339e-15
	-2.213193893593870e-12,3.554341344664339e-15
	2.213196747689547e-12,0.0
	-2.330995995331331e+02,0.0
	3.139986676680490e+00,0.0

 20	1.778279410038925e-03,0.000000000000000e+00
	1.000000000000000e+00,0.000000000000000e+00
	4.861095165620758e-12,4.444981421269588e-09
	-2.483244151839080e-12,4.104397587883809e-15
	-2.483244151687740e-12,4.104489149453532e-15
	-2.483244151687740e-12,4.104489149453532e-15
	2.483247543786672e-12,0.0
	-2.320995997084499e+02,0.0
	3.139939781314282e+00,0.0

 21	1.830206106311058e-03,0.000000000000000e+00
	1.000000000000000e+00,0.000000000000000e+00
	5.454238337881860e-12,4.845849583992883e-09
	-2.786245479819678e-12,4.739684144429699e-15
	-2.786245479639810e-12,4.739789878070087e-15
	-2.786245479639810e-12,4.739789878070087e-15
	2.786249511156774e-12,0.0
	-2.310995998941601e+02,0.0
	3.139891516579219e+00,0.0

 22	1.883649089489803e-03,0.000000000000000e+00
	1.000000000000000e+00,0.000000000000000e+00
	6.119755895671539e-12,5.282869802822192e-09
	-3.126218507754414e-12,5.473301559677340e-15
	-3.126218507540641e-12,5.473423658967200e-15
	-3.126218507540641e-12,5.473423658967200e-15
	3.126223299007316e-12,0.0
	-2.300996000908717e+02,0.0
	3.139841842489056e+00,0.0

 23	1.938652635952210e-03,0.000000000000000e+00
	1.000000000000000e+00,0.000000000000000e+00
	6.866478844445362e-12,5.759302427060950e-09
	-3.507674455191834e-12,6.320469666727745e-15
	-3.507674454937764e-12,6.320610664771834e-15
	-3.507674454937764e-12,6.320610664771834e-15
	3.507680149606306e-12,0.0
	-2.290996002992448e+02,0.0
	3.139790717889938e+00,0.0

 24	1.995262314968882e-03,0.000000000000000e+00
	1.000000000000000e+00,0.000000000000000e+00
	7.704315734335597e-12,6.278701838118083e-09
	-3.935674991815142e-12,7.298764051913820e-15
	-3.935674991513180e-12,7.298926873895208e-15
	-3.935674991513180e-12,7.298926873895208e-15
	3.935681759639082e-12,0.0
	-2.280996005199580e+02,0.0
	3.139738100426299e+00,0.0

 25	2.053525026457149e-03,0.000000000000000e+00
	1.000000000000000e+00,0.000000000000000e+00
	8.644384140262646e-12,6.844942966484818e-09
	-4.415899402140439e-12,8.428480682311040e-15
	-4.415899401781555e-12,8.428668706177638e-15
	-4.415899401781555e-12,8.428668706177638e-15
	4.415907445713832e-12,0.0
	-2.270996007537519e+02,0.0
	3.139683946505772e+00,0.0

 26	2.113489039836650e-03,0.000000000000000e+00
	1.000000000000000e+00,0.000000000000000e+00
	9.699158185084264e-12,7.462250200161009e-09
	-4.954719945510088e-12,9.733056970943113e-15
	-4.954719945083555e-12,9.733274097487327e-15
	-4.954719945083555e-12,9.733274097487327e-15
	4.954729505314436e-12,0.0
	-2.260996010013982e+02,0.0
	3.139628211263079e+00,0.0

 27	2.175204034019526e-03,0.000000000000000e+00
	1.000000000000000e+00,0.000000000000000e+00
	1.088263406320265e-11,8.135228900115258e-09
	-5.559286411294410e-12,1.123955801508600e-14
	-5.559286410787475e-12,1.123980874887142e-14
	-5.559286410787475e-12,1.123980874887142e-14
	5.559297773142485e-12,0.0
	-2.250996012637183e+02,0.0
	3.139570848522854e+00,0.0

 28	2.238721138568343e-03,0.000000000000000e+00
	1.000000000000000e+00,0.000000000000000e+00
	1.221051576107637e-11,8.868899757939371e-09
	-6.237620991302221e-12,1.297923809531357e-14
	-6.237620990699726e-12,1.297952763812759e-14
	-6.237620990699726e-12,1.297952763812759e-14
	6.237634494883099e-12,0.0
	-2.240996015415808e+02,0.0
	3.139511810761399e+00,0.0

 29	2.304092976055850e-03,0.000000000000000e+00
	1.000000000000000e+00,0.000000000000000e+00
	1.370042343899328e-11,9.668736251990014e-09
	-6.998724728256701e-12,1.498818908421821e-14
	-6.998724727540636e-12,1.498852344298942e-14
	-6.998724727540636e-12,1.498852344298942e-14
	6.998740777291566e-12,0.0
	-2.230996018359089e+02,0.0
	3.139451049067301e+00,0.0

 30	2.371373705661660e-03,0.000000000000000e+00
	1.000000000000000e+00,0.000000000000000e+00
	1.537212723920766e-11,1.054070548146625e-08
	-7.852696952820293e-12,1.730808921682366e-14
	-7.852696951969249e-12,1.730847532824275e-14
	-7.852696951969249e-12,1.730847532824275e-14
	7.852716027132608e-12,0.0
	-2.220996021476789e+02,0.0
	3.139388513100920e+00,0.0

 31	2.440619068041985e-03,0.000000000000000e+00
	1.000000000000000e+00,0.000000000000000e+00
	1.724780962291055e-11,1.149131268304678e-08
	-8.810869293981832e-12,1.998706775680206e-14
	-8.810869292970363e-12,1.998751363123178e-14
	-8.810869292970363e-12,1.998751363123178e-14
	8.810891963842776e-12,0.0
	-2.210996024779191e+02,0.0
	3.139324151052679e+00,0.0

 32	2.511886431509585e-03,0.000000000000000e+00
	1.000000000000000e+00,0.000000000000000e+00
	1.935235971699792e-11,1.252764976216156e-08
	-9.885956040971066e-12,2.308070349692308e-14
	-9.885956039768932e-12,2.308121838458271e-14
	-9.885956039768932e-12,2.308121838458271e-14
	9.885982984149120e-12,0.0
	-2.200996028277304e+02,0.0
	3.139257909600146e+00,0.0

 33	2.585234839562196e-03,0.000000000000000e+00
	1.000000000000000e+00,0.000000000000000e+00
	2.171370357655329e-11,1.365744820102509e-08
	-1.109222285191282e-11,2.665317780892305e-14
	-1.109222285048408e-11,2.665377239179515e-14
	-1.109222285048408e-11,2.665377239179515e-14
	1.109225487393721e-11,0.0
	-2.190996031982687e+02,0.0
	3.139189733863854e+00,0.0

 34	2.660725059798815e-03,0.000000000000000e+00
	1.000000000000000e+00,0.000000000000000e+00
	2.436317474523227e-11,1.488913673804427e-08
	-1.244567604774537e-11,3.077860616394574e-14
	-1.244567604604731e-11,3.077929277738636e-14
	-1.244567604604731e-11,3.077929277738636e-14
	1.244571410598925e-11,0.0
	-2.180996035907613e+02,0.0
	3.139119567361840e+00,0.0

 35	2.738419634264367e-03,0.000000000000000e+00
	1.000000000000000e+00,0.000000000000000e+00
	2.733593003069374e-11,1.623190424895146e-08
	-1.396427500317816e-11,3.554257574752684e-14
	-1.396427500116001e-11,3.554336863617688e-14
	-1.396427500116001e-11,3.554336863617688e-14
	1.396432023548144e-11,0.0
	-2.170996040065129e+02,0.0
	3.139047351962851e+00,0.0

 36	2.818382931264460e-03,0.000000000000000e+00
	1.000000000000000e+00,0.000000000000000e+00
	3.067141601220555e-11,1.769576829879037e-08
	-1.566817045291468e-11,4.104392106875245e-14
	-1.566817045051611e-11,4.104483668205922e-14
	-1.566817045051611e-11,4.104483668205922e-14
	1.566822421160242e-11,0.0
	-2.160996044468937e+02,0.0
	3.138973027838183e+00,0.0

 37	2.900681198693160e-03,0.000000000000000e+00
	1.000000000000000e+00,0.000000000000000e+00
	3.441389247035540e-11,1.929164987604051e-08
	-1.757997187510327e-11,4.739677440022941e-14
	-1.757997187225257e-11,4.739783173370927e-14
	-1.757997187225257e-11,4.739783173370927e-14
	1.758003576741653e-11,0.0
	-2.150996049133726e+02,0.0
	3.138896533412121e+00,0.0

 38	2.985382618917966e-03,0.000000000000000e+00
	1.000000000000000e+00,0.000000000000000e+00
	3.861301968480485e-11,2.103145486659438e-08
	-1.972504750005937e-11,5.473293358796977e-14
	-1.972504749667130e-11,5.473415457729171e-14
	-1.972504749667130e-11,5.473415457729171e-14
	1.972512343620734e-11,0.0
	-2.140996054074953e+02,0.0
	3.138817805310919e+00,0.0

 39	3.072557365267454e-03,0.000000000000000e+00
	1.000000000000000e+00,0.000000000000000e+00
	4.332451739278590e-11,2.292816287524177e-08
	-2.213186092490622e-11,6.320459635359027e-14
	-2.213186092087949e-11,6.320600632965613e-14
	-2.213186092087949e-11,6.320600632965613e-14
	2.213195117517633e-11,0.0
	-2.130996059308917e+02,0.0
	3.138736778310305e+00,0.0

 40	3.162277660168387e-03,0.000000000000000e+00
	1.000000000000000e+00,0.000000000000000e+00
	4.861090415215055e-11,2.499592405726243e-08
	-2.483234880059553e-11,7.298751781472071e-14
	-2.483234879580976e-11,7.298914602918303e-14
	-2.483234879580976e-11,7.298914602918303e-14
	2.483245606322888e-11,0.0
	-2.120996064853027e+02,0.0
	3.138653385281444e+00,0.0

 41	3.254617834980467e-03,0.000000000000000e+00
	1.000000000000000e+00,0.000000000000000e+00
	5.454232692012102e-11,2.725016468264297e-08
	-2.786234460289702e-11,8.428465673016022e-14
	-2.786234459720912e-11,8.428653696228013e-14
	-2.786234459720912e-11,8.428653696228013e-14
	2.786247208475840e-11,0.0
	-2.110996070725699e+02,0.0
	3.138567557135323e+00,0.0

 42	3.349654391578285e-03,0.000000000000000e+00
	1.000000000000000e+00,0.000000000000000e+00
	6.119749185543132e-11,2.970770222035174e-08
	-3.126205411020715e-11,9.733038611470220e-14
	-3.126205410344707e-11,9.733255737213716e-14
	-3.126205410344707e-11,9.733255737213716e-14
	3.126220562266163e-11,0.0
	-2.100996076946286e+02,0.0
	3.138479222765519e+00,0.0

 43	3.447466065731503e-03,0.000000000000000e+00
	1.000000000000000e+00,0.000000000000000e+00
	6.866470869450808e-11,3.238687080105599e-08
	-3.507658889700373e-11,1.123953555765509e-13
	-3.507658888896935e-11,1.123978629046106e-13
	-3.507658888896935e-11,1.123978629046106e-13
	3.507676896986599e-11,0.0
	-2.090996083535450e+02,0.0
	3.138388308989288e+00,0.0

 44	3.548133892335764e-03,0.000000000000000e+00
	1.000000000000000e+00,0.000000000000000e+00
	7.704306256029573e-11,3.530765799446936e-08
	-3.935656492193949e-11,1.297921062521702e-13
	-3.935656491239063e-11,1.297950016683298e-13
	-3.935656491239063e-11,1.297950016683298e-13
	3.935677893890296e-11,0.0
	-2.080996090515126e+02,0.0
	3.138294740486940e+00,0.0

 45	3.651741272548387e-03,0.000000000000000e+00
	1.000000000000000e+00,0.000000000000000e+00
	8.644372875282946e-11,3.849185392170350e-08
	-4.415877415306793e-11,1.498815548261661e-13
	-4.415877414171908e-11,1.498848983992234e-13
	-4.415877414171908e-11,1.498848983992234e-13
	4.415902851266234e-11,0.0
	-2.070996097908267e+02,0.0
	3.138198439739440e+00,0.0

 46	3.758374042884452e-03,0.000000000000000e+00
	1.000000000000000e+00,0.000000000000000e+00
	9.699144796629517e-11,4.196321381446718e-08
	-4.954693814113526e-11,1.730804811511275e-13
	-4.954693812764713e-11,1.730843422473926e-13
	-4.954693812764713e-11,1.730843422473926e-13
	4.954724044802520e-11,0.0
	-2.060996105739551e+02,0.0
	3.138099326964192e+00,0.0

 47	3.868120546330533e-03,0.000000000000000e+00
	1.000000000000000e+00,0.000000000000000e+00
	1.088261815099438e-10,4.574763523470079e-08
	-5.559255354077753e-11,1.998701748090038e-13
	-5.559255352474686e-11,1.998746335313740e-13
	-5.559255352474686e-11,1.998746335313740e-13
	5.559291283312085e-11,0.0
	-2.050996114034851e+02,0.0
	3.137997320048939e+00,0.0

 48	3.981071705534985e-03,0.000000000000000e+00
	1.000000000000000e+00,0.000000000000000e+00
	1.221049684938051e-10,4.987335127575563e-08
	-6.237584079738298e-11,2.308064199909816e-13
	-6.237584077833050e-11,2.308115688407567e-13
	-6.237584077833050e-11,2.308115688407567e-13
	6.237626781704680e-11,0.0
	-2.040996122821681e+02,0.0
	3.137892334483743e+00,0.0

 49	4.097321098135428e-03,0.000000000000000e+00
	1.000000000000000e+00,0.000000000000000e+00
	1.370040096240320e-10,5.437114118698794e-08
	-6.998680858791605e-11,2.665310258436639e-13
	-6.998680856527215e-11,2.665369716395769e-13
	-6.998680856527215e-11,2.665369716395769e-13
	6.998731610162874e-11,0.0
	-2.030996132129155e+02,0.0
	3.137784283290976e+00,0.0

 50	4.216965034285836e-03,0.000000000000000e+00
	1.000000000000000e+00,0.000000000000000e+00
	1.537210052574085e-10,5.927455999270701e-08
	-7.852644813880260e-11,3.077851414875713e-13
	-7.852644811189030e-11,3.077920075818467e-13
	-7.852644811189030e-11,3.077920075818467e-13
	7.852705131984347e-11,0.0
	-2.020996141988114e+02,0.0
	3.137673076953263e+00,0.0

 51	4.340102636447452e-03,0.000000000000000e+00
	1.000000000000000e+00,0.000000000000000e+00
	1.724777787389653e-10,6.462018881841649e-08
	-8.810807326751129e-11,3.554246319393049e-13
	-8.810807323552595e-11,3.554325607767170e-13
	-8.810807323552595e-11,3.554325607767170e-13
	8.810879014934926e-11,0.0
	-2.010996152431269e+02,0.0
	3.137558623339325e+00,0.0

 52	4.466835921509646e-03,0.000000000000000e+00
	1.000000000000000e+00,0.000000000000000e+00
	1.935232198322767e-10,7.044790779182517e-08
	-9.885882392800407e-11,4.104378339239479e-13
	-9.885882388998943e-11,4.104469899969704e-13
	-9.885882388998943e-11,4.104469899969704e-13
	9.885967594344795e-11,0.0
	-2.000996163493242e+02,0.0
	3.137440827627659e+00,0.0

 53	4.597269885308737e-03,0.000000000000000e+00
	1.000000000000000e+00,0.000000000000000e+00
	2.171365872989614e-10,7.680119355427763e-08
	-1.109213532092725e-10,4.739660599358019e-13
	-1.109213531640920e-10,4.739766331971526e-13
	-1.109213531640920e-10,4.739766331971526e-13
	1.109223658312517e-10,0.0
	-1.990996175210648e+02,0.0
	3.137319592227981e+00,0.0

 54	4.731512589614821e-03,0.000000000000000e+00
	1.000000000000000e+00,0.000000000000000e+00
	2.436312144487523e-10,8.372744360178267e-08
