Title: * sky130 bjt 3-stage high-cutoff sweep ac candidate: ch=22p
Date: Fri May 22 19:48:04  2026
Command: ngspice-46, Build Mar 29 2026   15:02:07
Plotname: AC Analysis
Flags: complex
No. Variables: 7
No. Points: 481
Variables:
	0	frequency	frequency grid=3
	1	v(vin)	voltage
	2	v(vout_final)	voltage
	3	gain	notype
	4	gain_vv	notype
	5	gain_db	decibel
	6	phase_deg	phase
Values:
 0	1.000000000000000e+00,0.000000000000000e+00
	1.000000000000000e+00,0.000000000000000e+00
	-3.916950123720769e+01,-5.551345674743989e+01
	-3.916950123720769e+01,-5.551345674743989e+01
	6.794110469532781e+01,0.0
	3.664265208093766e+01,0.0
	-2.185261254029231e+00,0.0

 1	1.029200527194428e+00,0.000000000000000e+00
	1.000000000000000e+00,0.000000000000000e+00
	-4.090370537541418e+01,-5.496026192323578e+01
	-4.090370537541418e+01,-5.496026192323578e+01
	6.851090062252406e+01,0.0
	3.671519353308263e+01,0.0
	-2.210601769239328e+00,0.0

 2	1.059253725177289e+00,0.000000000000000e+00
	1.000000000000000e+00,0.000000000000000e+00
	-4.258813079508469e+01,-5.436015314714911e+01
	-4.258813079508469e+01,-5.436015314714911e+01
	6.905631857260236e+01,0.0
	3.678406844342521e+01,0.0
	-2.235360248132935e+00,0.0

 3	1.090184492385128e+00,0.000000000000000e+00
	1.000000000000000e+00,0.000000000000000e+00
	-4.422173443926640e+01,-5.371723610300739e+01
	-4.422173443926640e+01,-5.371723610300739e+01
	6.957803713359009e+01,0.0
	3.684944345400466e+01,0.0
	-2.259543321254349e+00,0.0

 4	1.122018454301964e+00,0.000000000000000e+00
	1.000000000000000e+00,0.000000000000000e+00
	-4.580377885120280e+01,-5.303550914199692e+01
	-4.580377885120280e+01,-5.303550914199692e+01
	7.007675354210362e+01,0.0
	3.691147947980767e+01,0.0
	-2.283158078452497e+00,0.0

 5	1.154781984689459e+00,0.000000000000000e+00
	1.000000000000000e+00,0.000000000000000e+00
	-4.733380827033186e+01,-5.231884590725875e+01
	-4.733380827033186e+01,-5.231884590725875e+01
	7.055317882590424e+01,0.0
	3.697033171983650e+01,0.0
	-2.306212021575882e+00,0.0

 6	1.188502227437019e+00,0.000000000000000e+00
	1.000000000000000e+00,0.000000000000000e+00
	-4.881162474208787e+01,-5.157098108544287e+01
	-4.881162474208787e+01,-5.157098108544287e+01
	7.100803334889308e+01,0.0
	3.702614969036367e+01,0.0
	-2.328713019324651e+00,0.0

 7	1.223207119049932e+00,0.000000000000000e+00
	1.000000000000000e+00,0.000000000000000e+00
	-5.023726453672636e+01,-5.079549905714430e+01
	-5.023726453672636e+01,-5.079549905714430e+01
	7.144204275213140e+01,0.0
	3.707907727799478e+01,0.0
	-2.350669264315783e+00,0.0

 8	1.258925411794168e+00,0.000000000000000e+00
	1.000000000000000e+00,0.000000000000000e+00
	-5.161097512436201e+01,-4.999582520609990e+01
	-5.161097512436201e+01,-4.999582520609990e+01
	7.185593428051999e+01,0.0
	3.712925281025662e+01,0.0
	-2.372089232394999e+00,0.0

 9	1.295686697517020e+00,0.000000000000000e+00
	1.000000000000000e+00,0.000000000000000e+00
	-5.293319290865651e+01,-4.917521964186483e+01
	-5.293319290865651e+01,-4.917521964186483e+01
	7.225043348195699e+01,0.0
	3.717680914158408e+01,0.0
	-2.392981644207393e+00,0.0

 10	1.333521432163325e+00,0.000000000000000e+00
	1.000000000000000e+00,0.000000000000000e+00
	-5.420452187984385e+01,-4.833677309051784e+01
	-5.420452187984385e+01,-4.833677309051784e+01
	7.262626126289774e+01,0.0
	3.722187375265218e+01,0.0
	-2.413355429018846e+00,0.0

 11	1.372460961007563e+00,0.000000000000000e+00
	1.000000000000000e+00,0.000000000000000e+00
	-5.542571331054676e+01,-4.748340471278013e+01
	-5.542571331054676e+01,-4.748340471278013e+01
	7.298413128276989e+01,0.0
	3.726456886117792e+01,0.0
	-2.433219690764549e+00,0.0

 12	1.412537544622755e+00,0.000000000000000e+00
	1.000000000000000e+00,0.000000000000000e+00
	-5.659764658409721e+01,-4.661786161685131e+01
	-5.659764658409721e+01,-4.661786161685131e+01
	7.332474766807090e+01,0.0
	3.730501154241341e+01,0.0
	-2.452583676287566e+00,0.0

 13	1.453784385607663e+00,0.000000000000000e+00
	1.000000000000000e+00,0.000000000000000e+00
	-5.772131121536665e+01,-4.574271984433678e+01
	-5.772131121536665e+01,-4.574271984433678e+01
	7.364880302610962e+01,0.0
	3.734331385768572e+01,0.0
	-2.471456745716078e+00,0.0

 14	1.496235656094435e+00,0.000000000000000e+00
	1.000000000000000e+00,0.000000000000000e+00
	-5.879779009875565e+01,-4.486038662059893e+01
	-5.879779009875565e+01,-4.486038662059893e+01
	7.395697673814783e+01,0.0
	3.737958298950043e+01,0.0
	-2.489848344921086e+00,0.0

 15	1.539926526059493e+00,0.000000000000000e+00
	1.000000000000000e+00,0.000000000000000e+00
	-5.982824399570823e+01,-4.397310367508216e+01
	-5.982824399570823e+01,-4.397310367508216e+01
	7.424993351128015e+01,0.0
	3.741392138181946e+01,0.0
	-2.507767979986874e+00,0.0

 16	1.584893192461115e+00,0.000000000000000e+00
	1.000000000000000e+00,0.000000000000000e+00
	-6.081389725567844e+01,-4.308295145247448e+01
	-6.081389725567844e+01,-4.308295145247448e+01
	7.452832216869294e+01,0.0
	3.744642688426411e+01,0.0
	-2.525225193619636e+00,0.0

 17	1.631172909227840e+00,0.000000000000000e+00
	1.000000000000000e+00,0.000000000000000e+00
	-6.175602474918436e+01,-4.219185405100927e+01
	-6.175602474918436e+01,-4.219185405100927e+01
	7.479277465827523e+01,0.0
	3.747719289910596e+01,0.0
	-2.542229543416294e+00,0.0

 18	1.678804018122562e+00,0.000000000000000e+00
	1.000000000000000e+00,0.000000000000000e+00
	-6.265593997927048e+01,-4.130158473994798e+01
	-6.265593997927048e+01,-4.130158473994798e+01
	7.504390526030112e+01,0.0
	3.750630853003954e+01,0.0
	-2.558790581910829e+00,0.0

 19	1.727825980507865e+00,0.000000000000000e+00
	1.000000000000000e+00,0.000000000000000e+00
	-6.351498432782726e+01,-4.041377192338827e+01
	-6.351498432782726e+01,-4.041377192338827e+01
	7.528230997545033e+01,0.0
	3.753385873181651e+01,0.0
	-2.574917838314233e+00,0.0

 20	1.778279410038925e+00,0.000000000000000e+00
	1.000000000000000e+00,0.000000000000000e+00
	-6.433451738585818e+01,-3.952990543244232e+01
	-6.433451738585818e+01,-3.952990543244232e+01
	7.550856607544021e+01,0.0
	3.755992445993955e+01,0.0
	-2.590620801862094e+00,0.0

 21	1.830206106311058e+00,0.000000000000000e+00
	1.000000000000000e+00,0.000000000000000e+00
	-6.511590831129091e+01,-3.865134304173925e+01
	-6.511590831129091e+01,-3.865134304173925e+01
	7.572323179932727e+01,0.0
	3.758458281969224e+01,0.0
	-2.605908906684423e+00,0.0

 22	1.883649089489803e+00,0.000000000000000e+00
	1.000000000000000e+00,0.000000000000000e+00
	-6.586052815441163e+01,-3.777931711971105e+01
	-6.586052815441163e+01,-3.777931711971105e+01
	7.592684617979162e+01,0.0
	3.760790721389976e+01,0.0
	-2.620791518110693e+00,0.0

 23	1.938652635952210e+00,0.000000000000000e+00
	1.000000000000000e+00,0.000000000000000e+00
	-6.656974308872789e+01,-3.691494133396055e+01
	-6.656974308872789e+01,-3.691494133396055e+01
	7.611992898439267e+01,0.0
	3.762996748885752e+01,0.0
	-2.635277920328633e+00,0.0

 24	1.995262314968882e+00,0.000000000000000e+00
	1.000000000000000e+00,0.000000000000000e+00
	-6.724490848413215e+01,-3.605921734495969e+01
	-6.724490848413215e+01,-3.605921734495969e+01
	7.630298075809588e+01,0.0
	3.765083007797242e+01,0.0
	-2.649377305310134e+00,0.0

 25	2.053525026457149e+00,0.000000000000000e+00
	1.000000000000000e+00,0.000000000000000e+00
	-6.788736375964520e+01,-3.521304143115504e+01
	-6.788736375964520e+01,-3.521304143115504e+01
	7.647648295434767e+01,0.0
	3.767055814272459e+01,0.0
	-2.663098762927707e+00,0.0

 26	2.113489039836650e+00,0.000000000000000e+00
	1.000000000000000e+00,0.000000000000000e+00
	-6.849842795350520e+01,-3.437721099837303e+01
	-6.849842795350520e+01,-3.437721099837303e+01
	7.664089814275536e+01,0.0
	3.768921171059480e+01,0.0
	-2.676451272179551e+00,0.0

 27	2.175204034019526e+00,0.000000000000000e+00
	1.000000000000000e+00,0.000000000000000e+00
	-6.907939595073914e+01,-3.355243093467906e+01
	-6.907939595073914e+01,-3.355243093467906e+01
	7.679667028293221e+01,0.0
	3.770684780971941e+01,0.0
	-2.689443693450781e+00,0.0

 28	2.238721138568343e+00,0.000000000000000e+00
	1.000000000000000e+00,0.000000000000000e+00
	-6.963153530957005e+01,-3.273931977934315e+01
	-6.963153530957005e+01,-3.273931977934315e+01
	7.694422505413900e+01,0.0
	3.772352059998759e+01,0.0
	-2.702084761736093e+00,0.0

 29	2.304092976055850e+00,0.000000000000000e+00
	1.000000000000000e+00,0.000000000000000e+00
	-7.015608363176469e+01,-3.193841568155392e+01
	-7.015608363176469e+01,-3.193841568155392e+01
	7.708397023243478e+01,0.0
	3.773928150047617e+01,0.0
	-2.714383080755725e+00,0.0

 30	2.371373705661660e+00,0.000000000000000e+00
	1.000000000000000e+00,0.000000000000000e+00
	-7.065424642380049e+01,-3.115018213000080e+01
	-7.065424642380049e+01,-3.115018213000080e+01
	7.721629610676327e+01,0.0
	3.775417931302979e+01,0.0
	-2.726347117898114e+00,0.0

 31	2.440619068041985e+00,0.000000000000000e+00
	1.000000000000000e+00,0.000000000000000e+00
	-7.112719539933312e+01,-3.037501343987999e+01
	-7.112719539933312e+01,-3.037501343987999e+01
	7.734157592684419e+01,0.0
	3.776826034190394e+01,0.0
	-2.737985199925673e+00,0.0

 32	2.511886431509585e+00,0.000000000000000e+00
	1.000000000000000e+00,0.000000000000000e+00
	-7.157606717665404e+01,-2.961323998818565e+01
	-7.157606717665404e+01,-2.961323998818565e+01
	7.746016637649812e+01,0.0
	3.778156850942200e+01,0.0
	-2.749305509385162e+00,0.0

 33	2.585234839562196e+00,0.000000000000000e+00
	1.000000000000000e+00,0.000000000000000e+00
	-7.200196232759471e+01,-2.886513319197533e+01
	-7.200196232759471e+01,-2.886513319197533e+01
	7.757240806636625e+01,0.0
	3.779414546758483e+01,0.0
	-2.760316081664922e+00,0.0

 34	2.660725059798815e+00,0.000000000000000e+00
	1.000000000000000e+00,0.000000000000000e+00
	-7.240594473789764e+01,-2.813091022752892e+01
	-7.240594473789764e+01,-2.813091022752892e+01
	7.767862604099520e+01,0.0
	3.780603070563767e+01,0.0
	-2.771024802646666e+00,0.0

 35	2.738419634264367e+00,0.000000000000000e+00
	1.000000000000000e+00,0.000000000000000e+00
	-7.278904124193949e+01,-2.741073849105528e+01
	-7.278904124193949e+01,-2.741073849105528e+01
	7.777913029563770e+01,0.0
	3.781726165359649e+01,0.0
	-2.781439406901210e+00,0.0

 36	2.818382931264460e+00,0.000000000000000e+00
	1.000000000000000e+00,0.000000000000000e+00
	-7.315224149792328e+01,-2.670473980388995e+01
	-7.315224149792328e+01,-2.670473980388995e+01
	7.787421629887490e+01,0.0
	3.782787378177811e+01,0.0
	-2.791567476381375e+00,0.0

 37	2.900681198693160e+00,0.000000000000000e+00
	1.000000000000000e+00,0.000000000000000e+00
	-7.349649807226309e+01,-2.601299436689886e+01
	-7.349649807226309e+01,-2.601299436689886e+01
	7.796416551736115e+01,0.0
	3.783790069636051e+01,0.0
	-2.801416439567820e+00,0.0

 38	2.985382618917967e+00,0.000000000000000e+00
	1.000000000000000e+00,0.000000000000000e+00
	-7.382272670494876e+01,-2.533554447039293e+01
	-7.382272670494876e+01,-2.533554447039293e+01
	7.804924593975788e+01,0.0
	3.784737423104774e+01,0.0
	-2.810993571026807e+00,0.0

 39	3.072557365267454e+00,0.000000000000000e+00
	1.000000000000000e+00,0.000000000000000e+00
	-7.413180673028333e+01,-2.467239796703920e+01
	-7.413180673028333e+01,-2.467239796703920e+01
	7.812971259732139e+01,0.0
	3.785632453492390e+01,0.0
	-2.820305991341464e+00,0.0

 40	3.162277660168388e+00,0.000000000000000e+00
	1.000000000000000e+00,0.000000000000000e+00
	-7.442458162939921e+01,-2.402353151602832e+01
	-7.442458162939921e+01,-2.402353151602832e+01
	7.820580807850983e+01,0.0
	3.786478015653694e+01,0.0
	-2.829360667380547e+00,0.0

 41	3.254617834980468e+00,0.000000000000000e+00
	1.000000000000000e+00,0.000000000000000e+00
	-7.470185969413785e+01,-2.338889360768477e+01
	-7.470185969413785e+01,-2.338889360768477e+01
	7.827776303621773e+01,0.0
	3.787276812436205e+01,0.0
	-2.838164412871790e+00,0.0

 42	3.349654391578286e+00,0.000000000000000e+00
	1.000000000000000e+00,0.000000000000000e+00
	-7.496441478305069e+01,-2.276840737789213e+01
	-7.496441478305069e+01,-2.276840737789213e+01
	7.834579668553330e+01,0.0
	3.788031402368711e+01,0.0
	-2.846723889248763e+00,0.0

 43	3.447466065731504e+00,0.000000000000000e+00
	1.000000000000000e+00,0.000000000000000e+00
	-7.521298715310321e+01,-2.216197322227782e+01
	-7.521298715310321e+01,-2.216197322227782e+01
	7.841011729106027e+01,0.0
	3.788744207006498e+01,0.0
	-2.855045606742446e+00,0.0

 44	3.548133892335765e+00,0.000000000000000e+00
	1.000000000000000e+00,0.000000000000000e+00
	-7.544828435180523e+01,-2.156947121997266e+01
	-7.544828435180523e+01,-2.156947121997266e+01
	7.847092264233986e+01,0.0
	3.789417517939788e+01,0.0
	-2.863135925691660e+00,0.0

 45	3.651741272548388e+00,0.000000000000000e+00
	1.000000000000000e+00,0.000000000000000e+00
	-7.567098215694887e+01,-2.099076337712629e+01
	-7.567098215694887e+01,-2.099076337712629e+01
	7.852840051695807e+01,0.0
	3.790053503481411e+01,0.0
	-2.871001058047244e+00,0.0

 46	3.758374042884453e+00,0.000000000000000e+00
	1.000000000000000e+00,0.000000000000000e+00
	-7.588172555179149e+01,-2.042569569994145e+01
	-7.588172555179149e+01,-2.042569569994145e+01
	7.858272913015946e+01,0.0
	3.790654215039307e+01,0.0
	-2.878647069047824e+00,0.0

 47	3.868120546330533e+00,0.000000000000000e+00
	1.000000000000000e+00,0.000000000000000e+00
	-7.608112972570233e+01,-1.987410010710294e+01
	-7.608112972570233e+01,-1.987410010710294e+01
	7.863407757077269e+01,0.0
	3.791221593188591e+01,0.0
	-2.886079879046343e+00,0.0

 48	3.981071705534985e+00,0.000000000000000e+00
	1.000000000000000e+00,0.000000000000000e+00
	-7.626978109115798e+01,-1.933579619113888e+01
	-7.626978109115798e+01,-1.933579619113888e+01
	7.868260622296658e+01,0.0
	3.791757473453094e+01,0.0
	-2.893305265468193e+00,0.0

 49	4.097321098135428e+00,0.000000000000000e+00
	1.000000000000000e+00,0.000000000000000e+00
	-7.644823830933912e+01,-1.881059283802005e+01
	-7.644823830933912e+01,-1.881059283802005e+01
	7.872846717369313e+01,0.0
	3.792263591808534e+01,0.0
	-2.900328864883520e+00,0.0

 50	4.216965034285836e+00,0.000000000000000e+00
	1.000000000000000e+00,0.000000000000000e+00
	-7.661703331730693e+01,-1.829828971391744e+01
	-7.661703331730693e+01,-1.829828971391744e+01
	7.877180460545371e+01,0.0
	3.792741589915735e+01,0.0
	-2.907156175177669e+00,0.0

 51	4.340102636447452e+00,0.000000000000000e+00
	1.000000000000000e+00,0.000000000000000e+00
	-7.677667235119910e+01,-1.779867862784591e+01
	-7.677667235119910e+01,-1.779867862784591e+01
	7.881275517465888e+01,0.0
	3.793193020098025e+01,0.0
	-2.913792557804902e+00,0.0

 52	4.466835921509645e+00,0.000000000000000e+00
	1.000000000000000e+00,0.000000000000000e+00
	-7.692763696027394e+01,-1.731154477840472e+01
	-7.692763696027394e+01,-1.731154477840472e+01
	7.885144837545103e+01,0.0
	3.793619350071479e+01,0.0
	-2.920243240112181e+00,0.0

 53	4.597269885308736e+00,0.000000000000000e+00
	1.000000000000000e+00,0.000000000000000e+00
	-7.707038500760204e+01,-1.683666789253877e+01
	-7.707038500760204e+01,-1.683666789253877e+01
	7.888800688915683e+01,0.0
	3.794021967438876e+01,0.0
	-2.926513317720612e+00,0.0

 54	4.731512589614820e+00,0.000000000000000e+00
	1.000000000000000e+00,0.000000000000000e+00
	-7.720535165382002e+01,-1.637382326382840e+01
	-7.720535165382002e+01,-1.637382326382840e+01
	7.892254691952799e+01,0.0
	3.794402183957289e+01,0.0
	-2.932607756953412e+00,0.0

 55	4.869675251658648e+00,0.000000000000000e+00
	1.000000000000000e+00,0.000000000000000e+00
	-7.733295032116996e+01,-1.592278269745607e+01
	-7.733295032116996e+01,-1.592278269745607e+01
	7.895517851418580e+01,0.0
	3.794761239591223e+01,0.0
	-2.938531397300475e+00,0.0

 56	5.011872336272740e+00,0.000000000000000e+00
	1.000000000000000e+00,0.000000000000000e+00
	-7.745357363506132e+01,-1.548331536855226e+01
	-7.745357363506132e+01,-1.548331536855226e+01
	7.898600587220443e+01,0.0
	3.795100306357150e+01,0.0
	-2.944288953909932e+00,0.0

 57	5.158221650723075e+00,0.000000000000000e+00
	1.000000000000000e+00,0.000000000000000e+00
	-7.756759434157051e+01,-1.505518860032766e+01
	-7.756759434157051e+01,-1.505518860032766e+01
	7.901512763850906e+01,0.0
	3.795420491972824e+01,0.0
	-2.949885020098780e+00,0.0

 58	5.308844442309902e+00,0.000000000000000e+00
	1.000000000000000e+00,0.000000000000000e+00
	-7.767536619916433e+01,-1.463816856796017e+01
	-7.767536619916433e+01,-1.463816856796017e+01
	7.904263718524514e+01,0.0
	3.795722843318387e+01,0.0
	-2.955324069874825e+00,0.0

 59	5.463865498818562e+00,0.000000000000000e+00
	1.000000000000000e+00,0.000000000000000e+00
	-7.777722484348629e+01,-1.423202093386224e+01
	-7.777722484348629e+01,-1.423202093386224e+01
	7.906862288048347e+01,0.0
	3.796008349718054e+01,0.0
	-2.960610460463209e+00,0.0

 60	5.623413251903512e+00,0.000000000000000e+00
	1.000000000000000e+00,0.000000000000000e+00
	-7.787348862441114e+01,-1.383651141961217e+01
	-7.787348862441114e+01,-1.383651141961217e+01
	7.909316834468922e+01,0.0
	3.796277946051361e+01,0.0
	-2.965748434831462e+00,0.0

 61	5.787619883491228e+00,0.000000000000000e+00
	1.000000000000000e+00,0.000000000000000e+00
	-7.796445941479233e+01,-1.345140631949575e+01
	-7.796445941479233e+01,-1.345140631949575e+01
	7.911635269533708e+01,0.0
	3.796532515702005e+01,0.0
	-2.970742124207516e+00,0.0

 62	5.956621435290127e+00,0.000000000000000e+00
	1.000000000000000e+00,0.000000000000000e+00
	-7.805042339058824e+01,-1.307647296027374e+01
	-7.805042339058824e+01,-1.307647296027374e+01
	7.913825078008013e+01,0.0
	3.796772893352197e+01,0.0
	-2.975595550585826e+00,0.0

 63	6.130557921498230e+00,0.000000000000000e+00
	1.000000000000000e+00,0.000000000000000e+00
	-7.813165178224058e+01,-1.271148011146913e+01
	-7.813165178224058e+01,-1.271148011146913e+01
	7.915893339886266e+01,0.0
	3.796999867629883e+01,0.0
	-2.980312629217399e+00,0.0

 64	6.309573444801956e+00,0.000000000000000e+00
	1.000000000000000e+00,0.000000000000000e+00
	-7.820840159739251e+01,-1.235619835021616e+01
	-7.820840159739251e+01,-1.235619835021616e+01
	7.917846751541047e+01,0.0
	3.797214183616368e+01,0.0
	-2.984897171079571e+00,0.0

 65	6.493816315762138e+00,0.000000000000000e+00
	1.000000000000000e+00,0.000000000000000e+00
	-7.828091631510195e+01,-1.201040038438789e+01
	-7.828091631510195e+01,-1.201040038438789e+01
	7.919691645844109e+01,0.0
	3.797416545220560e+01,0.0
	-2.989352885322233e+00,0.0

 66	6.683439175686172e+00,0.000000000000000e+00
	1.000000000000000e+00,0.000000000000000e+00
	-7.834942655195229e+01,-1.167386133748010e+01
	-7.834942655195229e+01,-1.167386133748010e+01
	7.921434011305327e+01,0.0
	3.797607617427093e+01,0.0
	-2.993683381687555e+00,0.0

 67	6.878599123088104e+00,0.000000000000000e+00
	1.000000000000000e+00,0.000000000000000e+00
	-7.841415070062452e+01,-1.134635899848828e+01
	-7.841415070062452e+01,-1.134635899848828e+01
	7.923079510280601e+01,0.0
	3.797788028425899e+01,0.0
	-2.997892172900611e+00,0.0

 68	7.079457843841408e+00,0.000000000000000e+00
	1.000000000000000e+00,0.000000000000000e+00
	-7.847529554112434e+01,-1.102767403974132e+01
	-7.847529554112434e+01,-1.102767403974132e+01
	7.924633496253057e+01,0.0
	3.797958371625496e+01,0.0
	-3.001982677028265e+00,0.0

 69	7.286181745132307e+00,0.000000000000000e+00
	1.000000000000000e+00,0.000000000000000e+00
	-7.853305682571239e+01,-1.071759020549471e+01
	-7.853305682571239e+01,-1.071759020549471e+01
	7.926101030269226e+01,0.0
	3.798119207560508e+01,0.0
	-3.005958219804752e+00,0.0

 70	7.498942093324589e+00,0.000000000000000e+00
	1.000000000000000e+00,0.000000000000000e+00
	-7.858761983789047e+01,-1.041589447381506e+01
	-7.858761983789047e+01,-1.041589447381506e+01
	7.927486896535653e+01,0.0
	3.798271065695455e+01,0.0
	-3.009822036922029e+00,0.0

 71	7.717915155850156e+00,0.000000000000000e+00
	1.000000000000000e+00,0.000000000000000e+00
	-7.863915992638078e+01,-1.012237719415090e+01
	-7.863915992638078e+01,-1.012237719415090e+01
	7.928795617234411e+01,0.0
	3.798414446132482e+01,0.0
	-3.013577276283526e+00,0.0

 72	7.943282347242849e+00,0.000000000000000e+00
	1.000000000000000e+00,0.000000000000000e+00
	-7.868784301456758e+01,-9.836832202755780e+00
	-7.868784301456758e+01,-9.836832202755780e+00
