Title: * sky130 bjt 3-stage low-cutoff sweep ac candidate: ccpl=68n, ch=30p
Date: Fri May 22 20:34:16  2026
Command: ngspice-46, Build Mar 29 2026   15:02:07
Plotname: AC Analysis
Flags: complex
No. Variables: 7
No. Points: 721
Variables:
	0	frequency	frequency grid=3
	1	v(vin)	voltage
	2	v(vout_final)	voltage
	3	gain	notype
	4	gain_vv	notype
	5	gain_db	decibel
	6	phase_deg	phase
Values:
 0	1.000000000000000e-03,0.000000000000000e+00
	1.000000000000000e+00,0.000000000000000e+00
	4.421769766386446e-13,7.068161152540368e-10
	4.421769766386446e-13,7.068161152540368e-10
	7.068162535647341e-10,0.0
	-1.830138694449830e+02,0.0
	1.570170737041901e+00,0.0

 1	1.029200527194428e-03,0.000000000000000e+00
	1.000000000000000e+00,0.000000000000000e+00
	4.961307235571288e-13,7.705599558696348e-10
	4.961307235571288e-13,7.705599558696348e-10
	7.705601155883351e-10,0.0
	-1.822638694789539e+02,0.0
	1.570152469491879e+00,0.0

 2	1.059253725177289e-03,0.000000000000000e+00
	1.000000000000000e+00,0.000000000000000e+00
	5.566678224685191e-13,8.400525005450165e-10
	5.566678224685191e-13,8.400525005450165e-10
	8.400526849852927e-10,0.0
	-1.815138695149319e+02,0.0
	1.570133668519816e+00,0.0

 3	1.090184492385128e-03,0.000000000000000e+00
	1.000000000000000e+00,0.000000000000000e+00
	6.245915636534725e-13,9.158121929503441e-10
	6.245915636534725e-13,9.158121929503441e-10
	9.158124059386505e-10,0.0
	-1.807638695530477e+02,0.0
	1.570114318549515e+00,0.0

 4	1.122018454301964e-03,0.000000000000000e+00
	1.000000000000000e+00,0.000000000000000e+00
	7.008032536037819e-13,9.984042322925702e-10
	7.008032536037819e-13,9.984042322925702e-10
	9.984044782476271e-10,0.0
	-1.800138695934199e+02,0.0
	1.570094403549940e+00,0.0

 5	1.154781984689459e-03,0.000000000000000e+00
	1.000000000000000e+00,0.000000000000000e+00
	7.863141748011589e-13,1.088444789930051e-09
	7.863141748011589e-13,1.088444789930051e-09
	1.088445073954518e-09,0.0
	-1.792638696361845e+02,0.0
	1.570073907021945e+00,0.0

 6	1.188502227437019e-03,0.000000000000000e+00
	1.000000000000000e+00,0.000000000000000e+00
	8.822590048119160e-13,1.186605606263223e-09
	8.822590048119160e-13,1.186605606263223e-09
	1.186605934249556e-09,0.0
	-1.785138696814850e+02,0.0
	1.570052811984601e+00,0.0

 7	1.223207119049932e-03,0.000000000000000e+00
	1.000000000000000e+00,0.000000000000000e+00
	9.899108727573587e-13,1.293619002191900e-09
	9.899108727573587e-13,1.293619002191900e-09
	1.293619380944605e-09,0.0
	-1.777638697294690e+02,0.0
	1.570031100961124e+00,0.0

 8	1.258925411794168e-03,0.000000000000000e+00
	1.000000000000000e+00,0.000000000000000e+00
	1.110698252949018e-12,1.410283342525947e-09
	1.110698252949018e-12,1.410283342525947e-09
	1.410283779902742e-09,0.0
	-1.770138697802923e+02,0.0
	1.570008755964402e+00,0.0

 9	1.295686697517020e-03,0.000000000000000e+00
	1.000000000000000e+00,0.000000000000000e+00
	1.246223919855708e-12,1.537468992107380e-09
	1.246223919855708e-12,1.537468992107380e-09
	1.537469497182218e-09,0.0
	-1.762638698341320e+02,0.0
	1.569985758482091e+00,0.0

 10	1.333521432163325e-03,0.000000000000000e+00
	1.000000000000000e+00,0.000000000000000e+00
	1.398286215930528e-12,1.676124809086772e-09
	1.398286215930528e-12,1.676124809086772e-09
	1.676125392338088e-09,0.0
	-1.755138698911618e+02,0.0
	1.569962089461274e+00,0.0

 11	1.372460961007563e-03,0.000000000000000e+00
	1.000000000000000e+00,0.000000000000000e+00
	1.568902914497016e-12,1.827285223784322e-09
	1.568902914497016e-12,1.827285223784322e-09
	1.827285897312425e-09,0.0
	-1.747638699515662e+02,0.0
	1.569937729292684e+00,0.0

 12	1.412537544622755e-03,0.000000000000000e+00
	1.000000000000000e+00,0.000000000000000e+00
	1.760337994342528e-12,1.992077955950247e-09
	1.760337994342528e-12,1.992077955950247e-09
	1.992078733728356e-09,0.0
	-1.740138700155553e+02,0.0
	1.569912657794451e+00,0.0

 13	1.453784385607663e-03,0.000000000000000e+00
	1.000000000000000e+00,0.000000000000000e+00
	1.975131681314436e-12,2.171732428009789e-09
	1.975131681314436e-12,2.171732428009789e-09
	2.171733326173923e-09,0.0
	-1.732638700833349e+02,0.0
	1.569886854195386e+00,0.0

 14	1.496235656094435e-03,0.000000000000000e+00
	1.000000000000000e+00,0.000000000000000e+00
	2.216134155530258e-12,2.367588937039217e-09
	2.216134155530258e-12,2.367588937039217e-09
	2.367589974222961e-09,0.0
	-1.725138701551226e+02,0.0
	1.569860297117769e+00,0.0

 15	1.539926526059493e-03,0.000000000000000e+00
	1.000000000000000e+00,0.000000000000000e+00
	2.486543371478789e-12,2.581108653903037e-09
	2.486543371478789e-12,2.581108653903037e-09
	2.581109851624120e-09,0.0
	-1.717638702311765e+02,0.0
	1.569832964559644e+00,0.0

 16	1.584893192461115e-03,0.000000000000000e+00
	1.000000000000000e+00,0.000000000000000e+00
	2.789947492896587e-12,2.813884524180227e-09
	2.789947492896587e-12,2.813884524180227e-09
	2.813885907286931e-09,0.0
	-1.710138703117300e+02,0.0
	1.569804833876586e+00,0.0

 17	1.631172909227840e-03,0.000000000000000e+00
	1.000000000000000e+00,0.000000000000000e+00
	3.130372505433381e-12,3.067653152143536e-09
	3.130372505433381e-12,3.067653152143536e-09
	3.067654749330210e-09,0.0
	-1.702638703970557e+02,0.0
	1.569775881762939e+00,0.0

 18	1.678804018122562e-03,0.000000000000000e+00
	1.000000000000000e+00,0.000000000000000e+00
	3.512335638962536e-12,3.344307756509358e-09
	3.512335638962536e-12,3.344307756509358e-09
	3.344309600911718e-09,0.0
	-1.695138704874379e+02,0.0
	1.569746084232517e+00,0.0

 19	1.727825980507865e-03,0.000000000000000e+00
	1.000000000000000e+00,0.000000000000000e+00
	3.940905308378616e-12,3.645912294577882e-09
	3.940905308378616e-12,3.645912294577882e-09
	3.645914424460454e-09,0.0
	-1.687638705831807e+02,0.0
	1.569715416598721e+00,0.0

 20	1.778279410038925e-03,0.000000000000000e+00
	1.000000000000000e+00,0.000000000000000e+00
	4.421768368281756e-12,3.974716860155335e-09
	4.421768368281756e-12,3.974716860155335e-09
	3.974719319705303e-09,0.0
	-1.680138706845883e+02,0.0
	1.569683853454095e+00,0.0

 21	1.830206106311058e-03,0.000000000000000e+00
	1.000000000000000e+00,0.000000000000000e+00
	4.961305573920956e-12,4.333174470092251e-09
	4.961305573920956e-12,4.333174470092251e-09
	4.333177310336176e-09,0.0
	-1.672638707920101e+02,0.0
	1.569651368649271e+00,0.0

 22	1.883649089489803e-03,0.000000000000000e+00
	1.000000000000000e+00,0.000000000000000e+00
	5.566676249806490e-12,4.723959364736644e-09
	5.566676249806490e-12,4.723959364736644e-09
	4.723962644599077e-09,0.0
	-1.665138709057963e+02,0.0
	1.569617935271312e+00,0.0

 23	1.938652635952210e-03,0.000000000000000e+00
	1.000000000000000e+00,0.000000000000000e+00
	6.245913289385482e-12,5.149986958757953e-09
	6.245913289385482e-12,5.149986958757953e-09
	5.149990746283900e-09,0.0
	-1.657638710263274e+02,0.0
	1.569583525621406e+00,0.0

 24	1.995262314968882e-03,0.000000000000000e+00
	1.000000000000000e+00,0.000000000000000e+00
	7.008029746448673e-12,5.614435591237090e-09
	7.008029746448673e-12,5.614435591237090e-09
	5.614439965003696e-09,0.0
	-1.650138711539940e+02,0.0
	1.569548111191928e+00,0.0

 25	2.053525026457149e-03,0.000000000000000e+00
	1.000000000000000e+00,0.000000000000000e+00
	7.863138432574219e-12,6.120770237227615e-09
	7.863138432574219e-12,6.120770237227615e-09
	6.120775287974344e-09,0.0
	-1.642638712892326e+02,0.0
	1.569511662642814e+00,0.0

 26	2.113489039836650e-03,0.000000000000000e+00
	1.000000000000000e+00,0.000000000000000e+00
	8.822586107721485e-12,6.672768357767593e-09
	8.822586107721485e-12,6.672768357767593e-09
	6.672774190278737e-09,0.0
	-1.635138714324772e+02,0.0
	1.569474149777261e+00,0.0

 27	2.175204034019526e-03,0.000000000000000e+00
	1.000000000000000e+00,0.000000000000000e+00
	9.899104044401667e-12,7.274548081069209e-09
	9.899104044401667e-12,7.274548081069209e-09
	7.274554816347773e-09,0.0
	-1.627638715842141e+02,0.0
	1.569435541516704e+00,0.0

 28	2.238721138568343e-03,0.000000000000000e+00
	1.000000000000000e+00,0.000000000000000e+00
	1.110697696352045e-11,7.930598925256383e-09
	1.110697696352045e-11,7.930598925256383e-09
	7.930606703034451e-09,0.0
	-1.620138717449439e+02,0.0
	1.569395805875072e+00,0.0

 29	2.304092976055850e-03,0.000000000000000e+00
	1.000000000000000e+00,0.000000000000000e+00
	1.246223258339746e-11,8.645815291752936e-09
	1.246223258339746e-11,8.645815291752936e-09
	8.645824273390586e-09,0.0
	-1.612638719151923e+02,0.0
	1.569354909932287e+00,0.0

 30	2.371373705661660e-03,0.000000000000000e+00
	1.000000000000000e+00,0.000000000000000e+00
	1.398285429717498e-11,9.425532979207414e-09
	1.398285429717498e-11,9.425532979207414e-09
	9.425543351040347e-09,0.0
	-1.605138720955323e+02,0.0
	1.569312819806991e+00,0.0

 31	2.440619068041985e-03,0.000000000000000e+00
	1.000000000000000e+00,0.000000000000000e+00
	1.568901980080838e-11,1.027556899041921e-08
	1.568901980080838e-11,1.027556899041921e-08
	1.027558096762451e-08,0.0
	-1.597638722865548e+02,0.0
	1.569269500628479e+00,0.0

 32	2.511886431509585e-03,0.000000000000000e+00
	1.000000000000000e+00,0.000000000000000e+00
	1.760336883787706e-11,1.120226492912828e-08
	1.760336883787706e-11,1.120226492912828e-08
	1.120227876018856e-08,0.0
	-1.590138724888975e+02,0.0
	1.569224916507804e+00,0.0

 33	2.585234839562196e-03,0.000000000000000e+00
	1.000000000000000e+00,0.000000000000000e+00
	1.975130361417648e-11,1.221253431051625e-08
	1.975130361417648e-11,1.221253431051625e-08
	1.221255028237473e-08,0.0
	-1.582638727032314e+02,0.0
	1.569179030508052e+00,0.0

 34	2.660725059798815e-03,0.000000000000000e+00
	1.000000000000000e+00,0.000000000000000e+00
	2.216132586828469e-11,1.331391413830585e-08
	2.216132586828469e-11,1.331391413830585e-08
	1.331393258231934e-08,0.0
	-1.575138729302629e+02,0.0
	1.569131804613734e+00,0.0

 35	2.738419634264367e-03,0.000000000000000e+00
	1.000000000000000e+00,0.000000000000000e+00
	2.486541507074189e-11,1.451462113322112e-08
	2.486541507074189e-11,1.451462113322112e-08
	1.451464243203448e-08,0.0
	-1.567638731707517e+02,0.0
	1.569083199699296e+00,0.0

 36	2.818382931264460e-03,0.000000000000000e+00
	1.000000000000000e+00,0.000000000000000e+00
	2.789945277049660e-11,1.582361303237750e-08
	2.789945277049660e-11,1.582361303237750e-08
	1.582363762786206e-08,0.0
	-1.560138734254813e+02,0.0
	1.569033175496705e+00,0.0

 37	2.900681198693160e-03,0.000000000000000e+00
	1.000000000000000e+00,0.000000000000000e+00
	3.130369871892692e-11,1.725065541669584e-08
	3.130369871892692e-11,1.725065541669584e-08
	1.725068381911659e-08,0.0
	-1.552638736953124e+02,0.0
	1.568981690562085e+00,0.0

 38	2.985382618917966e-03,0.000000000000000e+00
	1.000000000000000e+00,0.000000000000000e+00
	3.512332508992042e-11,1.880639456519098e-08
	3.512332508992042e-11,1.880639456519098e-08
	1.880642736379268e-08,0.0
	-1.545138739811317e+02,0.0
	1.568928702241387e+00,0.0

 39	3.072557365267454e-03,0.000000000000000e+00
	1.000000000000000e+00,0.000000000000000e+00
	3.940901588406113e-11,2.050243687932058e-08
	3.940901588406113e-11,2.050243687932058e-08
	2.050247475455237e-08,0.0
	-1.537638742838817e+02,0.0
	1.568874166635049e+00,0.0

 40	3.162277660168387e-03,0.000000000000000e+00
	1.000000000000000e+00,0.000000000000000e+00
	4.421763947082228e-11,2.235143547005317e-08
	4.421763947082228e-11,2.235143547005317e-08
	2.235147920768537e-08,0.0
	-1.530138746045759e+02,0.0
	1.568818038561628e+00,0.0

 41	3.254617834980467e-03,0.000000000000000e+00
	1.000000000000000e+00,0.000000000000000e+00
	4.961300319313622e-11,2.436718455367646e-08
	4.961300319313622e-11,2.436718455367646e-08
	2.436723506110232e-08,0.0
	-1.522638749442747e+02,0.0
	1.568760271520370e+00,0.0

 42	3.349654391578285e-03,0.000000000000000e+00
	1.000000000000000e+00,0.000000000000000e+00
	5.566670004696079e-11,2.656472236038494e-08
	5.566670004696079e-11,2.656472236038494e-08
	2.656478068544572e-08,0.0
	-1.515138753040959e+02,0.0
	1.568700817652685e+00,0.0

 43	3.447466065731503e-03,0.000000000000000e+00
	1.000000000000000e+00,0.000000000000000e+00
	6.245905867066525e-11,2.896044332337123e-08
	6.245905867066525e-11,2.896044332337123e-08
	2.896051067609491e-08,0.0
	-1.507638756852336e+02,0.0
	1.568639627702498e+00,0.0

 44	3.548133892335764e-03,0.000000000000000e+00
	1.000000000000000e+00,0.000000000000000e+00
	7.008020924997383e-11,3.157222038539900e-08
	7.008020924997383e-11,3.157222038539900e-08
	3.157229816310387e-08,0.0
	-1.500138760889670e+02,0.0
	1.568576650975448e+00,0.0

 45	3.651741272548387e-03,0.000000000000000e+00
	1.000000000000000e+00,0.000000000000000e+00
	7.863127948268554e-11,3.441953833545198e-08
	7.863127948268554e-11,3.441953833545198e-08
	3.441962815173578e-08,0.0
	-1.492638765166140e+02,0.0
	1.568511835296880e+00,0.0

 46	3.758374042884452e-03,0.000000000000000e+00
	1.000000000000000e+00,0.000000000000000e+00
	8.822573647096085e-11,3.752363916951165e-08
	8.822573647096085e-11,3.752363916951165e-08
	3.752374288772756e-08,0.0
	-1.485138769696050e+02,0.0
	1.568445126968633e+00,0.0

 47	3.868120546330533e-03,0.000000000000000e+00
	1.000000000000000e+00,0.000000000000000e+00
	9.899089234924310e-11,4.090768056068095e-08
	9.899089234924310e-11,4.090768056068095e-08
	4.090780033259528e-08,0.0
	-1.477638774494358e+02,0.0
	1.568376470724546e+00,0.0

 48	3.981071705534985e-03,0.000000000000000e+00
	1.000000000000000e+00,0.000000000000000e+00
	1.110695936242854e-10,4.459690862010641e-08
	1.110695936242854e-10,4.459690862010641e-08
	4.459704693053958e-08,0.0
	-1.470138779576997e+02,0.0
	1.568305809684676e+00,0.0

 49	4.097321098135428e-03,0.000000000000000e+00
	1.000000000000000e+00,0.000000000000000e+00
	1.246221166446076e-10,4.861884623791155e-08
	1.246221166446076e-10,4.861884623791155e-08
	4.861900595628877e-08,0.0
	-1.462638784960782e+02,0.0
	1.568233085308177e+00,0.0

 50	4.216965034285836e-03,0.000000000000000e+00
	1.000000000000000e+00,0.000000000000000e+00
	1.398282943497756e-10,5.300349840883724e-08
	1.398282943497756e-10,5.300349840883724e-08
	5.300368284871829e-08,0.0
	-1.455138790663586e+02,0.0
	1.568158237344800e+00,0.0

 51	4.340102636447452e-03,0.000000000000000e+00
	1.000000000000000e+00,0.000000000000000e+00
	1.568899025203057e-10,5.778357607449727e-08
	1.568899025203057e-10,5.778357607449727e-08
	5.778378906232029e-08,0.0
	-1.447638796704306e+02,0.0
	1.568081203784984e+00,0.0

 52	4.466835921509646e-03,0.000000000000000e+00
	1.000000000000000e+00,0.000000000000000e+00
	1.760333371908726e-10,6.299474015185118e-08
	1.760333371908726e-10,6.299474015185118e-08
	6.299498610631687e-08,0.0
	-1.440138803102976e+02,0.0
	1.568001920808479e+00,0.0

 53	4.597269885308737e-03,0.000000000000000e+00
	1.000000000000000e+00,0.000000000000000e+00
	1.975126187543409e-10,6.867586756844650e-08
	1.975126187543409e-10,6.867586756844650e-08
	6.867615159218934e-08,0.0
	-1.432638809880745e+02,0.0
	1.567920322731481e+00,0.0

 54	4.731512589614821e-03,0.000000000000000e+00
	1.000000000000000e+00,0.000000000000000e+00
	2.216127626169884e-10,7.486934128862337e-08
	2.216127626169884e-10,7.486934128862337e-08
	7.486966927407199e-08,0.0
	-1.425138817060148e+02,0.0
	1.567836341952216e+00,0.0

 55	4.869675251658647e-03,0.000000000000000e+00
	1.000000000000000e+00,0.000000000000000e+00
	2.486535611322499e-10,8.162136649469319e-08
	2.486535611322499e-10,8.162136649469319e-08
	8.162174524631587e-08,0.0
	-1.417638824664960e+02,0.0
	1.567749908894938e+00,0.0

 56	5.011872336272740e-03,0.000000000000000e+00
	1.000000000000000e+00,0.000000000000000e+00
	2.789938269934545e-10,8.898231528107777e-08
	2.789938269934545e-10,8.898231528107777e-08
	8.898275265654928e-08,0.0
	-1.410138832720384e+02,0.0
	1.567660951952286e+00,0.0

 57	5.158221650723075e-03,0.000000000000000e+00
	1.000000000000000e+00,0.000000000000000e+00
	3.130361543923596e-10,9.700710243299108e-08
	3.130361543923596e-10,9.700710243299108e-08
	9.700760750620944e-08,0.0
	-1.402638841253111e+02,0.0
	1.567569397425970e+00,0.0

 58	5.308844442309902e-03,0.000000000000000e+00
	1.000000000000000e+00,0.000000000000000e+00
	3.512322611185200e-10,1.057555950925789e-07
	3.512322611185200e-10,1.057555950925789e-07
	1.057561783419142e-07,0.0
	-1.395138850291442e+02,0.0
	1.567475169465716e+00,0.0

 59	5.463865498818562e-03,0.000000000000000e+00
	1.000000000000000e+00,0.000000000000000e+00
	3.940889824840949e-10,1.152930593685127e-07
	3.940889824840949e-10,1.152930593685127e-07
	1.152937328941930e-07,0.0
	-1.387638859865332e+02,0.0
	1.567378190006429e+00,0.0

 60	5.623413251903512e-03,0.000000000000000e+00
	1.000000000000000e+00,0.000000000000000e+00
	4.421749966062221e-10,1.256906472202280e-07
	4.421749966062221e-10,1.256906472202280e-07
	1.256914249953728e-07,0.0
	-1.380138870006519e+02,0.0
	1.567278378703526e+00,0.0

 61	5.787619883491228e-03,0.000000000000000e+00
	1.000000000000000e+00,0.000000000000000e+00
	4.961283702849301e-10,1.370259272488071e-07
	4.961283702849301e-10,1.370259272488071e-07
	1.370268254093160e-07,0.0
	-1.372638880748561e+02,0.0
	1.567175652866376e+00,0.0

 62	5.956621435290127e-03,0.000000000000000e+00
	1.000000000000000e+00,0.000000000000000e+00
	5.566650255994074e-10,1.493834633531980e-07
	5.566650255994074e-10,1.493834633531980e-07
	1.493845005325083e-07,0.0
	-1.365138892127147e+02,0.0
	1.567069927389801e+00,0.0

 63	6.130557921498231e-03,0.000000000000000e+00
	1.000000000000000e+00,0.000000000000000e+00
	6.245882395693163e-10,1.628554455691425e-07
	6.245882395693163e-10,1.628554455691425e-07
	1.628566432848011e-07,0.0
	-1.357638904179927e+02,0.0
	1.566961114683578e+00,0.0

 64	6.309573444801957e-03,0.000000000000000e+00
	1.000000000000000e+00,0.000000000000000e+00
	7.007993029227572e-10,1.775423777945332e-07
	7.007993029227572e-10,1.775423777945332e-07
	1.775437608946024e-07,0.0
	-1.350138916946937e+02,0.0
	1.566849124599875e+00,0.0

 65	6.493816315762139e-03,0.000000000000000e+00
	1.000000000000000e+00,0.000000000000000e+00
	7.863094794091586e-10,1.935538275329519e-07
	7.863094794091586e-10,1.935538275329519e-07
	1.935554247115102e-07,0.0
	-1.342638930470389e+02,0.0
	1.566733864358578e+00,0.0

 66	6.683439175686173e-03,0.000000000000000e+00
	1.000000000000000e+00,0.000000000000000e+00
	8.822534243294785e-10,2.110092432450758e-07
	8.822534243294785e-10,2.110092432450758e-07
	2.110110876375085e-07,0.0
	-1.335138944795178e+02,0.0
	1.566615238470433e+00,0.0

 67	6.878599123088104e-03,0.000000000000000e+00
	1.000000000000000e+00,0.000000000000000e+00
	9.899042403431337e-10,2.300388454068921e-07
	9.899042403431337e-10,2.300388454068921e-07
	2.300409752773211e-07,0.0
	-1.327638959968765e+02,0.0
	1.566493148657948e+00,0.0

 68	7.079457843841408e-03,0.000000000000000e+00
	1.000000000000000e+00,0.000000000000000e+00
	1.110690370311652e-09,2.507845979189036e-07
	1.110690370311652e-09,2.507845979189036e-07
	2.507870574540179e-07,0.0
	-1.320138976041422e+02,0.0
	1.566367493773980e+00,0.0

 69	7.286181745132307e-03,0.000000000000000e+00
	1.000000000000000e+00,0.000000000000000e+00
	1.246214551327374e-09,2.734012671122843e-07
	1.246214551327374e-09,2.734012671122843e-07
	2.734041073380402e-07,0.0
	-1.312638993066407e+02,0.0
	1.566238169717951e+00,0.0

 70	7.498942093324590e-03,0.000000000000000e+00
	1.000000000000000e+00,0.000000000000000e+00
	1.398275081417492e-09,2.980575762501256e-07
	1.398275081417492e-09,2.980575762501256e-07
	2.980608560903339e-07,0.0
	-1.305139011100224e+02,0.0
	1.566105069349619e+00,0.0

 71	7.717915155850157e-03,0.000000000000000e+00
	1.000000000000000e+00,0.000000000000000e+00
	1.568889681106804e-09,3.249374641354262e-07
	1.568889681106804e-09,3.249374641354262e-07
	3.249412516341883e-07,0.0
	-1.297639030202618e+02,0.0
	1.565968082400324e+00,0.0

 72	7.943282347242850e-03,0.000000000000000e+00
	1.000000000000000e+00,0.000000000000000e+00
	1.760322266435007e-09,3.542414572109154e-07
	1.760322266435007e-09,3.542414572109154e-07
	3.542458309442675e-07,0.0
	-1.290139050436879e+02,0.0
	1.565827095381653e+00,0.0

 73	8.175230379436536e-03,0.000000000000000e+00
	1.000000000000000e+00,0.000000000000000e+00
	1.975112988667986e-09,3.861881653847147e-07
	1.975112988667986e-09,3.861881653847147e-07
