Title: * sky130 bjt 3-stage cout pole-alignment ac sweep: cout=15n, rout=10meg/10meg
Date: Fri May 22 21:26:19  2026
Command: ngspice-46, Build Mar 29 2026   15:02:07
Plotname: AC Analysis
Flags: complex
No. Variables: 8
No. Points: 721
Variables:
	0	frequency	frequency grid=3
	1	v(vin)	voltage
	2	v(b3_collector)	voltage
	3	v(vout_final)	voltage
	4	gain	notype
	5	gain_vv	notype
	6	gain_db	decibel
	7	phase_deg	phase
Values:
 0	1.000000000000000e-03,0.000000000000000e+00
	1.000000000000000e+00,0.000000000000000e+00
	4.890706657815818e-13,7.904423234833921e-10
	-3.724869779758060e-13,4.061164948762079e-16
	-3.724869779758060e-13,4.061164948762079e-16
	3.724871993668453e-13,0.0
	-2.485777729463602e+02,0.0
	3.140502370283344e+00,0.0

 1	1.029200527194428e-03,0.000000000000000e+00
	1.000000000000000e+00,0.000000000000000e+00
	5.487463076044407e-13,8.617279499593498e-10
	-4.179372441288816e-13,4.689760003185178e-16
	-4.179372441288816e-13,4.689760003185178e-16
	4.179375072526193e-13,0.0
	-2.475777730383911e+02,0.0
	3.140470533438816e+00,0.0

 2	1.059253725177289e-03,0.000000000000000e+00
	1.000000000000000e+00,0.000000000000000e+00
	6.157034780860098e-13,9.394424324262798e-10
	-4.689332778963907e-13,5.415650221696151e-16
	-4.689332778963907e-13,5.415650221696151e-16
	4.689335906195320e-13,0.0
	-2.465777731358733e+02,0.0
	3.140437766941898e+00,0.0

 3	1.090184492385128e-03,0.000000000000000e+00
	1.000000000000000e+00,0.000000000000000e+00
	6.908306579250003e-13,1.024165553680865e-09
	-5.261517645899089e-13,6.253895137085212e-16
	-5.261517645899089e-13,6.253895137085212e-16
	5.261521362620500e-13,0.0
	-2.455777732391354e+02,0.0
	3.140404043646272e+00,0.0

 4	1.122018454301964e-03,0.000000000000000e+00
	1.000000000000000e+00,0.000000000000000e+00
	7.751247388304292e-13,1.116529383889589e-09
	-5.903519574893707e-13,7.221885225231937e-16
	-5.903519574893707e-13,7.221885225231937e-16
	5.903523992225269e-13,0.0
	-2.445777733485107e+02,0.0
	3.140369335612936e+00,0.0

 5	1.154781984689459e-03,0.000000000000000e+00
	1.000000000000000e+00,0.000000000000000e+00
	8.697042516563330e-13,1.217222996087304e-09
	-6.623857526328283e-13,8.339702692787788e-16
	-6.623857526328283e-13,8.339702692787788e-16
	6.623862776336542e-13,0.0
	-2.435777734643703e+02,0.0
	3.140333614087057e+00,0.0

 6	1.188502227437019e-03,0.000000000000000e+00
	1.000000000000000e+00,0.000000000000000e+00
	9.758242086179887e-13,1.326997606946881e-09
	-7.432089929157915e-13,9.630538108279679e-16
	-7.432089929157915e-13,9.630538108279679e-16
	7.432096168804246e-13,0.0
	-2.425777735870946e+02,0.0
	3.140296849474149e+00,0.0

 7	1.223207119049932e-03,0.000000000000000e+00
	1.000000000000000e+00,0.000000000000000e+00
	1.094892756526070e-12,1.446672181159326e-09
	-8.338941514907822e-13,1.112117152008107e-15
	-8.338941514907822e-13,1.112117152008107e-15
	8.338948930741160e-13,0.0
	-2.415777737170911e+02,0.0
	3.140259011315552e+00,0.0

 8	1.258925411794168e-03,0.000000000000000e+00
	1.000000000000000e+00,0.000000000000000e+00
	1.228489862024668e-12,1.577139541244471e-09
	-9.356445627714338e-13,1.284252804271273e-15
	-9.356445627714338e-13,1.284252804271273e-15
	9.356454441448496e-13,0.0
	-2.405777738547856e+02,0.0
	3.140220068263202e+00,0.0

 9	1.295686697517020e-03,0.000000000000000e+00
	1.000000000000000e+00,0.000000000000000e+00
	1.378388276765551e-12,1.719373028364232e-09
	-1.049810389870673e-12,1.483031943772264e-15
	-1.049810389870673e-12,1.483031943772264e-15
	1.049811437384905e-12,0.0
	-2.395777740006452e+02,0.0
	3.140179988053657e+00,0.0

 10	1.333521432163325e-03,0.000000000000000e+00
	1.000000000000000e+00,0.000000000000000e+00
	1.546577060728515e-12,1.874433763846333e-09
	-1.177906540358171e-12,1.712578499968112e-15
	-1.177906540358171e-12,1.712578499968112e-15
	1.177907785331124e-12,0.0
	-2.385777741551453e+02,0.0
	3.140138737481370e+00,0.0

 11	1.372460961007563e-03,0.000000000000000e+00
	1.000000000000000e+00,0.000000000000000e+00
	1.735287975806778e-12,2.043478565570408e-09
	-1.321632768052814e-12,1.977654711769283e-15
	-1.321632768052814e-12,1.977654711769283e-15
	1.321634247705886e-12,0.0
	-2.375777743188006e+02,0.0
	3.140096282371176e+00,0.0

 12	1.412537544622755e-03,0.000000000000000e+00
	1.000000000000000e+00,0.000000000000000e+00
	1.947025099899583e-12,2.227768578293760e-09
	-1.482896227596246e-12,2.283759926226165e-15
	-1.482896227596246e-12,2.283759926226165e-15
	1.482897986167146e-12,0.0
	-2.365777744921575e+02,0.0
	3.140052587549984e+00,0.0

 13	1.453784385607663e-03,0.000000000000000e+00
	1.000000000000000e+00,0.000000000000000e+00
	2.184598054471142e-12,2.428678682297997e-09
	-1.663836781087234e-12,2.637244689450385e-15
	-1.663836781087234e-12,2.637244689450385e-15
	1.663838871152577e-12,0.0
	-2.355777746757805e+02,0.0
	3.140007616817632e+00,0.0

 14	1.496235656094435e-03,0.000000000000000e+00
	1.000000000000000e+00,0.000000000000000e+00
	2.451159286467376e-12,2.647707750535044e-09
	-1.866855392567009e-12,3.045442496709483e-15
	-1.866855392567009e-12,3.045442496709483e-15
	1.866857876614211e-12,0.0
	-2.345777748702807e+02,0.0
	3.139961332916903e+00,0.0

 15	1.539926526059493e-03,0.000000000000000e+00
	1.000000000000000e+00,0.000000000000000e+00
	2.750245899316702e-12,2.886489830811342e-09
	-2.094645987138633e-12,3.516821935030692e-15
	-2.094645987138633e-12,3.516821935030692e-15
	2.094648939434124e-12,0.0
	-2.335777750763138e+02,0.0
	3.139913697502651e+00,0.0

 16	1.584893192461115e-03,0.000000000000000e+00
	1.000000000000000e+00,0.000000000000000e+00
	3.085826588090371e-12,3.146806336436760e-09
	-2.350231197468766e-12,4.061162374705013e-15
	-2.350231197468766e-12,4.061162374705013e-15
	2.350234706278355e-12,0.0
	-2.325777752945509e+02,0.0
	3.139864671110039e+00,0.0

 17	1.631172909227840e-03,0.000000000000000e+00
	1.000000000000000e+00,0.000000000000000e+00
	3.462354301586835e-12,3.430599336254028e-09
	-2.637002471976633e-12,4.689756854583711e-15
	-2.637002471976633e-12,4.689756854583711e-15
	2.637006642204419e-12,0.0
	-2.315777755257157e+02,0.0
	3.139814213121842e+00,0.0

 18	1.678804018122562e-03,0.000000000000000e+00
	1.000000000000000e+00,0.000000000000000e+00
	3.884825330162479e-12,3.739986043226644e-09
	-2.958765076933148e-12,5.415646370302216e-15
	-2.958765076933148e-12,5.415646370302216e-15
	2.958770033257878e-12,0.0
	-2.305777757705845e+02,0.0
	3.139762281734799e+00,0.0

 19	1.727825980507865e-03,0.000000000000000e+00
	1.000000000000000e+00,0.000000000000000e+00
	4.358845603375685e-12,4.077274609676746e-09
	-3.319788589613012e-12,6.253890426033997e-15
	-3.319788589613012e-12,6.253890426033997e-15
	3.319794480215637e-12,0.0
	-2.295777760299616e+02,0.0
	3.139708833924977e+00,0.0

 20	1.778279410038925e-03,0.000000000000000e+00
	1.000000000000000e+00,0.000000000000000e+00
	4.890705077128191e-12,4.444981346981045e-09
	-3.724863552477732e-12,7.221879462642786e-15
	-3.724863552477732e-12,7.221879462642786e-15
	3.724870553471624e-12,0.0
	-2.285777763047020e+02,0.0
	3.139653825412130e+00,0.0

 21	1.830206106311058e-03,0.000000000000000e+00
	1.000000000000000e+00,0.000000000000000e+00
	5.487461197392596e-12,4.845849498205419e-09
	-4.179365040152230e-12,8.339695643946523e-15
	-4.179365040152230e-12,8.339695643946523e-15
	4.179373360848500e-12,0.0
	-2.275777765957284e+02,0.0
	3.139597210623017e+00,0.0

 22	1.883649089489803e-03,0.000000000000000e+00
	1.000000000000000e+00,0.000000000000000e+00
	6.157032548078391e-12,5.282869703756281e-09
	-4.689323982697304e-12,9.630529486089047e-15
	-4.689323982697304e-12,9.630529486089047e-15
	4.689333871862644e-12,0.0
	-2.265777769039960e+02,0.0
	3.139538942653640e+00,0.0

 23	1.938652635952210e-03,0.000000000000000e+00
	1.000000000000000e+00,0.000000000000000e+00
	6.908303925584098e-12,5.759302312663005e-09
	-5.261507191517894e-12,1.112116097335465e-14
	-5.261507191517894e-12,1.112116097335465e-14
	5.261518944812032e-12,0.0
	-2.255777772305327e+02,0.0
	3.139478973230394e+00,0.0

 24	1.995262314968882e-03,0.000000000000000e+00
	1.000000000000000e+00,0.000000000000000e+00
	7.751244234414980e-12,6.278701706012520e-09
	-5.903507149838380e-12,1.284251514187773e-14
	-5.903507149838380e-12,1.284251514187773e-14
	5.903521118653514e-12,0.0
	-2.245777775764148e+02,0.0
	3.139417252670068e+00,0.0

 25	2.053525026457149e-03,0.000000000000000e+00
	1.000000000000000e+00,0.000000000000000e+00
	8.697038768160713e-12,6.844942813932397e-09
	-6.623842759124774e-12,1.483030365733571e-14
	-6.623842759124774e-12,1.483030365733571e-14
	6.623859361091257e-12,0.0
	-2.235777779427921e+02,0.0
	3.139353729838690e+00,0.0

 26	2.113489039836650e-03,0.000000000000000e+00
	1.000000000000000e+00,0.000000000000000e+00
	9.758237631194793e-12,7.462250023995411e-09
	-7.432072378305238e-12,1.712576569700010e-14
	-7.432072378305238e-12,1.712576569700010e-14
	7.432092109777594e-12,0.0
	-2.225777783308797e+02,0.0
	3.139288352109161e+00,0.0

 27	2.175204034019526e-03,0.000000000000000e+00
	1.000000000000000e+00,0.000000000000000e+00
	1.094892227050428e-11,8.135228696683151e-09
	-8.338920655684632e-12,1.977652350652215e-14
	-8.338920655684632e-12,1.977652350652215e-14
	8.338944106581230e-12,0.0
	-2.215777787419610e+02,0.0
	3.139221065317659e+00,0.0

 28	2.238721138568343e-03,0.000000000000000e+00
	1.000000000000000e+00,0.000000000000000e+00
	1.228489232741075e-11,8.868899523018520e-09
	-9.356420836480041e-12,2.283757038092878e-14
	-9.356420836480041e-12,2.283757038092878e-14
	9.356448707920050e-12,0.0
	-2.205777791774012e+02,0.0
	3.139151813718767e+00,0.0

 29	2.304092976055850e-03,0.000000000000000e+00
	1.000000000000000e+00,0.000000000000000e+00
	1.378387528861198e-11,9.668735980708372e-09
	-1.049807443427679e-11,2.637241156665491e-14
	-1.049807443427679e-11,2.637241156665491e-14
	1.049810755954176e-11,0.0
	-2.195777796386425e+02,0.0
	3.139080539939287e+00,0.0

 30	2.371373705661660e-03,0.000000000000000e+00
	1.000000000000000e+00,0.000000000000000e+00
	1.546576171842100e-11,1.054070516819426e-08
	-1.177903038504249e-11,3.045438175379780e-14
	-1.177903038504249e-11,3.045438175379780e-14
	1.177906975448920e-11,0.0
	-2.185777801272170e+02,0.0
	3.139007184930718e+00,0.0

 31	2.440619068041985e-03,0.000000000000000e+00
	1.000000000000000e+00,0.000000000000000e+00
	1.735286919364059e-11,1.149131232128759e-08
	-1.321628606092726e-11,3.516816649153157e-14
	-1.321628606092726e-11,3.516816649153157e-14
	1.321633285159671e-11,0.0
	-2.175777806447362e+02,0.0
	3.138931687920328e+00,0.0

 32	2.511886431509585e-03,0.000000000000000e+00
	1.000000000000000e+00,0.000000000000000e+00
	1.947023844315993e-11,1.252764934440790e-08
	-1.482891281098636e-11,4.061155908981765e-14
	-1.482891281098636e-11,4.061155908981765e-14
	1.482896842179412e-11,0.0
	-2.165777811929253e+02,0.0
	3.138853986360814e+00,0.0

 33	2.585234839562196e-03,0.000000000000000e+00
	1.000000000000000e+00,0.000000000000000e+00
	2.184596562206749e-11,1.365744771861135e-08
	-1.663830902164433e-11,4.689748945663179e-14
	-1.663830902164433e-11,4.689748945663179e-14
	1.663837511520427e-11,0.0
	-2.155777817735949e+02,0.0
	3.138774015878487e+00,0.0

 34	2.660725059798815e-03,0.000000000000000e+00
	1.000000000000000e+00,0.000000000000000e+00
	2.451157512906579e-11,1.488913618096047e-08
	-1.866848405454422e-11,5.415636696057838e-14
	-1.866848405454422e-11,5.415636696057838e-14
	1.866856260687614e-11,0.0
	-2.145777823886710e+02,0.0
	3.138691710219934e+00,0.0

 35	2.738419634264367e-03,0.000000000000000e+00
	1.000000000000000e+00,0.000000000000000e+00
	2.750243791436780e-11,1.623190360564207e-08
	-2.094637682941817e-11,6.253878592431358e-14
	-2.094637682941817e-11,6.253878592431358e-14
	2.094647018902543e-11,0.0
	-2.135777830401939e+02,0.0
	3.138607001197142e+00,0.0

 36	2.818382931264460e-03,0.000000000000000e+00
	1.000000000000000e+00,0.000000000000000e+00
	3.085824082872198e-11,1.769576755590822e-08
	-2.350221327915112e-11,7.221864987697663e-14
	-2.350221327915112e-11,7.221864987697663e-14
	2.350232423723444e-11,0.0
	-2.125777837303168e+02,0.0
	3.138519818631004e+00,0.0

 37	2.900681198693160e-03,0.000000000000000e+00
	1.000000000000000e+00,0.000000000000000e+00
	3.462351324127205e-11,1.929164901817186e-08
	-2.636990741990961e-11,8.339677938095758e-14
	-2.636990741990961e-11,8.339677938095758e-14
	2.637003929381629e-11,0.0
	-2.115777844613365e+02,0.0
	3.138430090293181e+00,0.0

 38	2.985382618917966e-03,0.000000000000000e+00
	1.000000000000000e+00,0.000000000000000e+00
	3.884821791445088e-11,2.103145387594433e-08
	-2.958751135821833e-11,9.630507828165579e-14
	-2.958751135821833e-11,9.630507828165579e-14
	2.958766809062183e-11,0.0
	-2.105777852356740e+02,0.0
	3.138337741846266e+00,0.0

 39	3.072557365267454e-03,0.000000000000000e+00
	1.000000000000000e+00,0.000000000000000e+00
	4.358841397604657e-11,2.292816173125768e-08
	-3.319772020576083e-11,1.112113448124018e-13
	-3.319772020576083e-11,1.112113448124018e-13
	3.319790648253585e-11,0.0
	-2.095777860558890e+02,0.0
	3.138242696782204e+00,0.0

 40	3.162277660168387e-03,0.000000000000000e+00
	1.000000000000000e+00,0.000000000000000e+00
	4.890700078557556e-11,2.499592273621146e-08
	-3.724843860143471e-11,1.284248273654101e-13
	-3.724843860143471e-11,1.284248273654101e-13
	3.724865999175186e-11,0.0
	-2.085777869247060e+02,0.0
	3.138144876358913e+00,0.0

 41	3.254617834980467e-03,0.000000000000000e+00
	1.000000000000000e+00,0.000000000000000e+00
	5.487455256578914e-11,2.725016315711817e-08
	-4.179341635773738e-11,1.483026401889593e-13
	-4.179341635773738e-11,1.483026401889593e-13
	4.179367948056593e-11,0.0
	-2.075777878450090e+02,0.0
	3.138044199535049e+00,0.0

 42	3.349654391578285e-03,0.000000000000000e+00
	1.000000000000000e+00,0.000000000000000e+00
	6.157025487408527e-11,2.970770045870291e-08
	-4.689296166548672e-11,1.712571721099319e-13
	-4.689296166548672e-11,1.712571721099319e-13
	4.689327438748339e-11,0.0
	-2.065777888198375e+02,0.0
	3.137940582902870e+00,0.0

 43	3.447466065731503e-03,0.000000000000000e+00
	1.000000000000000e+00,0.000000000000000e+00
	6.908295533968653e-11,3.238686876673713e-08
	-5.261474131975668e-11,1.977646419811350e-13
	-5.261474131975668e-11,1.977646419811350e-13
	5.261511299045673e-11,0.0
	-2.055777898524260e+02,0.0
	3.137833940619148e+00,0.0

 44	3.548133892335764e-03,0.000000000000000e+00
	1.000000000000000e+00,0.000000000000000e+00
	7.751234260954962e-11,3.530765564527369e-08
	-5.903467858505883e-11,2.283749783446245e-13
	-5.903467858505883e-11,2.283749783446245e-13
	5.903512031640095e-11,0.0
	-2.045777909462079e+02,0.0
	3.137724184334052e+00,0.0

 45	3.651741272548387e-03,0.000000000000000e+00
	1.000000000000000e+00,0.000000000000000e+00
	8.697026914688558e-11,3.849185120889490e-08
	-6.623796061306922e-11,2.637232282734178e-13
	-6.623796061306922e-11,2.637232282734178e-13
	6.623848561161133e-11,0.0
	-2.035777921047893e+02,0.0
	3.137611223117960e+00,0.0

 46	3.758374042884452e-03,0.000000000000000e+00
	1.000000000000000e+00,0.000000000000000e+00
	9.758223543317730e-11,4.196321068176987e-08
	-7.432016877862706e-11,3.045427320727619e-13
	-7.432016877862706e-11,3.045427320727619e-13
	7.432079274038505e-11,0.0
	-2.025777933320271e+02,0.0
	3.137494963386132e+00,0.0

 47	3.868120546330533e-03,0.000000000000000e+00
	1.000000000000000e+00,0.000000000000000e+00
	1.094890552703009e-10,4.574763161711879e-08
	-8.338854693306540e-11,3.516803371668065e-13
	-8.338854693306540e-11,3.516803371668065e-13
	8.338928851277963e-11,0.0
	-2.015777946319825e+02,0.0
	3.137375308821194e+00,0.0

 48	3.981071705534985e-03,0.000000000000000e+00
	1.000000000000000e+00,0.000000000000000e+00
	1.228487242775612e-10,4.987334709824142e-08
	-9.356342440075455e-11,4.061139667874043e-13
	-9.356342440075455e-11,4.061139667874043e-13
	9.356430576961352e-11,0.0
	-2.005777960089645e+02,0.0
	3.137252160293342e+00,0.0

 49	4.097321098135428e-03,0.000000000000000e+00
	1.000000000000000e+00,0.000000000000000e+00
	1.378385163783080e-10,5.437113636287434e-08
	-1.049798126001164e-10,4.689729079432511e-13
	-1.049798126001164e-10,4.689729079432511e-13
	1.049808601086119e-10,0.0
	-1.995777974675371e+02,0.0
	3.137125415778232e+00,0.0

 50	4.216965034285836e-03,0.000000000000000e+00
	1.000000000000000e+00,0.000000000000000e+00
	1.546573360942375e-10,5.927455442189632e-08
	-1.177891964727000e-10,5.415612395552151e-13
	-1.177891964727000e-10,5.415612395552151e-13
	1.177904414384313e-10,0.0
	-1.985777990125358e+02,0.0
	3.136994970272462e+00,0.0

 51	4.340102636447452e-03,0.000000000000000e+00
	1.000000000000000e+00,0.000000000000000e+00
	1.735283578603646e-10,6.462018238535758e-08
	-1.321615444889384e-10,6.253848867894213e-13
	-1.321615444889384e-10,6.253848867894213e-13
	1.321630241329180e-10,0.0
	-1.975778006490797e+02,0.0
	3.136860715706597e+00,0.0

 52	4.466835921509646e-03,0.000000000000000e+00
	1.000000000000000e+00,0.000000000000000e+00
	1.947019873815349e-10,7.044790036304768e-08
	-1.482875638986434e-10,7.221828628442265e-13
	-1.482875638986434e-10,7.221828628442265e-13
	1.482893224580976e-10,0.0
	-1.965778023825982e+02,0.0
	3.136722540855649e+00,0.0

 53	4.597269885308737e-03,0.000000000000000e+00
	1.000000000000000e+00,0.000000000000000e+00
	2.184591843259302e-10,7.680118497566739e-08
	-1.663812311488743e-10,8.339633463218059e-13
	-1.663812311488743e-10,8.339633463218059e-13
	1.663833211998070e-10,0.0
	-1.955778042188305e+02,0.0
	3.136580331246941e+00,0.0

 54	4.731512589614821e-03,0.000000000000000e+00
	1.000000000000000e+00,0.000000000000000e+00
	2.451151904426953e-10,8.372743369536705e-08
	-1.866826310406027e-10,9.630453426205428e-13
	-1.866826310406027e-10,9.630453426205428e-13
	1.866851150696642e-10,0.0
	-1.945778061638696e+02,0.0
	3.136433969065290e+00,0.0

 55	4.869675251658647e-03,0.000000000000000e+00
	1.000000000000000e+00,0.000000000000000e+00
	2.750237125749511e-10,9.127831843588337e-08
	-2.094611422943344e-10,1.112106793641166e-12
	-2.094611422943344e-10,1.112106793641166e-12
	2.094640945669874e-10,0.0
	-1.935778082241532e+02,0.0
	3.136283333055412e+00,0.0

 56	5.011872336272740e-03,0.000000000000000e+00
	1.000000000000000e+00,0.000000000000000e+00
	3.085816160688190e-10,9.951017102886972e-08
	-2.350190117865995e-10,1.284240133847729e-12
	-2.350190117865995e-10,1.284240133847729e-12
	2.350225205674366e-10,0.0
	-1.925778104065184e+02,0.0
	3.136128298421496e+00,0.0

 57	5.158221650723075e-03,0.000000000000000e+00
	1.000000000000000e+00,0.000000000000000e+00
	3.462341908597078e-10,1.084844034630265e-07
	-2.636953648802041e-10,1.483016445227515e-12
	-2.636953648802041e-10,1.483016445227515e-12
	2.636995350717949e-10,0.0
	-1.915778127181952e+02,0.0
	3.135968736723821e+00,0.0

 58	5.308844442309902e-03,0.000000000000000e+00
	1.000000000000000e+00,0.000000000000000e+00
	3.884810601069322e-10,1.182679660196507e-07
	-2.958707050513264e-10,1.712559542045991e-12
	-2.958707050513264e-10,1.712559542045991e-12
	2.958756613304887e-10,0.0
	-1.905778151668517e+02,0.0
	3.135804515772381e+00,0.0

 59	5.463865498818562e-03,0.000000000000000e+00
	1.000000000000000e+00,0.000000000000000e+00
	4.358828097820380e-10,1.289338467230540e-07
	-3.319719625124905e-10,1.977631522315563e-12
	-3.319719625124905e-10,1.977631522315563e-12
	3.319778530577491e-10,0.0
	-1.895778177605959e+02,0.0
	3.135635499517388e+00,0.0

 60	5.623413251903512e-03,0.000000000000000e+00
	1.000000000000000e+00,0.000000000000000e+00
	4.890684271736586e-10,1.405616158301660e-07
	-3.724781588078161e-10,2.283731560736909e-12
	-3.724781588078161e-10,2.283731560736909e-12
	3.724851597294880e-10,0.0
	-1.885778205080309e+02,0.0
	3.135461547936590e+00,0.0

 61	5.787619883491228e-03,0.000000000000000e+00
	1.000000000000000e+00,0.000000000000000e+00
	5.487436470147804e-10,1.532380194222412e-07
	-4.179267625347026e-10,2.637209992601529e-12
	-4.179267625347026e-10,2.637209992601529e-12
	4.179350831400527e-10,0.0
	-1.875778234182563e+02,0.0
	3.135282516919294e+00,0.0

 62	5.956621435290127e-03,0.000000000000000e+00
	1.000000000000000e+00,0.000000000000000e+00
	6.157003159697822e-10,1.670576265247552e-07
