Title: * sky130 bjt 3-stage ac response with 10 pf output load
Date: Fri May 22 19:48:04  2026
Command: ngspice-46, Build Mar 29 2026   15:02:07
Plotname: AC Analysis
Flags: complex
No. Variables: 11
No. Points: 301
Variables:
	0	frequency	frequency grid=3
	1	v(vin)	voltage
	2	v(b1_base)	voltage
	3	v(b1_collector)	voltage
	4	v(b2_collector)	voltage
	5	v(b3_collector)	voltage
	6	v(vout_final)	voltage
	7	gain	notype
	8	gain_vv	notype
	9	gain_db	decibel
	10	phase_deg	phase
Values:
 0	1.000000000000000e+00,0.000000000000000e+00
	1.000000000000000e+00,0.000000000000000e+00
	8.684736687845742e-01,3.381104152177277e-01
	-3.619509026654269e+00,-1.089982240277050e+00
	1.191270671064549e+01,7.887682592628512e+00
	-3.916720694803502e+01,-5.551524430298906e+01
	-3.916720694803502e+01,-5.551524430298906e+01
	-3.916720694803502e+01,-5.551524430298906e+01
	6.794124263016361e+01,0.0
	3.664266971511582e+01,0.0
	-2.185218493749668e+00,0.0

 1	1.047128548050900e+00,0.000000000000000e+00
	1.000000000000000e+00,0.000000000000000e+00
	8.786449663041039e-01,3.266696021587432e-01
	-3.646171257835145e+00,-1.048581947732188e+00
	1.219478078980796e+01,7.643854877629334e+00
	-4.191805148381061e+01,-5.460754782453496e+01
	-4.191805148381061e+01,-5.460754782453496e+01
	-4.191805148381061e+01,-5.460754782453496e+01
	6.884117459492009e+01,0.0
	3.675696543640514e+01,0.0
	-2.225481564095696e+00,0.0

 2	1.096478196143185e+00,0.000000000000000e+00
	1.000000000000000e+00,0.000000000000000e+00
	8.881308073177424e-01,3.153306118670380e-01
	-3.670831395438073e+00,-1.008151126270766e+00
	1.245819328005144e+01,7.398711281457096e+00
	-4.453987154379415e+01,-5.358606365273363e+01
	-4.453987154379415e+01,-5.358606365273363e+01
	-4.453987154379415e+01,-5.358606365273363e+01
	6.967974149587887e+01,0.0
	3.686213061636366e+01,0.0
	-2.264264723090875e+00,0.0

 3	1.148153621496883e+00,0.000000000000000e+00
	1.000000000000000e+00,0.000000000000000e+00
	8.969619537259260e-01,3.041288258718816e-01
	-3.693613572272537e+00,-9.687436319883914e-01
	1.270369724382148e+01,7.153518324712750e+00
	-4.702950658024877e+01,-5.246720231934155e+01
	-4.702950658024877e+01,-5.246720231934155e+01
	-4.702950658024877e+01,-5.246720231934155e+01
	7.045978859179455e+01,0.0
	3.695882671571946e+01,0.0
	-2.301596789091148e+00,0.0

 4	1.202264434617413e+00,0.000000000000000e+00
	1.000000000000000e+00,0.000000000000000e+00
	9.051702388783216e-01,2.930951480616248e-01
	-3.714638460880777e+00,-9.304015978989344e-01
	1.293209728631951e+01,6.909396433255754e+00
	-4.938561088753117e+01,-5.126654209557591e+01
	-4.938561088753117e+01,-5.126654209557591e+01
	-4.938561088753117e+01,-5.126654209557591e+01
	7.118424615862764e+01,0.0
	3.704767780436529e+01,0.0
	-2.337509223708250e+00,0.0

 5	1.258925411794168e+00,0.000000000000000e+00
	1.000000000000000e+00,0.000000000000000e+00
	9.127880761495025e-01,2.822562234504042e-01
	-3.734022601323191e+00,-8.931565852604364e-01
	1.314423181143142e+01,6.667327041730807e+00
	-5.160840528866656e+01,-4.999869429500080e+01
	-5.160840528866656e+01,-4.999869429500080e+01
	-5.160840528866656e+01,-4.999869429500080e+01
	7.185608483381357e+01,0.0
	3.712927100900298e+01,0.0
	-2.372035670084795e+00,0.0

 6	1.318256738556407e+00,0.000000000000000e+00
	1.000000000000000e+00,0.000000000000000e+00
	9.198480331709349e-01,2.716346923693088e-01
	-3.751877894448247e+00,-8.570306968590351e-01
	1.334095775674361e+01,6.428160909090098e+00
	-5.369943708863452e+01,-4.867721395556079e+01
	-5.369943708863452e+01,-4.867721395556079e+01
	-5.369943708863452e+01,-4.867721395556079e+01
	7.247827744994812e+01,0.0
	3.720415726322281e+01,0.0
	-2.405211528638953e+00,0.0

 7	1.380384264602885e+00,0.000000000000000e+00
	1.000000000000000e+00,0.000000000000000e+00
	9.263824695201024e-01,2.612494683431101e-01
	-3.768311239618370e+00,-8.220376385889818e-01
	1.352313767163707e+01,6.192627214658493e+00
	-5.566135365216994e+01,-4.731454937302924e+01
	-5.566135365216994e+01,-4.731454937302924e+01
	-5.566135365216994e+01,-4.731454937302924e+01
	7.305376699914081e+01,0.0
	3.727285230267115e+01,0.0
	-2.437073570566882e+00,0.0

 8	1.445439770745928e+00,0.000000000000000e+00
	1.000000000000000e+00,0.000000000000000e+00
	9.324232343035345e-01,2.511160295733307e-01
	-3.783424296741657e+00,-7.881837197406294e-01
	1.369162896386056e+01,5.961343076157122e+00
	-5.749769325563521e+01,-4.592202402259591e+01
	-5.749769325563521e+01,-4.592202402259591e+01
	-5.749769325563521e+01,-4.592202402259591e+01
	7.358544027218288e+01,0.0
	3.733583785333485e+01,0.0
	-2.467659588618952e+00,0.0

 9	1.513561248436209e+00,0.000000000000000e+00
	1.000000000000000e+00,0.000000000000000e+00
	9.380014191348918e-01,2.412467155970666e-01
	-3.797313353728586e+00,-7.554687858296441e-01
	1.384727511709729e+01,5.734823198962316e+00
	-5.921269542067847e+01,-4.450984473739408e+01
	-5.921269542067847e+01,-4.450984473739408e+01
	-5.921269542067847e+01,-4.450984473739408e+01
	7.407610665747063e+01,0.0
	3.739356296656328e+01,0.0
	-2.497008084058194e+00,0.0

 10	1.584893192461114e+00,0.000000000000000e+00
	1.000000000000000e+00,0.000000000000000e+00
	9.431471614380299e-01,2.316510222602288e-01
	-3.810069282041379e+00,-7.238870806146018e-01
	1.399089867174859e+01,5.513489427182207e+00
	-6.081113176440387e+01,-4.308713052260361e+01
	-6.081113176440387e+01,-4.308713052260361e+01
	-6.081113176440387e+01,-4.308713052260361e+01
	7.452848155664765e+01,0.0
	3.744644546008421e+01,0.0
	-2.525157988248896e+00,0.0

 11	1.659586907437562e+00,0.000000000000000e+00
	1.000000000000000e+00,0.000000000000000e+00
	9.478894927318411e-01,2.223358895884502e-01
	-3.821777564662410e+00,-6.934280362051956e-01
	1.412329576032375e+01,5.297680021049590e+00
	-6.229815748147450e+01,-4.166195699667869e+01
	-6.229815748147450e+01,-4.166195699667869e+01
	-6.229815748147450e+01,-4.166195699667869e+01
	7.494517386983435e+01,0.0
	3.749487342969432e+01,0.0
	-2.552148416989974e+00,0.0

 12	1.737800828749376e+00,0.000000000000000e+00
	1.000000000000000e+00,0.000000000000000e+00
	9.522562265167083e-01,2.133059784295246e-01
	-3.832518382539584e+00,-6.640769919291468e-01
	1.424523199516876e+01,5.087658531487660e+00
	-6.367918288361004e+01,-4.024141210910734e+01
	-6.367918288361004e+01,-4.024141210910734e+01
	-6.367918288361004e+01,-4.024141210910734e+01
	7.532867701784802e+01,0.0
	3.753920680148757e+01,0.0
	-2.578018455487629e+00,0.0

 13	1.819700858609985e+00,0.000000000000000e+00
	1.000000000000000e+00,0.000000000000000e+00
	9.562738805226169e-01,2.045639328683204e-01
	-3.842366747248609e+00,-6.358158439629994e-01
	1.435743951738129e+01,4.883622181749464e+00
	-6.495976392980991e+01,-3.883165944329376e+01
	-6.495976392980991e+01,-3.883165944329376e+01
	-6.495976392980991e+01,-3.883165944329376e+01
	7.568136299602814e+01,0.0
	3.757977889924986e+01,0.0
	-2.602806971729372e+00,0.0

 14	1.905460717963249e+00,0.000000000000000e+00
	1.000000000000000e+00,0.000000000000000e+00
	9.599676283480810e-01,1.961106263737522e-01
	-3.851392669243110e+00,-6.086236287100406e-01
	1.446061503011089e+01,4.685709698182749e+00
	-6.614551035500867e+01,-3.743800604313255e+01
	-6.614551035500867e+01,-3.743800604313255e+01
	-6.614551035500867e+01,-3.743800604313255e+01
	7.600547899072927e+01,0.0
	3.761689800605608e+01,0.0
	-2.626552455967068e+00,0.0

 15	1.995262314968881e+00,0.000000000000000e+00
	1.000000000000000e+00,0.000000000000000e+00
	9.633612758736296e-01,1.879453904362636e-01
	-3.859661352569953e+00,-5.824770435816435e-01
	1.455541865551211e+01,4.494008558150854e+00
	-6.724200981280218e+01,-3.606497228218983e+01
	-6.724200981280218e+01,-3.606497228218983e+01
	-6.724200981280218e+01,-3.606497228218983e+01
	7.630314613028814e+01,0.0
	3.765084890296511e+01,0.0
	-2.649292884019880e+00,0.0

 16	2.089296130854041e+00,0.000000000000000e+00
	1.000000000000000e+00,0.000000000000000e+00
	9.664772582396964e-01,1.800662251041004e-01
	-3.867233408326835e+00,-5.573509092686622e-01
	1.464247347147797e+01,4.308561643663554e+00
	-6.825476636222751e+01,-3.471636181463376e+01
	-6.825476636222751e+01,-3.471636181463376e+01
	-6.825476636222751e+01,-3.471636181463376e+01
	7.657635998666184e+01,0.0
	3.768189437126541e+01,0.0
	-2.671065602158870e+00,0.0

 17	2.187761623949555e+00,0.000000000000000e+00
	1.000000000000000e+00,0.000000000000000e+00
	9.693366536083796e-01,1.724699913442282e-01
	-3.874165080381015e+00,-5.332185778282611e-01
	1.472236560098068e+01,4.129373305055628e+00
	-6.918915162111030e+01,-3.339533010106840e+01
	-6.918915162111030e+01,-3.339533010106840e+01
	-6.918915162111030e+01,-3.339533010106840e+01
	7.682699248707003e+01,0.0
	3.771027664766527e+01,0.0
	-2.691907231416898e+00,0.0

 18	2.290867652767775e+00,0.000000000000000e+00
	1.000000000000000e+00,0.000000000000000e+00
	9.719592103632473e-01,1.651525855498384e-01
	-3.880508477996409e+00,-5.100522909800167e-01
	1.479564474304509e+01,3.956414850851275e+00
	-7.005036696030112e+01,-3.210445039088396e+01
	-7.005036696030112e+01,-3.210445039088396e+01
	-7.005036696030112e+01,-3.210445039088396e+01
	7.705679493836722e+01,0.0
	3.773621882452103e+01,0.0
	-2.711853589280094e+00,0.0

 19	2.398832919019493e+00,0.000000000000000e+00
	1.000000000000000e+00,0.000000000000000e+00
	9.743633848217010e-01,1.581090968178387e-01
	-3.886311810997050e+00,-4.878234929834754e-01
	1.486282504955744e+01,3.789629488485637e+00
	-7.084341520349366e+01,-3.084577636828641e+01
	-7.084341520349366e+01,-3.084577636828641e+01
	-7.084341520349366e+01,-3.084577636828641e+01
	7.726740190699395e+01,0.0
	3.775992618940018e+01,0.0
	-2.730939626837829e+00,0.0

 20	2.511886431509583e+00,0.000000000000000e+00
	1.000000000000000e+00,0.000000000000000e+00
	9.765663869350969e-01,1.513339478298450e-01
	-3.891619623938528e+00,-4.665031023304040e-01
	1.492438626600519e+01,3.628936746291284e+00
	-7.157308041322592e+01,-2.962090093627282e+01
	-7.157308041322592e+01,-2.962090093627282e+01
	-7.157308041322592e+01,-2.962090093627282e+01
	7.746033573458477e+01,0.0
	3.778158750013827e+01,0.0
	-2.749199379606122e+00,0.0

 21	2.630267991895385e+00,0.000000000000000e+00
	1.000000000000000e+00,0.000000000000000e+00
	9.785842318213015e-01,1.448210203153957e-01
	-3.896473026512599e+00,-4.460617463097394e-01
	1.498077506702101e+01,3.474236410846430e+00
	-7.224391447407626e+01,-2.843101082864115e+01
	-7.224391447407626e+01,-2.843101082864115e+01
	-7.224391447407626e+01,-2.843101082864115e+01
	7.763701150402402e+01,0.0
	3.780137619319019e+01,0.0
	-2.766665930377098e+00,0.0

 22	2.754228703338170e+00,0.000000000000000e+00
	1.000000000000000e+00,0.000000000000000e+00
	9.804317953120768e-01,1.385637661615498e-01
	-3.900909918023702e+00,-4.264699622703745e-01
	1.503240652878037e+01,3.325412015639674e+00
	-7.286022931865823e+01,-2.727693690982672e+01
	-7.286022931865823e+01,-2.727693690982672e+01
	-7.286022931865823e+01,-2.727693690982672e+01
	7.779874230056764e+01,0.0
	3.781945152428263e+01,0.0
	-2.783371382587027e+00,0.0

 23	2.884031503126609e+00,0.000000000000000e+00
	1.000000000000000e+00,0.000000000000000e+00
	9.821228720002930e-01,1.325553052747908e-01
	-3.904965204310575e+00,-4.076983691522730e-01
	1.507966569034106e+01,3.182333917649020e+00
	-7.342609377684788e+01,-2.615920015370861e+01
	-7.342609377684788e+01,-2.615920015370861e+01
	-7.342609377684788e+01,-2.615920015370861e+01
	7.794674464022373e+01,0.0
	3.783595964147614e+01,0.0
	-2.799346842831963e+00,0.0

 24	3.019951720402020e+00,0.000000000000000e+00
	1.000000000000000e+00,0.000000000000000e+00
	9.836702345398164e-01,1.267885113087415e-01
	-3.908671005934005e+00,-3.897178125960896e-01
	1.512290916470647e+01,3.044861998039733e+00
	-7.394533415773996e+01,-2.507805339087784e+01
	-7.394533415773996e+01,-2.507805339087784e+01
	-7.394533415773996e+01,-2.507805339087784e+01
	7.808214396118709e+01,0.0
	3.785103459156660e+01,0.0
	-2.814622411291574e+00,0.0

 25	3.162277660168384e+00,0.000000000000000e+00
	1.000000000000000e+00,0.000000000000000e+00
	9.850856931860790e-01,1.212560863503370e-01
	-3.912056856814103e+00,-3.724994866634956e-01
	1.516246676790520e+01,2.912848022061139e+00
	-7.442153779490469e+01,-2.403351898510411e+01
	-7.442153779490469e+01,-2.403351898510411e+01
	-7.442153779490469e+01,-2.403351898510411e+01
	7.820598009465637e+01,0.0
	3.786479926140471e+01,0.0
	-2.829227178947571e+00,0.0

 26	3.311311214825916e+00,0.000000000000000e+00
	1.000000000000000e+00,0.000000000000000e+00
	9.863801547681963e-01,1.159506256199131e-01
	-3.915149892801608e+00,-3.560150349390538e-01
	1.519864314080719e+01,2.786137691635025e+00
	-7.485805889649228e+01,-2.302542264907763e+01
	-7.485805889649228e+01,-2.302542264907763e+01
	-7.485805889649228e+01,-2.302542264907763e+01
	7.831921264874516e+01,0.0
	3.787736625618149e+01,0.0
	-2.843189230598801e+00,0.0

 27	3.467368504525322e+00,0.000000000000000e+00
	1.000000000000000e+00,0.000000000000000e+00
	9.875636804581910e-01,1.108646731875020e-01
	-3.917975029920576e+00,-3.402366335248025e-01
	1.523171934392826e+01,2.664572422164393e+00
	-7.525802614293701e+01,-2.205342364120646e+01
	-7.525802614293701e+01,-2.205342364120646e+01
	-7.525802614293701e+01,-2.205342364120646e+01
	7.842272625476313e+01,0.0
	3.788883871715666e+01,0.0
	-2.856535652786237e+00,0.0

 28	3.630780547701019e+00,0.000000000000000e+00
	1.000000000000000e+00,0.000000000000000e+00
	9.886455418507928e-01,1.059907696475641e-01
	-3.920555132202907e+00,-3.251370581925705e-01
	1.526195440999721e+01,2.547990872954403e+00
	-7.562435156399516e+01,-2.111704160297262e+01
	-7.562435156399516e+01,-2.111704160297262e+01
	-7.562435156399516e+01,-2.111704160297262e+01
	7.851733563701977e+01,0.0
	3.789931108148031e+01,0.0
	-2.869292545839776e+00,0.0

 29	3.801893963205618e+00,0.000000000000000e+00
	1.000000000000000e+00,0.000000000000000e+00
	9.896342749919875e-01,1.013214926282067e-01
	-3.922911169203775e+00,-3.106897377295751e-01
	1.528958684300319e+01,2.436230258400903e+00
	-7.595974030668965e+01,-2.021568030363680e+01
	-7.595974030668965e+01,-2.021568030363680e+01
	-7.595974030668965e+01,-2.021568030363680e+01
	7.860379047856777e+01,0.0
	3.790886978700533e+01,0.0
	-2.881485039352081e+00,0.0

 30	3.981071705534979e+00,0.000000000000000e+00
	1.000000000000000e+00,0.000000000000000e+00
	9.905377320983908e-01,9.684949094285933e-02
	-3.925062363395035e+00,-2.968687952955738e-01
	1.531483605555201e+01,2.329127464841669e+00
	-7.626670097423906e+01,-1.934864855808022e+01
	-7.626670097423906e+01,-1.934864855808022e+01
	-7.626670097423906e+01,-1.934864855808022e+01
	7.868278006348083e+01,0.0
	3.791759392502203e+01,0.0
	-2.893137310467736e+00,0.0

 31	4.168693834703362e+00,0.000000000000000e+00
	1.000000000000000e+00,0.000000000000000e+00
	9.913631307952014e-01,9.256751312426893e-02
	-3.927026327735068e+00,-2.836490794139896e-01
	1.533790373902052e+01,2.226519995748819e+00
	-7.654755627594457e+01,-1.851517857683793e+01
	-7.654755627594457e+01,-1.851517857683793e+01
	-7.654755627594457e+01,-1.851517857683793e+01
	7.875493768362146e+01,0.0
	3.792555584390578e+01,0.0
	-2.904272604452203e+00,0.0

 32	4.365158322401668e+00,0.000000000000000e+00
	1.000000000000000e+00,0.000000000000000e+00
	9.921171007705448e-01,8.846843101399156e-02
	-3.928819193768895e+00,-2.710061860348255e-01
	1.535897516310399e+01,2.128246765817161e+00
	-7.680445377907728e+01,-1.771444199647103e+01
	-7.680445377907728e+01,-1.771444199647103e+01
	-7.680445377907728e+01,-1.771444199647103e+01
	7.882084480357182e+01,0.0
	3.793282170664937e+01,0.0
	-2.914913257072774e+00,0.0

 33	4.570881896148760e+00,0.000000000000000e+00
	1.000000000000000e+00,0.000000000000000e+00
	9.928057278005091e-01,8.454525901653297e-02
	-3.930455730673701e+00,-2.589164729447284e-01
	1.537822040308063e+01,2.034148762468628e+00
	-7.703937659738423e+01,-1.694556382470725e+01
	-7.703937659738423e+01,-1.694556382470725e+01
	-7.703937659738423e+01,-1.694556382470725e+01
	7.888103498212242e+01,0.0
	3.793945200521376e+01,0.0
	-2.925080718385310e+00,0.0

 34	4.786300923226394e+00,0.000000000000000e+00
	1.000000000000000e+00,0.000000000000000e+00
	9.934345951442244e-01,8.079116956647639e-02
	-3.931949455685183e+00,-2.473570676466827e-01
	1.539579549447129e+01,1.944069591403153e+00
	-7.725415388742708e+01,-1.620763451936907e+01
	-7.725415388742708e+01,-1.620763451936907e+01
	-7.725415388742708e+01,-1.620763451936907e+01
	7.893599755229364e+01,0.0
	3.794550203454666e+01,0.0
	-2.934795577574961e+00,0.0

 35	5.011872336272734e+00,0.000000000000000e+00
	1.000000000000000e+00,0.000000000000000e+00
	9.940088223436101e-01,7.719950530024944e-02
	-3.933312736359579e+00,-2.363058696979995e-01
	1.541184351579409e+01,1.857855921055466e+00
	-7.745047105438711e+01,-1.549972040378315e+01
	-7.745047105438711e+01,-1.549972040378315e+01
	-7.745047105438711e+01,-1.549972040378315e+01
	7.898618106442359e+01,0.0
	3.795102232899171e+01,0.0
	-2.944077588547497e+00,0.0

 36	5.248074602497739e+00,0.000000000000000e+00
	1.000000000000000e+00,0.000000000000000e+00
	9.945331014895290e-01,7.376378837165706e-02
	-3.934556885141329e+00,-2.257415483749952e-01
	1.542649560101308e+01,1.775357839208359e+00
	-7.762987959498254e+01,-1.482087260495243e+01
	-7.762987959498254e+01,-1.482087260495243e+01
	-7.762987959498254e+01,-1.482087260495243e+01
	7.903199649954261e+01,0.0
	3.795605906375791e+01,0.0
	-2.952945696011019e+00,0.0

 37	5.495408738576259e+00,0.000000000000000e+00
	1.000000000000000e+00,0.000000000000000e+00
	9.950117310365090e-01,7.047772730143978e-02
	-3.935692246697416e+00,-2.156435364216309e-01
	1.543987188381077e+01,1.696429133517071e+00
	-7.779380652562457e+01,-1.417013468433360e+01
	-7.779380652562457e+01,-1.417013468433360e+01
	-7.779380652562457e+01,-1.417013468433360e+01
	7.907382026131319e+01,0.0
	3.796065442394016e+01,0.0
	-2.961418061825912e+00,0.0

 38	5.754399373371584e+00,0.000000000000000e+00
	1.000000000000000e+00,0.000000000000000e+00
	9.954486472628506e-01,6.733522170732924e-02
	-3.936728278478316e+00,-2.059920205457085e-01
	1.545208237630802e+01,1.620927506360527e+00
	-7.794356336126293e+01,-1.354654911534498e+01
	-7.794356336126293e+01,-1.354654911534498e+01
	-7.794356336126293e+01,-1.354654911534498e+01
	7.911199695612331e+01,0.0
	3.796484694347367e+01,0.0
	-2.969512091434263e+00,0.0

 39	6.025595860743593e+00,0.000000000000000e+00
	1.000000000000000e+00,0.000000000000000e+00
	9.958474534831556e-01,6.433036522052656e-02
	-3.937673624950081e+00,-1.967679292380954e-01
	1.546322778515369e+01,1.548714733213268e+00
	-7.808035462431098e+01,-1.294916274673273e+01
	-7.808035462431098e+01,-1.294916274673273e+01
	-7.808035462431098e+01,-1.294916274673273e+01
	7.914684197173968e+01,0.0
	3.796867181628358e+01,0.0
	-2.977244460209361e+00,0.0

 40	6.309573444801949e+00,0.000000000000000e+00
	1.000000000000000e+00,0.000000000000000e+00
	9.962114471267217e-01,6.145744685821105e-02
	-3.938536185933896e+00,-1.879529184152868e-01
	1.547340026809781e+01,1.479656772633445e+00
	-7.820528587393009e+01,-1.237703137675743e+01
	-7.820528587393009e+01,-1.237703137675743e+01
	-7.820528587393009e+01,-1.237703137675743e+01
	7.917864386515070e+01,0.0
	3.797216118173481e+01,0.0
	-2.984631139591911e+00,0.0

 41	6.606934480075978e+00,0.000000000000000e+00
	1.000000000000000e+00,0.000000000000000e+00
	9.965436447986664e-01,5.871095108910255e-02
	-3.939323179457717e+00,-1.795293553178926e-01
	1.548268413425408e+01,1.413623834979615e+00
	-7.831937125470755e+01,-1.182922355007867e+01
	-7.831937125470755e+01,-1.182922355007867e+01
	-7.831937125470755e+01,-1.182922355007867e+01
	7.920766657041759e+01,0.0
	3.797534438635742e+01,0.0
	-2.991687422901762e+00,0.0

 42	6.918309709189384e+00,0.000000000000000e+00
	1.000000000000000e+00,0.000000000000000e+00
	9.968468054417073e-01,5.608555679977587e-02
	-3.940041199527298e+00,-1.714803010396961e-01
	1.549115649137565e+01,1.350490416094779e+00
	-7.842354057093479e+01,-1.130482367714509e+01
	-7.842354057093479e+01,-1.130482367714509e+01
	-7.842354057093479e+01,-1.130482367714509e+01
	7.923415143770012e+01,0.0
	3.797824822373229e+01,0.0
	-2.998427950733921e+00,0.0

