Title: * sky130 bjt 3-stage high-cutoff sweep ac candidate: ch=30p
Date: Fri May 22 19:48:05  2026
Command: ngspice-46, Build Mar 29 2026   15:02:07
Plotname: AC Analysis
Flags: complex
No. Variables: 7
No. Points: 481
Variables:
	0	frequency	frequency grid=3
	1	v(vin)	voltage
	2	v(vout_final)	voltage
	3	gain	notype
	4	gain_vv	notype
	5	gain_db	decibel
	6	phase_deg	phase
Values:
 0	1.000000000000000e+00,0.000000000000000e+00
	1.000000000000000e+00,0.000000000000000e+00
	-3.917033549737312e+01,-5.551280669588436e+01
	-3.917033549737312e+01,-5.551280669588436e+01
	6.794105452693087e+01,0.0
	3.664264566718678e+01,0.0
	-2.185276803208535e+00,0.0

 1	1.029200527194428e+00,0.000000000000000e+00
	1.000000000000000e+00,0.000000000000000e+00
	-4.090455391395473e+01,-5.495956703436534e+01
	-4.090455391395473e+01,-5.495956703436534e+01
	6.851084979406201e+01,0.0
	3.671518708899021e+01,0.0
	-2.210617760629929e+00,0.0

 2	1.059253725177289e+00,0.000000000000000e+00
	1.000000000000000e+00,0.000000000000000e+00
	-4.258899309813049e+01,-5.435941219320463e+01
	-4.258899309813049e+01,-5.435941219320463e+01
	6.905626710953416e+01,0.0
	3.678406197040859e+01,0.0
	-2.235376694877720e+00,0.0

 3	1.090184492385128e+00,0.000000000000000e+00
	1.000000000000000e+00,0.000000000000000e+00
	-4.422260999715179e+01,-5.371644785521505e+01
	-4.422260999715179e+01,-5.371644785521505e+01
	6.957798506095320e+01,0.0
	3.684943695342825e+01,0.0
	-2.259560236881063e+00,0.0

 4	1.122018454301964e+00,0.000000000000000e+00
	1.000000000000000e+00,0.000000000000000e+00
	-4.580466715998239e+01,-5.303467236825305e+01
	-4.580466715998239e+01,-5.303467236825305e+01
	7.007670088442173e+01,0.0
	3.691147295297871e+01,0.0
	-2.283175476884099e+00,0.0

 5	1.154781984689459e+00,0.000000000000000e+00
	1.000000000000000e+00,0.000000000000000e+00
	-4.733470883321535e+01,-5.231795936977547e+01
	-4.733470883321535e+01,-5.231795936977547e+01
	7.055312560718166e+01,0.0
	3.697032516801087e+01,0.0
	-2.306229917142058e+00,0.0

 6	1.188502227437019e+00,0.000000000000000e+00
	1.000000000000000e+00,0.000000000000000e+00
	-4.881253707062709e+01,-5.157004353832652e+01
	-4.881253707062709e+01,-5.157004353832652e+01
	7.100797959255168e+01,0.0
	3.702614311474393e+01,0.0
	-2.328731426772957e+00,0.0

 7	1.223207119049932e+00,0.000000000000000e+00
	1.000000000000000e+00,0.000000000000000e+00
	-5.023818815188031e+01,-5.079450924393956e+01
	-5.023818815188031e+01,-5.079450924393956e+01
	7.144198848097936e+01,0.0
	3.707907067973138e+01,0.0
	-2.350688198823555e+00,0.0

 8	1.258925411794168e+00,0.000000000000000e+00
	1.000000000000000e+00,0.000000000000000e+00
	-5.161190955742289e+01,-4.999478185731599e+01
	-5.161190955742289e+01,-4.999478185731599e+01
	7.185587951673971e+01,0.0
	3.712924619045079e+01,0.0
	-2.372108709581685e+00,0.0

 9	1.295686697517020e+00,0.000000000000000e+00
	1.000000000000000e+00,0.000000000000000e+00
	-5.293413770198368e+01,-4.917412147248034e+01
	-5.293413770198368e+01,-4.917412147248034e+01
	7.225037824705710e+01,0.0
	3.717680250128581e+01,0.0
	-2.393001680146848e+00,0.0

 10	1.333521432163325e+00,0.000000000000000e+00
	1.000000000000000e+00,0.000000000000000e+00
	-5.420547658755374e+01,-4.833561879750161e+01
	-5.420547658755374e+01,-4.833561879750161e+01
	7.262620557774740e+01,0.0
	3.722186709286759e+01,0.0
	-2.413376040252657e+00,0.0

 11	1.372460961007563e+00,0.000000000000000e+00
	1.000000000000000e+00,0.000000000000000e+00
	-5.542667749897458e+01,-4.748219297257180e+01
	-5.542667749897458e+01,-4.748219297257180e+01
	7.298407516753146e+01,0.0
	3.726456218286378e+01,0.0
	-2.433240894315182e+00,0.0

 12	1.412537544622755e+00,0.000000000000000e+00
	1.000000000000000e+00,0.000000000000000e+00
	-5.659861983222372e+01,-4.661659108289960e+01
	-5.659861983222372e+01,-4.661659108289960e+01
	7.332469114222619e+01,0.0
	3.730500484648259e+01,0.0
	-2.452605489672164e+00,0.0

 13	1.453784385607663e+00,0.000000000000000e+00
	1.000000000000000e+00,0.000000000000000e+00
	-5.772229311510472e+01,-4.574138914460207e+01
	-5.772229311510472e+01,-4.574138914460207e+01
	7.364874610843003e+01,0.0
	3.734330714500535e+01,0.0
	-2.471479186960845e+00,0.0

 14	1.496235656094435e+00,0.000000000000000e+00
	1.000000000000000e+00,0.000000000000000e+00
	-5.879878025519103e+01,-4.485899435513583e+01
	-5.879878025519103e+01,-4.485899435513583e+01
	7.395691944674516e+01,0.0
	3.737957626089936e+01,0.0
	-2.489871432575832e+00,0.0

 15	1.539926526059493e+00,0.000000000000000e+00
	1.000000000000000e+00,0.000000000000000e+00
	-5.982924202718722e+01,-4.397164841356675e+01
	-5.982924202718722e+01,-4.397164841356675e+01
	7.424987586356002e+01,0.0
	3.741391463808373e+01,0.0
	-2.507791733140213e+00,0.0

 16	1.584893192461115e+00,0.000000000000000e+00
	1.000000000000000e+00,0.000000000000000e+00
	-6.081490279386581e+01,-4.308143173180323e+01
	-6.081490279386581e+01,-4.308143173180323e+01
	7.452826418137866e+01,0.0
	3.744642012614058e+01,0.0
	-2.525249631914490e+00,0.0

 17	1.631172909227840e+00,0.000000000000000e+00
	1.000000000000000e+00,0.000000000000000e+00
	-6.175703743903142e+01,-4.219026837289571e+01
	-6.175703743903142e+01,-4.219026837289571e+01
	7.479271634740172e+01,0.0
	3.747718612730198e+01,0.0
	-2.542254687065931e+00,0.0

 18	1.678804018122562e+00,0.000000000000000e+00
	1.000000000000000e+00,0.000000000000000e+00
	-6.265695947896227e+01,-4.129993156854873e+01
	-6.265695947896227e+01,-4.129993156854873e+01
	7.504384664124785e+01,0.0
	3.750630174522704e+01,0.0
	-2.558816451715585e+00,0.0

 19	1.727825980507865e+00,0.000000000000000e+00
	1.000000000000000e+00,0.000000000000000e+00
	-6.351601030864065e+01,-4.041204968295863e+01
	-6.351601030864065e+01,-4.041204968295863e+01
	7.528225106295150e+01,0.0
	3.753385193463317e+01,0.0
	-2.574944455678335e+00,0.0

 20	1.778279410038925e+00,0.000000000000000e+00
	1.000000000000000e+00,0.000000000000000e+00
	-6.433554953198062e+01,-3.952811250498032e+01
	-6.433554953198062e+01,-3.952811250498032e+01
	7.550850688358440e+01,0.0
	3.755991765098853e+01,0.0
	-2.590648188811369e+00,0.0

 21	1.830206106311058e+00,0.000000000000000e+00
	1.000000000000000e+00,0.000000000000000e+00
	-6.511694631959918e+01,-3.864947776466769e+01
	-6.511694631959918e+01,-3.864947776466769e+01
	7.572317234156995e+01,0.0
	3.758457599954328e+01,0.0
	-2.605937085884301e+00,0.0

 22	1.883649089489803e+00,0.000000000000000e+00
	1.000000000000000e+00,0.000000000000000e+00
	-6.586157173422338e+01,-3.777737778356730e+01
	-6.586157173422338e+01,-3.777737778356730e+01
	7.592678646897033e+01,0.0
	3.760790038309045e+01,0.0
	-2.620820512884860e+00,0.0

 23	1.938652635952210e+00,0.000000000000000e+00
	1.000000000000000e+00,0.000000000000000e+00
	-6.657079196153711e+01,-3.691292618010941e+01
	-6.657079196153711e+01,-3.691292618010941e+01
	7.611986903275951e+01,0.0
	3.762996064789640e+01,0.0
	-2.635307754678174e+00,0.0

 24	1.995262314968882e+00,0.000000000000000e+00
	1.000000000000000e+00,0.000000000000000e+00
	-6.724596238330220e+01,-3.605712456329122e+01
	-6.724596238330220e+01,-3.605712456329122e+01
	7.630292057732255e+01,0.0
	3.765082322733885e+01,0.0
	-2.649408003933393e+00,0.0

 25	2.053525026457149e+00,0.000000000000000e+00
	1.000000000000000e+00,0.000000000000000e+00
	-6.788842243006893e+01,-3.521086915780509e+01
	-6.788842243006893e+01,-3.521086915780509e+01
	7.647642255552725e+01,0.0
	3.767055128286814e+01,0.0
	-2.663130351240445e+00,0.0

 26	2.113489039836650e+00,0.000000000000000e+00
	1.000000000000000e+00,0.000000000000000e+00
	-6.849949115133862e+01,-3.437495731345667e+01
	-6.849949115133862e+01,-3.437495731345667e+01
	7.664083753648760e+01,0.0
	3.768920484194407e+01,0.0
	-2.676483776336112e+00,0.0

 27	2.175204034019526e+00,0.000000000000000e+00
	1.000000000000000e+00,0.000000000000000e+00
	-6.908046344293486e+01,-3.355009385996681e+01
	-6.908046344293486e+01,-3.355009385996681e+01
	7.679660947921622e+01,0.0
	3.770684093266896e+01,0.0
	-2.689477140365399e+00,0.0

 28	2.238721138568343e+00,0.000000000000000e+00
	1.000000000000000e+00,0.000000000000000e+00
	-6.963260687363261e+01,-3.273689727600401e+01
	-6.963260687363261e+01,-3.273689727600401e+01
	7.694416406250383e+01,0.0
	3.772351371491179e+01,0.0
	-2.702119179105353e+00,0.0

 29	2.304092976055850e+00,0.000000000000000e+00
	1.000000000000000e+00,0.000000000000000e+00
	-7.015715905534677e+01,-3.193590564785212e+01
	-7.015715905534677e+01,-3.193590564785212e+01
	7.708390906191602e+01,0.0
	3.773927460772553e+01,0.0
	-2.714418497081209e+00,0.0

 30	2.371373705661660e+00,0.000000000000000e+00
	1.000000000000000e+00,0.000000000000000e+00
	-7.065532550431867e+01,-3.114758239896467e+01
	-7.065532550431867e+01,-3.114758239896467e+01
	7.721623476589309e+01,0.0
	3.775417241292882e+01,0.0
	-2.726383562510042e+00,0.0

 31	2.440619068041985e+00,0.000000000000000e+00
	1.000000000000000e+00,0.000000000000000e+00
	-7.112827794365022e+01,-3.037232177699525e+01
	-7.112827794365022e+01,-3.037232177699525e+01
	7.734151442372006e+01,0.0
	3.776825343475790e+01,0.0
	-2.738022703007116e+00,0.0

 32	2.511886431509585e+00,0.000000000000000e+00
	1.000000000000000e+00,0.000000000000000e+00
	-7.157715300067740e+01,-2.961045408903240e+01
	-7.157715300067740e+01,-2.961045408903240e+01
	7.746010471875879e+01,0.0
	3.778156159551312e+01,0.0
	-2.749344101996928e+00,0.0

 33	2.585234839562196e+00,0.000000000000000e+00
	1.000000000000000e+00,0.000000000000000e+00
	-7.200305125593384e+01,-2.886225067985863e+01
	-7.200305125593384e+01,-2.886225067985863e+01
	7.757234626122658e+01,0.0
	3.779413854717524e+01,0.0
	-2.760355795771274e+00,0.0

 34	2.660725059798815e+00,0.000000000000000e+00
	1.000000000000000e+00,0.000000000000000e+00
	-7.240703660348061e+01,-2.812792865107188e+01
	-7.240703660348061e+01,-2.812792865107188e+01
	7.767856409523525e+01,0.0
	3.780602377896715e+01,0.0
	-2.771065671141665e+00,0.0

 35	2.738419634264367e+00,0.000000000000000e+00
	1.000000000000000e+00,0.000000000000000e+00
	-7.279013588571824e+01,-2.740765532177779e+01
	-7.279013588571824e+01,-2.740765532177779e+01
	7.777906821567549e+01,0.0
	3.781725472088956e+01,0.0
	-2.781481463636034e+00,0.0

 36	2.818382931264460e+00,0.000000000000000e+00
	1.000000000000000e+00,0.000000000000000e+00
	-7.315333876847856e+01,-2.670155243372795e+01
	-7.315333876847856e+01,-2.670155243372795e+01
	7.787415409073097e+01,0.0
	3.782786684323909e+01,0.0
	-2.791610756192205e+00,0.0

 37	2.900681198693160e+00,0.000000000000000e+00
	1.000000000000000e+00,0.000000000000000e+00
	-7.349759782545136e+01,-2.600970010568742e+01
	-7.349759782545136e+01,-2.600970010568742e+01
	7.796410318665629e+01,0.0
	3.783789375217228e+01,0.0
	-2.801460978304692e+00,0.0

 38	2.985382618917967e+00,0.000000000000000e+00
	1.000000000000000e+00,0.000000000000000e+00
	-7.382382880365115e+01,-2.533214054334061e+01
	-7.382382880365115e+01,-2.533214054334061e+01
	7.804918349181082e+01,0.0
	3.784736728138171e+01,0.0
	-2.811039405583293e+00,0.0

 39	3.072557365267454e+00,0.000000000000000e+00
	1.000000000000000e+00,0.000000000000000e+00
	-7.413291104396392e+01,-2.466888151209455e+01
	-7.413291104396392e+01,-2.466888151209455e+01
	7.812965003703798e+01,0.0
	3.785631757992667e+01,0.0
	-2.820353159685111e+00,0.0

 40	3.162277660168388e+00,0.000000000000000e+00
	1.000000000000000e+00,0.000000000000000e+00
	-7.442568803390307e+01,-2.401989958126173e+01
	-7.442568803390307e+01,-2.401989958126173e+01
	7.820574541051162e+01,0.0
	3.786477319634373e+01,0.0
	-2.829409208584380e+00,0.0

 41	3.254617834980468e+00,0.000000000000000e+00
	1.000000000000000e+00,0.000000000000000e+00
	-7.470296807130696e+01,-2.338514314855648e+01
	-7.470296807130696e+01,-2.338514314855648e+01
	7.827770026477008e+01,0.0
	3.787276115908783e+01,0.0
	-2.838214367146676e+00,0.0

 42	3.349654391578286e+00,0.000000000000000e+00
	1.000000000000000e+00,0.000000000000000e+00
	-7.496552502049141e+01,-2.276453525452184e+01
	-7.496552502049141e+01,-2.276453525452184e+01
	7.834573381462639e+01,0.0
	3.788030705343471e+01,0.0
	-2.846775297976564e+00,0.0

 43	3.447466065731504e+00,0.000000000000000e+00
	1.000000000000000e+00,0.000000000000000e+00
	-7.521409914382672e+01,-2.215797619659300e+01
	-7.521409914382672e+01,-2.215797619659300e+01
	7.841005432434144e+01,0.0
	3.788743509491675e+01,0.0
	-2.855098512510358e+00,0.0

 44	3.548133892335765e+00,0.000000000000000e+00
	1.000000000000000e+00,0.000000000000000e+00
	-7.544939799402047e+01,-2.156534595284096e+01
	-7.544939799402047e+01,-2.156534595284096e+01
	7.847085958319695e+01,0.0
	3.789416819942418e+01,0.0
	-2.863190372327488e+00,0.0

 45	3.651741272548388e+00,0.000000000000000e+00
	1.000000000000000e+00,0.000000000000000e+00
	-7.567209735375442e+01,-2.098650642539243e+01
	-7.567209735375442e+01,-2.098650642539243e+01
	7.852833736848835e+01,0.0
	3.790052805006902e+01,0.0
	-2.871057090655637e+00,0.0

 46	3.758374042884453e+00,0.000000000000000e+00
	1.000000000000000e+00,0.000000000000000e+00
	-7.588284221089492e+01,-2.042130351339176e+01
	-7.588284221089492e+01,-2.042130351339176e+01
	7.858266589515554e+01,0.0
	3.790653516091214e+01,0.0
	-2.878704734047644e+00,0.0

 47	3.868120546330533e+00,0.000000000000000e+00
	1.000000000000000e+00,0.000000000000000e+00
	-7.608224775922889e+01,-1.986956902538212e+01
	-7.608224775922889e+01,-1.986956902538212e+01
	7.863401425179255e+01,0.0
	3.791220893769317e+01,0.0
	-2.886139224209070e+00,0.0

 48	3.981071705534985e+00,0.000000000000000e+00
	1.000000000000000e+00,0.000000000000000e+00
	-7.627090041536599e+01,-1.933112244055081e+01
	-7.627090041536599e+01,-1.933112244055081e+01
	7.868254282229472e+01,0.0
	3.791756773563389e+01,0.0
	-2.893366339957546e+00,0.0

 49	4.097321098135428e+00,0.000000000000000e+00
	1.000000000000000e+00,0.000000000000000e+00
	-7.644935884438856e+01,-1.880577252827003e+01
	-7.644935884438856e+01,-1.880577252827003e+01
	7.872840369335026e+01,0.0
	3.792262891447541e+01,0.0
	-2.900391719296103e+00,0.0

 50	4.216965034285836e+00,0.000000000000000e+00
	1.000000000000000e+00,0.000000000000000e+00
	-7.661815498703902e+01,-1.829331883475786e+01
	-7.661815498703902e+01,-1.829331883475786e+01
	7.877174104720575e+01,0.0
	3.792740889081022e+01,0.0
	-2.907220861584940e+00,0.0

 51	4.340102636447452e+00,0.000000000000000e+00
	1.000000000000000e+00,0.000000000000000e+00
	-7.677779508294263e+01,-1.779355304564680e+01
	-7.677779508294263e+01,-1.779355304564680e+01
	7.881269154004687e+01,0.0
	3.793192318785859e+01,0.0
	-2.913859129796240e+00,0.0

 52	4.466835921509645e+00,0.000000000000000e+00
	1.000000000000000e+00,0.000000000000000e+00
	-7.692876068459861e+01,-1.730626023261130e+01
	-7.692876068459861e+01,-1.730626023261130e+01
	7.885138466575656e+01,0.0
	3.793618648276383e+01,0.0
	-2.920311752839279e+00,0.0

 53	4.597269885308736e+00,0.000000000000000e+00
	1.000000000000000e+00,0.000000000000000e+00
	-7.707150965811699e+01,-1.683121999204259e+01
	-7.707150965811699e+01,-1.683121999204259e+01
	7.888794310540588e+01,0.0
	3.794021265153614e+01,0.0
	-2.926583827943153e+00,0.0

 54	4.731512589614820e+00,0.000000000000000e+00
	1.000000000000000e+00,0.000000000000000e+00
	-7.720647716703785e+01,-1.636820748324443e+01
	-7.720647716703785e+01,-1.636820748324443e+01
	7.892248306255243e+01,0.0
	3.794401481173499e+01,0.0
	-2.932680323086153e+00,0.0

 55	4.869675251658648e+00,0.000000000000000e+00
	1.000000000000000e+00,0.000000000000000e+00
	-7.733407663623298e+01,-1.591699437328069e+01
	-7.733407663623298e+01,-1.591699437328069e+01
	7.895511458453977e+01,0.0
	3.794760536298436e+01,0.0
	-2.938606079461506e+00,0.0

 56	5.011872336272740e+00,0.000000000000000e+00
	1.000000000000000e+00,0.000000000000000e+00
	-7.745470069361355e+01,-1.547734969522441e+01
	-7.745470069361355e+01,-1.547734969522441e+01
	7.898594187021841e+01,0.0
	3.795099602543346e+01,0.0
	-2.944365813970579e+00,0.0

 57	5.158221650723075e+00,0.000000000000000e+00
	1.000000000000000e+00,0.000000000000000e+00
	-7.756872208758081e+01,-1.504904062617845e+01
	-7.756872208758081e+01,-1.504904062617845e+01
	7.901506356428953e+01,0.0
	3.795419787624377e+01,0.0
	-2.949964121734813e+00,0.0

 58	5.308844442309902e+00,0.000000000000000e+00
	1.000000000000000e+00,0.000000000000000e+00
	-7.767649457875777e+01,-1.463183319104503e+01
	-7.767649457875777e+01,-1.463183319104503e+01
	7.904257303867551e+01,0.0
	3.795722138420031e+01,0.0
	-2.955405478619201e+00,0.0

 59	5.463865498818562e+00,0.000000000000000e+00
	1.000000000000000e+00,0.000000000000000e+00
	-7.777835380473999e+01,-1.422549289766477e+01
	-7.777835380473999e+01,-1.422549289766477e+01
	7.906855866118228e+01,0.0
	3.796007644252385e+01,0.0
	-2.960694243760361e+00,0.0

 60	5.623413251903512e+00,0.000000000000000e+00
	1.000000000000000e+00,0.000000000000000e+00
	-7.787461811722598e+01,-1.382978530863883e+01
	-7.787461811722598e+01,-1.382978530863883e+01
	7.909310405203998e+01,0.0
	3.796277239999126e+01,0.0
	-2.965834662093177e+00,0.0

 61	5.787619883491228e+00,0.000000000000000e+00
	1.000000000000000e+00,0.000000000000000e+00
	-7.796558939075845e+01,-1.344447655474393e+01
	-7.796558939075845e+01,-1.344447655474393e+01
	7.911628832850670e+01,0.0
	3.796531809042265e+01,0.0
	-2.970830866870401e+00,0.0

 62	5.956621435290127e+00,0.000000000000000e+00
	1.000000000000000e+00,0.000000000000000e+00
	-7.805155380279764e+01,-1.306933379455060e+01
	-7.805155380279764e+01,-1.306933379455060e+01
	7.913818633797717e+01,0.0
	3.796772186061833e+01,0.0
	-2.975686882170546e+00,0.0

 63	6.130557921498230e+00,0.000000000000000e+00
	1.000000000000000e+00,0.000000000000000e+00
	-7.813278258517727e+01,-1.270412562459661e+01
	-7.813278258517727e+01,-1.270412562459661e+01
	7.915886888017104e+01,0.0
	3.796999159683932e+01,0.0
	-2.980406625389532e+00,0.0

 64	6.309573444801956e+00,0.000000000000000e+00
	1.000000000000000e+00,0.000000000000000e+00
	-7.820953274673471e+01,-1.234862244407790e+01
	-7.820953274673471e+01,-1.234862244407790e+01
	7.917840291852920e+01,0.0
	3.797213474987333e+01,0.0
	-2.984993909712284e+00,0.0

 65	6.493816315762138e+00,0.000000000000000e+00
	1.000000000000000e+00,0.000000000000000e+00
	-7.828204776761994e+01,-1.200259677784150e+01
	-7.828204776761994e+01,-1.200259677784150e+01
	7.919685178151579e+01,0.0
	3.797415835878720e+01,0.0
	-2.989452446560853e+00,0.0

 66	6.683439175686172e+00,0.000000000000000e+00
	1.000000000000000e+00,0.000000000000000e+00
	-7.835055826540780e+01,-1.166582356112837e+01
	-7.835055826540780e+01,-1.166582356112837e+01
	7.921427535400700e+01,0.0
	3.797606907340815e+01,0.0
	-2.993785848015921e+00,0.0

 67	6.878599123088104e+00,0.000000000000000e+00
	1.000000000000000e+00,0.000000000000000e+00
	-7.841528263354577e+01,-1.133808038927629e+01
	-7.841528263354577e+01,-1.133808038927629e+01
	7.923073025924067e+01,0.0
	3.797787317560532e+01,0.0
	-2.997997629209381e+00,0.0

 68	7.079457843841408e+00,0.000000000000000e+00
	1.000000000000000e+00,0.000000000000000e+00
	-7.847642765275695e+01,-1.101914773541610e+01
	-7.847642765275695e+01,-1.101914773541610e+01
	7.924627003180227e+01,0.0
	3.797957659944166e+01,0.0
	-3.002091210685293e+00,0.0

 69	7.286181745132307e+00,0.000000000000000e+00
	1.000000000000000e+00,0.000000000000000e+00
	-7.853418907584415e+01,-1.070880913889015e+01
	-7.853418907584415e+01,-1.070880913889015e+01
	7.926094528185754e+01,0.0
	3.798118495023506e+01,0.0
	-3.006069920727430e+00,0.0

 70	7.498942093324589e+00,0.000000000000000e+00
	1.000000000000000e+00,0.000000000000000e+00
	-7.858875218674565e+01,-1.040685136697236e+01
	-7.858875218674565e+01,-1.040685136697236e+01
	7.927480385118575e+01,0.0
	3.798270352260364e+01,0.0
	-3.009936997651825e+00,0.0

 71	7.717915155850156e+00,0.000000000000000e+00
	1.000000000000000e+00,0.000000000000000e+00
	-7.864029233444916e+01,-1.011306455226723e+01
	-7.864029233444916e+01,-1.011306455226723e+01
	7.928789096126815e+01,0.0
	3.798413731753567e+01,0.0
	-3.013695592062570e+00,0.0

 72	7.943282347242849e+00,0.000000000000000e+00
	1.000000000000000e+00,0.000000000000000e+00
	-7.868897544254426e+01,-9.827242307956507e+00
	-7.868897544254426e+01,-9.827242307956507e+00
