Title: * sky130 bjt 3-stage explicit output low-pass section ac: rlp=68k, clp=47p, cload=10p
Date: Fri May 22 22:54:42  2026
Command: ngspice-46, Build Mar 29 2026   15:02:07
Plotname: AC Analysis
Flags: complex
No. Variables: 9
No. Points: 721
Variables:
	0	frequency	frequency grid=3
	1	v(vin)	voltage
	2	v(b3_collector)	voltage
	3	v(vout_drv)	voltage
	4	v(vout_final)	voltage
	5	gain	notype
	6	gain_vv	notype
	7	gain_db	decibel
	8	phase_deg	phase
Values:
 0	1.000000000000000e-03,0.000000000000000e+00
	1.000000000000000e+00,0.000000000000000e+00
	4.861096667803552e-13,7.904423276608954e-10
	-2.483247079271438e-13,2.311740406070107e-16
	-2.483247079215137e-13,2.311800882141362e-16
	-2.483247079215137e-13,2.311800882141362e-16
	2.483248155310667e-13,0.0
	-2.520995975694649e+02,0.0
	3.140661694993839e+00,0.0

 1	1.029200527194428e-03,0.000000000000000e+00
	1.000000000000000e+00,0.000000000000000e+00
	5.454240123230073e-13,8.617279547834594e-10
	-2.786248959079575e-13,2.669556129859675e-16
	-2.786248959012662e-13,2.669625966534998e-16
	-2.786248959012662e-13,2.669625966534998e-16
	2.786250237954578e-13,0.0
	-2.510995976284316e+02,0.0
	3.140634510513253e+00,0.0

 2	1.059253725177289e-03,0.000000000000000e+00
	1.000000000000000e+00,0.000000000000000e+00
	6.119758017561969e-13,9.394424379971301e-10
	-3.126222642862504e-13,3.082755271632540e-16
	-3.126222642782977e-13,3.082835917764300e-16
	-3.126222642782977e-13,3.082835917764300e-16
	3.126224162808272e-13,0.0
	-2.500995976908900e+02,0.0
	3.140606532231612e+00,0.0

 3	1.090184492385128e-03,0.000000000000000e+00
	1.000000000000000e+00,0.000000000000000e+00
	6.866481366318348e-13,1.024165560113937e-09
	-3.507679369777312e-13,3.559910184530665e-16
	-3.507679369682794e-13,3.560003313227365e-16
	-3.507679369682794e-13,3.560003313227365e-16
	3.507681176236215e-13,0.0
	-2.490995977570538e+02,0.0
	3.140577736969516e+00,0.0

 4	1.122018454301964e-03,0.000000000000000e+00
	1.000000000000000e+00,0.000000000000000e+00
	7.704318731587927e-13,1.116529391318429e-09
	-3.935680832810955e-13,4.110920067043295e-16
	-3.935680832698621e-13,4.111027610380352e-16
	-3.935680832698621e-13,4.111027610380352e-16
	3.935682979791350e-13,0.0
	-2.480995978271320e+02,0.0
	3.140548100870717e+00,0.0

 5	1.154781984689459e-03,0.000000000000000e+00
	1.000000000000000e+00,0.000000000000000e+00
	8.644387702502898e-13,1.217223004666012e-09
	-4.415906344176323e-13,4.747216334635716e-16
	-4.415906344042812e-13,4.747340523738845e-16
	-4.415906344042812e-13,4.747340523738845e-16
	4.415908895867260e-13,0.0
	-2.470995979013664e+02,0.0
	3.140517599382350e+00,0.0

 6	1.188502227437019e-03,0.000000000000000e+00
	1.000000000000000e+00,0.000000000000000e+00
	9.699162418813190e-13,1.326997616853322e-09
	-4.954728196133942e-13,5.481999779215726e-16
	-4.954728195975265e-13,5.482143190548507e-16
	-4.954728195975265e-13,5.482143190548507e-16
	4.954731228824250e-13,0.0
	-2.460995979799995e+02,0.0
	3.140486207234597e+00,0.0

 7	1.223207119049932e-03,0.000000000000000e+00
	1.000000000000000e+00,0.000000000000000e+00
	1.088263909499744e-12,1.446672192599208e-09
	-5.559296217178130e-13,6.330514436557855e-16
	-5.559296216989542e-13,6.330680045373755e-16
	-5.559296216989542e-13,6.330680045373755e-16
	5.559299821537247e-13,0.0
	-2.450995980632911e+02,0.0
	3.140453898419748e+00,0.0

 8	1.258925411794168e-03,0.000000000000000e+00
	1.000000000000000e+00,0.000000000000000e+00
	1.221052174137886e-12,1.577139554454867e-09
	-6.237632645617191e-13,7.310363843447124e-16
	-6.237632645393054e-13,7.310555085514942e-16
	-6.237632645393054e-13,7.310555085514942e-16
	6.237636929405944e-13,0.0
	-2.440995981515148e+02,0.0
	3.140420646170656e+00,0.0

 9	1.295686697517020e-03,0.000000000000000e+00
	1.000000000000000e+00,0.000000000000000e+00
	1.370043054659199e-12,1.719373043619459e-09
	-6.998738579433454e-13,8.441876245667838e-16
	-6.998738579167067e-13,8.442097088551105e-16
	-6.998738579167067e-13,8.442097088551105e-16
	6.998743670725818e-13,0.0
	-2.430995982449707e+02,0.0
	3.140386422938561e+00,0.0

 10	1.333521432163325e-03,0.000000000000000e+00
	1.000000000000000e+00,0.000000000000000e+00
	1.537213568660832e-12,1.874433781462887e-09
	-7.852713414975180e-13,9.748526333595006e-16
	-7.852713414658579e-13,9.748781358964151e-16
	-7.852713414658579e-13,9.748781358964151e-16
	7.852719465987358e-13,0.0
	-2.420995983439623e+02,0.0
	3.140351200370264e+00,0.0

 11	1.372460961007563e-03,0.000000000000000e+00
	1.000000000000000e+00,0.000000000000000e+00
	1.724781966266116e-12,2.043478585913826e-09
	-8.810888859286267e-13,1.125742225474081e-15
	-8.810888858909985e-13,1.125771675342574e-15
	-8.810888858909985e-13,1.125771675342574e-15
	8.810896050927544e-13,0.0
	-2.410995984488197e+02,0.0
	3.140314949284641e+00,0.0

 12	1.412537544622755e-03,0.000000000000000e+00
	1.000000000000000e+00,0.000000000000000e+00
	1.935237164925296e-12,2.227768601785907e-09
	-9.885979294372717e-13,1.299986800701112e-15
	-9.885979293925507e-13,1.300020808876619e-15
	-9.885979293925507e-13,1.300020808876619e-15
	9.885987841654176e-13,0.0
	-2.400995985598956e+02,0.0
	3.140277639648467e+00,0.0

 13	1.453784385607663e-03,0.000000000000000e+00
	1.000000000000000e+00,0.000000000000000e+00
	2.171371775807090e-12,2.428678709426294e-09
	-1.109225048863198e-12,1.501201288024179e-15
	-1.109225048810046e-12,1.501240560050042e-15
	-1.109225048810046e-12,1.501240560050042e-15
	1.109226064709475e-12,0.0
	-2.390995986775471e+02,0.0
	3.140239240551529e+00,0.0

 14	1.496235656094435e-03,0.000000000000000e+00
	1.000000000000000e+00,0.000000000000000e+00
	2.436319160000979e-12,2.647707781862501e-09
	-1.244570889405018e-12,1.733560141937578e-15
	-1.244570889341848e-12,1.733605492562435e-15
	-1.244570889341848e-12,1.733605492562435e-15
	1.244572096740547e-12,0.0
	-2.380995988021660e+02,0.0
	3.140199720181025e+00,0.0

 15	1.539926526059493e-03,0.000000000000000e+00
	1.000000000000000e+00,0.000000000000000e+00
	2.733595006262683e-12,2.886489866987844e-09
	-1.396431404107773e-12,2.001883946832094e-15
	-1.396431404032695e-12,2.001936316912868e-15
	-1.396431404032695e-12,2.001936316912868e-15
	1.396432839028695e-12,0.0
	-2.370995989341773e+02,0.0
	3.140159045795203e+00,0.0

 16	1.584893192461115e-03,0.000000000000000e+00
	1.000000000000000e+00,0.000000000000000e+00
	3.067143982017833e-12,3.146806378212106e-09
	-1.566821684953017e-12,2.311739426169753e-15
	-1.566821684863786e-12,2.311799902190910e-15
	-1.566821684863786e-12,2.311799902190910e-15
	1.566823390359674e-12,0.0
	-2.360995990740087e+02,0.0
	3.140117183696238e+00,0.0

 17	1.631172909227840e-03,0.000000000000000e+00
	1.000000000000000e+00,0.000000000000000e+00
	3.441392076620731e-12,3.430599384495833e-09
	-1.758002701758745e-12,2.669554931240850e-15
	-1.758002701652694e-12,2.669624767854894e-15
	-1.758002701652694e-12,2.669624767854894e-15
	1.758004728638286e-12,0.0
	-2.350995992221192e+02,0.0
	3.140074099202313e+00,0.0

 18	1.678804018122562e-03,0.000000000000000e+00
	1.000000000000000e+00,0.000000000000000e+00
	3.861305331448816e-12,3.739986098935241e-09
	-1.972511303701684e-12,3.082753805471718e-15
	-1.972511303575642e-12,3.082834451528521e-15
	-1.972511303575642e-12,3.082834451528521e-15
	1.972513712652446e-12,0.0
	-2.340995993790138e+02,0.0
	3.140029756618887e+00,0.0

 19	1.727825980507865e-03,0.000000000000000e+00
	1.000000000000000e+00,0.000000000000000e+00
	4.332455736171853e-12,4.077274674008245e-09
	-2.213193881570868e-12,3.559908391113312e-15
	-2.213193881421067e-12,3.560001519718324e-15
	-2.213193881421067e-12,3.560001519718324e-15
	2.213196744614104e-12,0.0
	-2.330995995452030e+02,0.0
	3.139984119209123e+00,0.0

 20	1.778279410038925e-03,0.000000000000000e+00
	1.000000000000000e+00,0.000000000000000e+00
	4.861095165533889e-12,4.444981421269588e-09
	-2.483244137398399e-12,4.110917873323210e-15
	-2.483244137220361e-12,4.111025416548113e-15
	-2.483244137220361e-12,4.111025416548113e-15
	2.483247540131526e-12,0.0
	-2.320995997212349e+02,0.0
	3.139937149163450e+00,0.0

 21	1.830206106311058e-03,0.000000000000000e+00
	1.000000000000000e+00,0.000000000000000e+00
	5.454238337778615e-12,4.845849583992883e-09
	-2.786245462656867e-12,4.747213651261163e-15
	-2.786245462445268e-12,4.747337840227106e-15
	-2.786245462445268e-12,4.747337840227106e-15
	2.786249506812592e-12,0.0
	-2.310995999077027e+02,0.0
	3.139888807568246e+00,0.0

 22	1.883649089489803e-03,0.000000000000000e+00
	1.000000000000000e+00,0.000000000000000e+00
	6.119755895548832e-12,5.282869802822192e-09
	-3.126218487356438e-12,5.481996496894506e-15
	-3.126218487104952e-12,5.482139908059478e-15
	-3.126218487104952e-12,5.482139908059478e-15
	3.126223293844306e-12,0.0
	-2.300996001052166e+02,0.0
	3.139839054373591e+00,0.0

 23	1.938652635952210e-03,0.000000000000000e+00
	1.000000000000000e+00,0.000000000000000e+00
	6.866478844299525e-12,5.759302427060950e-09
	-3.507674430948740e-12,6.330510421595631e-15
	-3.507674430649848e-12,6.330676030206267e-15
	-3.507674430649848e-12,6.330676030206267e-15
	3.507680143470002e-12,0.0
	-2.290996003144398e+02,0.0
	3.139787848360093e+00,0.0

 24	1.995262314968882e-03,0.000000000000000e+00
	1.000000000000000e+00,0.000000000000000e+00
	7.704315734162267e-12,6.278701838118083e-09
	-3.935674963002160e-12,7.310358932315708e-15
	-3.935674962646927e-12,7.310550174132446e-15
	-3.935674962646927e-12,7.310550174132446e-15
	3.935681752346058e-12,0.0
	-2.280996005360535e+02,0.0
	3.139735147104736e+00,0.0

 25	2.053525026457149e-03,0.000000000000000e+00
	1.000000000000000e+00,0.000000000000000e+00
	8.644384140056646e-12,6.844942966484818e-09
	-4.415899367896169e-12,8.441870238338745e-15
	-4.415899367473974e-12,8.442091080914890e-15
	-4.415899367473974e-12,8.442091080914890e-15
	4.415907437046078e-12,0.0
	-2.270996007708010e+02,0.0
	3.139680906945736e+00,0.0

 26	2.113489039836650e-03,0.000000000000000e+00
	1.000000000000000e+00,0.000000000000000e+00
	9.699158184839434e-12,7.462250200161009e-09
	-4.954719904810712e-12,9.748518985387790e-15
	-4.954719904308931e-12,9.748774010381259e-15
	-4.954719904308931e-12,9.748774010381259e-15
	4.954729495012802e-12,0.0
	-2.260996010194575e+02,0.0
	3.139625082946366e+00,0.0

 27	2.175204034019526e-03,0.000000000000000e+00
	1.000000000000000e+00,0.000000000000000e+00
	1.088263406291167e-11,8.135228900115258e-09
	-5.559286362923066e-12,1.125741326636217e-14
	-5.559286362326699e-12,1.125770776458756e-14
	-5.559286362326699e-12,1.125770776458756e-14
	5.559297760898919e-12,0.0
	-2.250996012828477e+02,0.0
	3.139567628857731e+00,0.0

 28	2.238721138568343e-03,0.000000000000000e+00
	1.000000000000000e+00,0.000000000000000e+00
	1.221051576073054e-11,8.868899757939372e-09
	-6.237620933812869e-12,1.299985701237464e-14
	-6.237620933104087e-12,1.300019709356761e-14
	-6.237620933104087e-12,1.300019709356761e-14
	6.237634480331688e-12,0.0
	-2.240996015618436e+02,0.0
	3.139508497080451e+00,0.0

 29	2.304092976055850e-03,0.000000000000000e+00
	1.000000000000000e+00,0.000000000000000e+00
	1.370042343858226e-11,9.668736251990014e-09
	-6.998724659930330e-12,1.501199943152334e-14
	-6.998724659087939e-12,1.501239215109441e-14
	-6.998724659087939e-12,1.501239215109441e-14
	6.998740759997022e-12,0.0
	-2.230996018573725e+02,0.0
	3.139447638625225e+00,0.0

 30	2.371373705661660e-03,0.000000000000000e+00
	1.000000000000000e+00,0.000000000000000e+00
	1.537212723871916e-11,1.054070548146625e-08
	-7.852696871614304e-12,1.733558496879393e-14
	-7.852696870613120e-12,1.733603847420147e-14
	-7.852696870613120e-12,1.733603847420147e-14
	7.852716006578047e-12,0.0
	-2.220996021704143e+02,0.0
	3.139385003072250e+00,0.0

 31	2.440619068041985e-03,0.000000000000000e+00
	1.000000000000000e+00,0.000000000000000e+00
	1.724780962232997e-11,1.149131268304678e-08
	-8.810869197468423e-12,2.001881934586756e-14
	-8.810869196278514e-12,2.001934304564654e-14
	-8.810869196278514e-12,2.001934304564654e-14
	8.810891939413714e-12,0.0
	-2.210996025020015e+02,0.0
	3.139320538529443e+00,0.0

 32	2.511886431509585e-03,0.000000000000000e+00
	1.000000000000000e+00,0.000000000000000e+00
	1.935235971630790e-11,1.252764976216156e-08
	-9.885955926264688e-12,2.311736964777137e-14
	-9.885955924850479e-12,2.311797440672456e-14
	-9.885955924850479e-12,2.311797440672456e-14
	9.885982955115135e-12,0.0
	-2.200996028532399e+02,0.0
	3.139254191589460e+00,0.0

 33	2.585234839562196e-03,0.000000000000000e+00
	1.000000000000000e+00,0.000000000000000e+00
	2.171370357573319e-11,1.365744820102509e-08
	-1.109222271558399e-11,2.669551920445967e-14
	-1.109222271390320e-11,2.669621756906084e-14
	-1.109222271390320e-11,2.669621756906084e-14
	1.109225483943020e-11,0.0
	-2.190996032252897e+02,0.0
	3.139185907285441e+00,0.0

 34	2.660725059798815e-03,0.000000000000000e+00
	1.000000000000000e+00,0.000000000000000e+00
	2.436317474425758e-11,1.488913673804428e-08
	-1.244567588571845e-11,3.082750122647971e-14
	-1.244567588372083e-11,3.082830768516490e-14
	-1.244567588372083e-11,3.082830768516490e-14
	1.244571406497775e-11,0.0
	-2.180996036193832e+02,0.0
	3.139115629045478e+00,0.0

 35	2.738419634264367e-03,0.000000000000000e+00
	1.000000000000000e+00,0.000000000000000e+00
	2.733593002953532e-11,1.623190424895146e-08
	-1.396427481060894e-11,3.559903886257179e-14
	-1.396427480823476e-11,3.559997014631879e-14
	-1.396427480823476e-11,3.559997014631879e-14
	1.396432018673929e-11,0.0
	-2.170996040368308e+02,0.0
	3.139043298645748e+00,0.0

 36	2.818382931264460e-03,0.000000000000000e+00
	1.000000000000000e+00,0.000000000000000e+00
	3.067141601082877e-11,1.769576829879037e-08
	-1.566817022404562e-11,4.110912362951572e-14
	-1.566817022122390e-11,4.111019905894758e-14
	-1.566817022122390e-11,4.111019905894758e-14
	1.566822415367211e-11,0.0
	-2.160996044790081e+02,0.0
	3.138968856162272e+00,0.0

 37	2.900681198693160e-03,0.000000000000000e+00
	1.000000000000000e+00,0.000000000000000e+00
	3.441389246871909e-11,1.929164987604051e-08
	-1.757997160309216e-11,4.747206910937443e-14
	-1.757997159973855e-11,4.747331099558788e-14
	-1.757997159973855e-11,4.747331099558788e-14
	1.758003569856645e-11,0.0
	-2.150996049473898e+02,0.0
	3.138892239921279e+00,0.0

 38	2.985382618917966e-03,0.000000000000000e+00
	1.000000000000000e+00,0.000000000000000e+00
	3.861301968286009e-11,2.103145486659439e-08
	-1.972504717677337e-11,5.481988252080029e-14
	-1.972504717278759e-11,5.482131662823486e-14
	-1.972504717278759e-11,5.482131662823486e-14
	1.972512335437861e-11,0.0
	-2.140996054435283e+02,0.0
	3.138813386448104e+00,0.0

 39	3.072557365267454e-03,0.000000000000000e+00
	1.000000000000000e+00,0.000000000000000e+00
	4.332451739047457e-11,2.292816287524177e-08
	-2.213186054068035e-11,6.330500336486606e-14
	-2.213186053594325e-11,6.330665944581643e-14
	-2.213186053594325e-11,6.330665944581643e-14
	2.213195107792289e-11,0.0
	-2.130996059690598e+02,0.0
	3.138732230414611e+00,0.0

 40	3.162277660168387e-03,0.000000000000000e+00
	1.000000000000000e+00,0.000000000000000e+00
	4.861090414940353e-11,2.499592405726243e-08
	-2.483234834394203e-11,7.310346596138361e-14
	-2.483234833831197e-11,7.310537837324413e-14
	-2.483234833831197e-11,7.310537837324413e-14
	2.483245594764264e-11,0.0
	-2.120996065257324e+02,0.0
	3.138648704585063e+00,0.0

 41	3.254617834980467e-03,0.000000000000000e+00
	1.000000000000000e+00,0.000000000000000e+00
	5.454232691685615e-11,2.725016468264298e-08
	-2.786234406016400e-11,8.441855148635642e-14
	-2.786234405347266e-11,8.442075990440328e-14
	-2.786234405347266e-11,8.442075990440328e-14
	2.786247194738446e-11,0.0
	-2.110996071153950e+02,0.0
	3.138562739760430e+00,0.0

 42	3.349654391578285e-03,0.000000000000000e+00
	1.000000000000000e+00,0.000000000000000e+00
	6.119749185155105e-11,2.970770222035175e-08
	-3.126205346516775e-11,9.748500527559087e-14
	-3.126205345721509e-11,9.748755551608901e-14
	-3.126205345721509e-11,9.748755551608901e-14
	3.126220545939224e-11,0.0
	-2.100996077399914e+02,0.0
	3.138474264721055e+00,0.0

 43	3.447466065731503e-03,0.000000000000000e+00
	1.000000000000000e+00,0.000000000000000e+00
	6.866470868989636e-11,3.238687080105600e-08
	-3.507658813037285e-11,1.125739068862177e-13
	-3.507658812092109e-11,1.125768518569289e-13
	-3.507658812092109e-11,1.125768518569289e-13
	3.507676877581966e-11,0.0
	-2.090996084015957e+02,0.0
	3.138383206167656e+00,0.0

 44	3.548133892335764e-03,0.000000000000000e+00
	1.000000000000000e+00,0.000000000000000e+00
	7.704306255481468e-11,3.530765799446937e-08
	-3.935656401079716e-11,1.299982939511439e-13
	-3.935656399956371e-11,1.300016947489543e-13
	-3.935656399956371e-11,1.300016947489543e-13
	3.935677870827835e-11,0.0
	-2.080996091024106e+02,0.0
	3.138289488660602e+00,0.0

 45	3.651741272548387e-03,0.000000000000000e+00
	1.000000000000000e+00,0.000000000000000e+00
	8.644372874631522e-11,3.849185392170351e-08
	-4.415877307017397e-11,1.501196564991074e-13
	-4.415877305682301e-11,1.501235836775473e-13
	-4.415877305682301e-11,1.501235836775473e-13
	4.415902823856492e-11,0.0
	-2.070996098447404e+02,0.0
	3.138193034557413e+00,0.0

 46	3.758374042884452e-03,0.000000000000000e+00
	1.000000000000000e+00,0.000000000000000e+00
	9.699144795855299e-11,4.196321381446720e-08
	-4.954693685411452e-11,1.733554364689254e-13
	-4.954693683824688e-11,1.733599715018751e-13
	-4.954693683824688e-11,1.733599715018751e-13
	4.954724012226054e-11,0.0
	-2.060996106310633e+02,0.0
	3.138093763948446e+00,0.0

 47	3.868120546330533e-03,0.000000000000000e+00
	1.000000000000000e+00,0.000000000000000e+00
	1.088261815007422e-10,4.574763523470081e-08
	-5.559255201115116e-11,2.001876880062722e-13
	-5.559255199229243e-11,2.001929249782208e-13
	-5.559255199229243e-11,2.001929249782208e-13
	5.559291244594898e-11,0.0
	-2.050996114639773e+02,0.0
	3.137991594590686e+00,0.0

 48	3.981071705534985e-03,0.000000000000000e+00
	1.000000000000000e+00,0.000000000000000e+00
	1.221049684828690e-10,4.987335127575565e-08
	-6.237583897941980e-11,2.311730782048982e-13
	-6.237583895700617e-11,2.311791257628212e-13
	-6.237583895700617e-11,2.311791257628212e-13
	6.237626735689269e-11,0.0
	-2.040996123462445e+02,0.0
	3.137886441839622e+00,0.0

 49	4.097321098135428e-03,0.000000000000000e+00
	1.000000000000000e+00,0.000000000000000e+00
	1.370040096110344e-10,5.437114118698798e-08
	-6.998680642726333e-11,2.669544357690950e-13
	-6.998680640062469e-11,2.669614193764423e-13
	-6.998680640062469e-11,2.669614193764423e-13
	6.998731555473432e-11,0.0
	-2.030996132807887e+02,0.0
	3.137778218579118e+00,0.0

 50	4.216965034285836e-03,0.000000000000000e+00
	1.000000000000000e+00,0.000000000000000e+00
	1.537210052419609e-10,5.927455999270705e-08
	-7.852644557086401e-11,3.082740871834667e-13
	-7.852644553920395e-11,3.082821517230241e-13
	-7.852644553920395e-11,3.082821517230241e-13
	7.852705066985920e-11,0.0
	-2.020996142707062e+02,0.0
	3.137666835149251e+00,0.0

 51	4.340102636447452e-03,0.000000000000000e+00
	1.000000000000000e+00,0.000000000000000e+00
	1.724777787206058e-10,6.462018881841655e-08
	-8.810807021551134e-11,3.559892570600191e-13
	-8.810807017788328e-11,3.559985698396382e-13
	-8.810807017788328e-11,3.559985698396382e-13
	8.810878937684102e-11,0.0
	-2.010996153192818e+02,0.0
	3.137552199272033e+00,0.0

 52	4.466835921509646e-03,0.000000000000000e+00
	1.000000000000000e+00,0.000000000000000e+00
	1.935232198104563e-10,7.044790779182524e-08
	-9.885882030069794e-11,4.110898521559784e-13
	-9.885882025597692e-11,4.111006063795332e-13
	-9.885882025597692e-11,4.111006063795332e-13
	9.885967502532121e-11,0.0
	-2.000996164299916e+02,0.0
	3.137434215974963e+00,0.0

 53	4.597269885308737e-03,0.000000000000000e+00
	1.000000000000000e+00,0.000000000000000e+00
	2.171365872730279e-10,7.680119355427770e-08
	-1.109213488982128e-10,4.747189980053567e-13
	-1.109213488450618e-10,4.747314167809325e-13
	-1.109213488450618e-10,4.747314167809325e-13
	1.109223647400558e-10,0.0
	-1.990996176065121e+02,0.0
	3.137312787512357e+00,0.0

 54	4.731512589614821e-03,0.000000000000000e+00
	1.000000000000000e+00,0.000000000000000e+00
	2.436312144179303e-10,8.372744360178277e-08
