Title: * sky130 bjt 3-stage high-frequency fourth-pole ac: chout=10p
Date: Fri May 22 21:56:30  2026
Command: ngspice-46, Build Mar 29 2026   15:02:07
Plotname: AC Analysis
Flags: complex
No. Variables: 8
No. Points: 721
Variables:
	0	frequency	frequency grid=3
	1	v(vin)	voltage
	2	v(b3_collector)	voltage
	3	v(vout_final)	voltage
	4	gain	notype
	5	gain_vv	notype
	6	gain_db	decibel
	7	phase_deg	phase
Values:
 0	1.000000000000000e-03,0.000000000000000e+00
	1.000000000000000e+00,0.000000000000000e+00
	4.861096667825175e-13,7.904423276608954e-10
	-2.483247082867343e-13,2.308853907419890e-16
	-2.483247082867343e-13,2.308853907419890e-16
	2.483248156221108e-13,0.0
	-2.520995975662804e+02,0.0
	3.140662881736628e+00,0.0

 1	1.029200527194428e-03,0.000000000000000e+00
	1.000000000000000e+00,0.000000000000000e+00
	5.454240123255774e-13,8.617279547834594e-10
	-2.786248963353321e-13,2.666222853405722e-16
	-2.786248963353321e-13,2.666222853405722e-16
	2.786250239036645e-13,0.0
	-2.510995976250584e+02,0.0
	3.140635731909551e+00,0.0

 2	1.059253725177289e-03,0.000000000000000e+00
	1.000000000000000e+00,0.000000000000000e+00
	6.119758017592516e-13,9.394424379971301e-10
	-3.126222647941834e-13,3.078906064261177e-16
	-3.126222647941834e-13,3.078906064261177e-16
	3.126224164094285e-13,0.0
	-2.500995976873169e+02,0.0
	3.140607789293318e+00,0.0

 3	1.090184492385128e-03,0.000000000000000e+00
	1.000000000000000e+00,0.000000000000000e+00
	6.866481366354653e-13,1.024165560113937e-09
	-3.507679375814107e-13,3.555465189481391e-16
	-3.507679375814107e-13,3.555465189481391e-16
	3.507681177764644e-13,0.0
	-2.490995977532691e+02,0.0
	3.140579030738078e+00,0.0

 4	1.122018454301964e-03,0.000000000000000e+00
	1.000000000000000e+00,0.000000000000000e+00
	7.704318731631077e-13,1.116529391318429e-09
	-3.935680839985706e-13,4.105787067179038e-16
	-3.935680839985706e-13,4.105787067179038e-16
	3.935682981607898e-13,0.0
	-2.480995978231230e+02,0.0
	3.140549432417993e+00,0.0

 5	1.154781984689459e-03,0.000000000000000e+00
	1.000000000000000e+00,0.000000000000000e+00
	8.644387702554182e-13,1.217223004666012e-09
	-4.415906352703593e-13,4.741288839281863e-16
	-4.415906352703593e-13,4.741288839281863e-16
	4.415908898026295e-13,0.0
	-2.470995978971197e+02,0.0
	3.140518969811498e+00,0.0

 6	1.188502227437019e-03,0.000000000000000e+00
	1.000000000000000e+00,0.000000000000000e+00
	9.699162418874143e-13,1.326997616853322e-09
	-4.954728206268590e-13,5.475154814876454e-16
	-4.954728206268590e-13,5.475154814876454e-16
	4.954731231390237e-13,0.0
	-2.460995979755012e+02,0.0
	3.140487617680988e+00,0.0

 7	1.223207119049932e-03,0.000000000000000e+00
	1.000000000000000e+00,0.000000000000000e+00
	1.088263909506988e-12,1.446672192599208e-09
	-5.559296229223151e-13,6.322609995676480e-16
	-5.559296229223151e-13,6.322609995676480e-16
	5.559299824586897e-13,0.0
	-2.450995980585263e+02,0.0
	3.140455350051905e+00,0.0

 8	1.258925411794168e-03,0.000000000000000e+00
	1.000000000000000e+00,0.000000000000000e+00
	1.221052174146495e-12,1.577139554454867e-09
	-6.237632659932707e-13,7.301235938280910e-16
	-6.237632659932707e-13,7.301235938280910e-16
	6.237636933030441e-13,0.0
	-2.440995981464677e+02,0.0
	3.140422140191224e+00,0.0

 9	1.295686697517020e-03,0.000000000000000e+00
	1.000000000000000e+00,0.000000000000000e+00
	1.370043054669431e-12,1.719373043619459e-09
	-6.998738596447434e-13,8.431335506156778e-16
	-6.998738596447434e-13,8.431335506156778e-16
	6.998743675033500e-13,0.0
	-2.430995982396246e+02,0.0
	3.140387960585302e+00,0.0

 10	1.333521432163325e-03,0.000000000000000e+00
	1.000000000000000e+00,0.000000000000000e+00
	1.537213568672993e-12,1.874433781462887e-09
	-7.852713435196416e-13,9.736354078643601e-16
	-7.852713435196416e-13,9.736354078643601e-16
	7.852719471107130e-13,0.0
	-2.420995983382993e+02,0.0
	3.140352782917085e+00,0.0

 11	1.372460961007563e-03,0.000000000000000e+00
	1.000000000000000e+00,0.000000000000000e+00
	1.724781966280569e-12,2.043478585913826e-09
	-8.810888883319213e-13,1.124336595540567e-15
	-8.810888883319213e-13,1.124336595540567e-15
	8.810896057012369e-13,0.0
	-2.410995984428212e+02,0.0
	3.140316578042647e+00,0.0

 12	1.412537544622755e-03,0.000000000000000e+00
	1.000000000000000e+00,0.000000000000000e+00
	1.935237164942474e-12,2.227768601785907e-09
	-9.885979322935857e-13,1.298363604747479e-15
	-9.885979322935857e-13,1.298363604747479e-15
	9.885987848885934e-13,0.0
	-2.400995985535417e+02,0.0
	3.140279315967046e+00,0.0

 13	1.453784385607663e-03,0.000000000000000e+00
	1.000000000000000e+00,0.000000000000000e+00
	2.171371775827505e-12,2.428678709426294e-09
	-1.109225052257945e-12,1.499326850788174e-15
	-1.109225052257945e-12,1.499326850788174e-15
	1.109226065568983e-12,0.0
	-2.390995986708166e+02,0.0
	3.140240965819475e+00,0.0

 14	1.496235656094435e-03,0.000000000000000e+00
	1.000000000000000e+00,0.000000000000000e+00
	2.436319160025243e-12,2.647707781862501e-09
	-1.244570893439680e-12,1.731395575841471e-15
	-1.244570893439680e-12,1.731395575841471e-15
	1.244572097762072e-12,0.0
	-2.380995987950367e+02,0.0
	3.140201495827682e+00,0.0

 15	1.539926526059493e-03,0.000000000000000e+00
	1.000000000000000e+00,0.000000000000000e+00
	2.733595006291522e-12,2.886489866987844e-09
	-1.396431408902961e-12,1.999384345212101e-15
	-1.396431408902961e-12,1.999384345212101e-15
	1.396432840242762e-12,0.0
	-2.370995989266257e+02,0.0
	3.140160873291654e+00,0.0

 16	1.584893192461115e-03,0.000000000000000e+00
	1.000000000000000e+00,0.000000000000000e+00
	3.067143982052108e-12,3.146806378212106e-09
	-1.566821690652123e-12,2.308852931632352e-15
	-1.566821690652123e-12,2.308852931632352e-15
	1.566823391802611e-12,0.0
	-2.360995990660096e+02,0.0
	3.140119064556523e+00,0.0

 17	1.631172909227840e-03,0.000000000000000e+00
	1.000000000000000e+00,0.000000000000000e+00
	3.441392076661465e-12,3.430599384495833e-09
	-1.758002708532144e-12,2.666221659817712e-15
	-1.758002708532144e-12,2.666221659817712e-15
	1.758004730353219e-12,0.0
	-2.350995992136461e+02,0.0
	3.140076034984681e+00,0.0

 18	1.678804018122562e-03,0.000000000000000e+00
	1.000000000000000e+00,0.000000000000000e+00
	3.861305331497229e-12,3.739986098935241e-09
	-1.972511311751889e-12,3.078904604254132e-15
	-1.972511311751889e-12,3.078904604254132e-15
	1.972513714690653e-12,0.0
	-2.340995993700386e+02,0.0
	3.140031748927090e+00,0.0

 19	1.727825980507865e-03,0.000000000000000e+00
	1.000000000000000e+00,0.000000000000000e+00
	4.332455736229392e-12,4.077274674008245e-09
	-2.213193891138541e-12,3.555463403591353e-15
	-2.213193891138541e-12,3.555463403591353e-15
	2.213196747036506e-12,0.0
	-2.330995995356961e+02,0.0
	3.139986169693741e+00,0.0

 20	1.778279410038925e-03,0.000000000000000e+00
	1.000000000000000e+00,0.000000000000000e+00
	4.861095165602275e-12,4.444981421269588e-09
	-2.483244148769577e-12,4.105784882666360e-15
	-2.483244148769577e-12,4.105784882666360e-15
	2.483247543010532e-12,0.0
	-2.320995997111646e+02,0.0
	3.139939259523263e+00,0.0

 21	1.830206106311058e-03,0.000000000000000e+00
	1.000000000000000e+00,0.000000000000000e+00
	5.454238337859892e-12,4.845849583992883e-09
	-2.786245476171564e-12,4.741286167169847e-15
	-2.786245476171564e-12,4.741286167169847e-15
	2.786249510234326e-12,0.0
	-2.310995998970357e+02,0.0
	3.139890979551637e+00,0.0

 22	1.883649089489803e-03,0.000000000000000e+00
	1.000000000000000e+00,0.000000000000000e+00
	6.119755895645431e-12,5.282869802822192e-09
	-3.126218503418630e-12,5.475151546331568e-15
	-3.126218503418630e-12,5.475151546331568e-15
	3.126223297910991e-12,0.0
	-2.300996000939178e+02,0.0
	3.139841289779998e+00,0.0

 23	1.938652635952210e-03,0.000000000000000e+00
	1.000000000000000e+00,0.000000000000000e+00
	6.866478844414332e-12,5.759302427060950e-09
	-3.507674450038738e-12,6.322605997565733e-15
	-3.507674450038738e-12,6.322605997565733e-15
	3.507680148303315e-12,0.0
	-2.290996003024713e+02,0.0
	3.139790149041498e+00,0.0

 24	1.995262314968882e-03,0.000000000000000e+00
	1.000000000000000e+00,0.000000000000000e+00
	7.704315734298716e-12,6.278701838118083e-09
	-3.935674985690691e-12,7.301231047762436e-15
	-3.935674985690691e-12,7.301231047762436e-15
	3.935681758090488e-12,0.0
	-2.280996005233757e+02,0.0
	3.139737514967198e+00,0.0

 25	2.053525026457149e-03,0.000000000000000e+00
	1.000000000000000e+00,0.000000000000000e+00
	8.644384140218817e-12,6.844942966484818e-09
	-4.415899394861497e-12,8.431329524041551e-15
	-4.415899394861497e-12,8.431329524041551e-15
	4.415907443873306e-12,0.0
	-2.270996007573722e+02,0.0
	3.139683343950972e+00,0.0

 26	2.113489039836650e-03,0.000000000000000e+00
	1.000000000000000e+00,0.000000000000000e+00
	9.699158185032173e-12,7.462250200161009e-09
	-4.954719936859055e-12,9.736346761278006e-15
	-4.954719936859055e-12,9.736346761278006e-15
	4.954729503126972e-12,0.0
	-2.260996010052330e+02,0.0
	3.139627591113378e+00,0.0

 27	2.175204034019526e-03,0.000000000000000e+00
	1.000000000000000e+00,0.000000000000000e+00
	1.088263406314074e-11,8.135228900115258e-09
	-5.559286401012626e-12,1.124335700475287e-14
	-5.559286401012626e-12,1.124335700475287e-14
	5.559297770542665e-12,0.0
	-2.250996012677802e+02,0.0
	3.139570210264474e+00,0.0

 28	2.238721138568343e-03,0.000000000000000e+00
	1.000000000000000e+00,0.000000000000000e+00
	1.221051576100279e-11,8.868899757939372e-09
	-6.237620979082307e-12,1.298362509898471e-14
	-6.237620979082307e-12,1.298362509898471e-14
	6.237634491793217e-12,0.0
	-2.240996015458834e+02,0.0
	3.139511153865557e+00,0.0

 29	2.304092976055850e-03,0.000000000000000e+00
	1.000000000000000e+00,0.000000000000000e+00
	1.370042343890583e-11,9.668736251990014e-09
	-6.998724713733284e-12,1.499325511561005e-14
	-6.998724713733284e-12,1.499325511561005e-14
	6.998740773619210e-12,0.0
	-2.230996018404665e+02,0.0
	3.139450372989776e+00,0.0

 30	2.371373705661660e-03,0.000000000000000e+00
	1.000000000000000e+00,0.000000000000000e+00
	1.537212723910372e-11,1.054070548146625e-08
	-7.852696935559217e-12,1.731393937687897e-14
	-7.852696935559217e-12,1.731393937687897e-14
	7.852716022768036e-12,0.0
	-2.220996021525065e+02,0.0
	3.139387817281599e+00,0.0

 31	2.440619068041985e-03,0.000000000000000e+00
	1.000000000000000e+00,0.000000000000000e+00
	1.724780962278702e-11,1.149131268304678e-08
	-8.810869273467003e-12,1.999382341412537e-14
	-8.810869273467003e-12,1.999382341412537e-14
	8.810891958655473e-12,0.0
	-2.210996024830328e+02,0.0
	3.139323434915093e+00,0.0

 32	2.511886431509585e-03,0.000000000000000e+00
	1.000000000000000e+00,0.000000000000000e+00
	1.935235971685111e-11,1.252764976216156e-08
	-9.885956016589155e-12,2.308850480570636e-14
	-9.885956016589155e-12,2.308850480570636e-14
	9.885982977984005e-12,0.0
	-2.200996028331471e+02,0.0
	3.139257172550993e+00,0.0

 33	2.585234839562196e-03,0.000000000000000e+00
	1.000000000000000e+00,0.000000000000000e+00
	2.171370357637880e-11,1.365744820102509e-08
	-1.109222282293484e-11,2.666218661659671e-14
	-1.109222282293484e-11,2.666218661659671e-14
	1.109225486660993e-11,0.0
	-2.190996032040064e+02,0.0
	3.139188975292508e+00,0.0

 34	2.660725059798815e-03,0.000000000000000e+00
	1.000000000000000e+00,0.000000000000000e+00
	2.436317474502489e-11,1.488913673804427e-08
	-1.244567601330504e-11,3.078900936887811e-14
	-1.244567601330504e-11,3.078900936887811e-14
	1.244571409728081e-11,0.0
	-2.180996035968389e+02,0.0
	3.139118786639844e+00,0.0

 35	2.738419634264367e-03,0.000000000000000e+00
	1.000000000000000e+00,0.000000000000000e+00
	2.733593003044726e-11,1.623190424895146e-08
	-1.396427496224575e-11,3.555458917642839e-14
	-1.396427496224575e-11,3.555458917642839e-14
	1.396432022513144e-11,0.0
	-2.170996040129507e+02,0.0
	3.139046548443397e+00,0.0

 36	2.818382931264460e-03,0.000000000000000e+00
	1.000000000000000e+00,0.000000000000000e+00
	3.067141601191262e-11,1.769576829879037e-08
	-1.566817040426637e-11,4.105779395422734e-14
	-1.566817040426637e-11,4.105779395422734e-14
	1.566822419930137e-11,0.0
	-2.160996044537130e+02,0.0
	3.138972200855578e+00,0.0

 37	2.900681198693160e-03,0.000000000000000e+00
	1.000000000000000e+00,0.000000000000000e+00
	3.441389247000725e-11,1.929164987604051e-08
	-1.757997181728470e-11,4.741279455136341e-14
	-1.757997181728470e-11,4.741279455136341e-14
	1.758003575279673e-11,0.0
	-2.150996049205959e+02,0.0
	3.138895682281231e+00,0.0

 38	2.985382618917966e-03,0.000000000000000e+00
	1.000000000000000e+00,0.000000000000000e+00
	3.861301968439107e-11,2.103145486659439e-08
	-1.972504743134189e-11,5.475143336122104e-14
	-1.972504743134189e-11,5.475143336122104e-14
	1.972512341883169e-11,0.0
	-2.140996054151466e+02,0.0
	3.138816929326606e+00,0.0

 39	3.072557365267454e-03,0.000000000000000e+00
	1.000000000000000e+00,0.000000000000000e+00
	4.332451739229412e-11,2.292816287524177e-08
	-2.213186084323537e-11,6.322595954785611e-14
	-2.213186084323537e-11,6.322595954785611e-14
	2.213195115452535e-11,0.0
	-2.130996059389964e+02,0.0
	3.138735876746841e+00,0.0

 40	3.162277660168387e-03,0.000000000000000e+00
	1.000000000000000e+00,0.000000000000000e+00
	4.861090415156609e-11,2.499592405726243e-08
	-2.483234870352958e-11,7.301218763362157e-14
	-2.483234870352958e-11,7.301218763362157e-14
	2.483245603868515e-11,0.0
	-2.120996064938876e+02,0.0
	3.138652457391907e+00,0.0

 41	3.254617834980467e-03,0.000000000000000e+00
	1.000000000000000e+00,0.000000000000000e+00
	5.454232691942636e-11,2.725016468264297e-08
	-2.786234448753400e-11,8.431314497672418e-14
	-2.786234448753400e-11,8.431314497672418e-14
	2.786247205558818e-11,0.0
	-2.110996070816634e+02,0.0
	3.138566602150984e+00,0.0

 42	3.349654391578285e-03,0.000000000000000e+00
	1.000000000000000e+00,0.000000000000000e+00
	6.119749185460573e-11,2.970770222035174e-08
	-3.126205397309795e-11,9.736328380919914e-14
	-3.126205397309795e-11,9.736328380919914e-14
	3.126220558799272e-11,0.0
	-2.100996077042610e+02,0.0
	3.138478239895201e+00,0.0

 43	3.447466065731503e-03,0.000000000000000e+00
	1.000000000000000e+00,0.000000000000000e+00
	6.866470869352685e-11,3.238687080105600e-08
	-3.507658873404923e-11,1.124333452177511e-13
	-3.507658873404923e-11,1.124333452177511e-13
	3.507676892866198e-11,0.0
	-2.090996083637481e+02,0.0
	3.138387297418711e+00,0.0

 44	3.548133892335764e-03,0.000000000000000e+00
	1.000000000000000e+00,0.000000000000000e+00
	7.704306255912954e-11,3.530765799446936e-08
	-3.935656472826771e-11,1.298359759763902e-13
	-3.935656472826771e-11,1.298359759763902e-13
	3.935677888993183e-11,0.0
	-2.080996090623204e+02,0.0
	3.138293699378048e+00,0.0

 45	3.651741272548387e-03,0.000000000000000e+00
	1.000000000000000e+00,0.000000000000000e+00
	8.644372875144346e-11,3.849185392170350e-08
	-4.415877392288860e-11,1.499322147578435e-13
	-4.415877392288860e-11,1.499322147578435e-13
	4.415902845446001e-11,0.0
	-2.070996098022748e+02,0.0
	3.138197368229707e+00,0.0

 46	3.758374042884452e-03,0.000000000000000e+00
	1.000000000000000e+00,0.000000000000000e+00
	9.699144796464788e-11,4.196321381446719e-08
	-4.954693786756661e-11,1.731389822841192e-13
	-4.954693786756661e-11,1.731389822841192e-13
	4.954724037885150e-11,0.0
	-2.060996105860816e+02,0.0
	3.138098224165904e+00,0.0

 47	3.868120546330533e-03,0.000000000000000e+00
	1.000000000000000e+00,0.000000000000000e+00
	1.088261815079860e-10,4.574763523470079e-08
	-5.559255321564089e-11,1.999377308103137e-13
	-5.559255321564089e-11,1.999377308103137e-13
	5.559291275090797e-11,0.0
	-2.050996114163302e+02,0.0
	3.137996185048463e+00,0.0

 48	3.981071705534985e-03,0.000000000000000e+00
	1.000000000000000e+00,0.000000000000000e+00
	1.221049684914783e-10,4.987335127575563e-08
	-6.237584041095756e-11,2.308844323792343e-13
	-6.237584041095756e-11,2.308844323792343e-13
	6.237626771933666e-11,0.0
	-2.040996122957742e+02,0.0
	3.137891166340767e+00,0.0

 49	4.097321098135428e-03,0.000000000000000e+00
	1.000000000000000e+00,0.000000000000000e+00
	1.370040096212666e-10,5.437114118698795e-08
	-6.998680812864865e-11,2.666211130646697e-13
	-6.998680812864865e-11,2.666211130646697e-13
	6.998731598549992e-11,0.0
	-2.030996132273279e+02,0.0
	3.137783081037732e+00,0.0

 50	4.216965034285836e-03,0.000000000000000e+00
	1.000000000000000e+00,0.000000000000000e+00
	1.537210052541218e-10,5.927455999270701e-08
	-7.852644759296251e-11,3.078891724901575e-13
	-7.852644759296251e-11,3.078891724901575e-13
	7.852705118182412e-11,0.0
	-2.020996142140777e+02,0.0
	3.137671839593724e+00,0.0

 51	4.340102636447452e-03,0.000000000000000e+00
	1.000000000000000e+00,0.000000000000000e+00
	1.724777787350590e-10,6.462018881841651e-08
	-8.810807261877943e-11,3.555447649479445e-13
	-8.810807261877943e-11,3.555447649479445e-13
	8.810878998531299e-11,0.0
	-2.010996152592978e+02,0.0
	3.137557349848381e+00,0.0

 52	4.466835921509646e-03,0.000000000000000e+00
	1.000000000000000e+00,0.000000000000000e+00
	1.935232198276340e-10,7.044790779182518e-08
	-9.885882315698556e-11,4.105765612125369e-13
	-9.885882315698556e-11,4.105765612125369e-13
	9.885967574849092e-11,0.0
	-2.000996163664533e+02,0.0
	3.137439516950265e+00,0.0

 53	4.597269885308737e-03,0.000000000000000e+00
	1.000000000000000e+00,0.000000000000000e+00
	2.171365872934436e-10,7.680119355427765e-08
	-1.109213522929154e-10,4.741262595314017e-13
	-1.109213522929154e-10,4.741262595314017e-13
	1.109223655995446e-10,0.0
	-1.990996175392089e+02,0.0
	3.137318243278290e+00,0.0

 54	4.731512589614821e-03,0.000000000000000e+00
	1.000000000000000e+00,0.000000000000000e+00
	2.436312144421944e-10,8.372744360178270e-08
	-1.244557190809445e-10,5.475122713073797e-13
	-1.244557190809445e-10,5.475122713073797e-13
	1.244569233977853e-10,0.0
	-1.980996187814580e+02,0.0
	3.137193428360844e+00,0.0

 55	4.869675251658647e-03,0.000000000000000e+00
	1.000000000000000e+00,0.000000000000000e+00
	2.733586668235473e-10,9.127832987563135e-08
	-1.396415123302373e-10,6.322570728535716e-13
	-1.396415123302373e-10,6.322570728535716e-13
	1.396429436630509e-10,0.0
	-1.970996200973083e+02,0.0
	3.137064968792568e+00,0.0

 56	5.011872336272740e-03,0.000000000000000e+00
	1.000000000000000e+00,0.000000000000000e+00
	3.067134072255454e-10,9.951018423925052e-08
	-1.566802335185550e-10,7.301187906442215e-13
	-1.566802335185550e-10,7.301187906442215e-13
	1.566819346602453e-10,0.0
	-1.960996214911327e+02,0.0
	3.136932758148687e+00,0.0

 57	5.158221650723075e-03,0.000000000000000e+00
	1.000000000000000e+00,0.000000000000000e+00
	3.441380298846451e-10,1.084844187181302e-07
	-1.757979704524033e-10,8.431276753289450e-13
	-1.757979704524033e-10,8.431276753289450e-13
	1.757999922624030e-10,0.0
	-1.950996229675425e+02,0.0
	3.136796686896855e+00,0.0

 58	5.308844442309902e-03,0.000000000000000e+00
	1.000000000000000e+00,0.000000000000000e+00
	3.861291333541091e-10,1.182679836359779e-07
	-1.972483971446879e-10,9.736282211735794e-13
	-1.972483971446879e-10,9.736282211735794e-13
	1.972508000695094e-10,0.0
	-1.940996245314387e+02,0.0
	3.136656642306417e+00,0.0

 59	5.463865498818562e-03,0.000000000000000e+00
	1.000000000000000e+00,0.000000000000000e+00
	4.332439099630444e-10,1.289338670660304e-07
	-2.213161397137161e-10,1.124327804731655e-12
	-2.213161397137161e-10,1.124327804731655e-12
	2.213189955941279e-10,0.0
	-1.930996261880008e+02,0.0
	3.136512508355023e+00,0.0

 60	5.623413251903512e-03,0.000000000000000e+00
	1.000000000000000e+00,0.000000000000000e+00
	4.861075392966686e-10,1.405616393218419e-07
	-2.483205529589980e-10,1.298352851771288e-12
	-2.483205529589980e-10,1.298352851771288e-12
	2.483239471778552e-10,0.0
	-1.920996279427215e+02,0.0
	3.136364165632525e+00,0.0

 61	5.787619883491228e-03,0.000000000000000e+00
	1.000000000000000e+00,0.000000000000000e+00
	5.454214838046558e-10,1.532380465499798e-07
	-2.786199577210921e-10,1.499313697675756e-12
	-2.786199577210921e-10,1.499313697675756e-12
	2.786239917560353e-10,0.0
	-1.910996298014110e+02,0.0
	3.136211491242052e+00,0.0

 62	5.956621435290127e-03,0.000000000000000e+00
	1.000000000000000e+00,0.000000000000000e+00
	6.119727966067892e-10,1.670576578513273e-07
	-3.126163952424374e-10,1.731379486864701e-12
