Title: * sky130 bjt 3-stage high-frequency output-isolation ac: riso=150k, cload=10p
Date: Fri May 22 22:02:49  2026
Command: ngspice-46, Build Mar 29 2026   15:02:07
Plotname: AC Analysis
Flags: complex
No. Variables: 9
No. Points: 721
Variables:
	0	frequency	frequency grid=3
	1	v(vin)	voltage
	2	v(b3_collector)	voltage
	3	v(vout_drv)	voltage
	4	v(vout_final)	voltage
	5	gain	notype
	6	gain_vv	notype
	7	gain_db	decibel
	8	phase_deg	phase
Values:
 0	1.000000000000000e-03,0.000000000000000e+00
	1.000000000000000e+00,0.000000000000000e+00
	4.861096667831021e-13,7.904423276608954e-10
	-2.483247083838025e-13,2.308073772647725e-16
	-2.483247083816273e-13,2.308097176700112e-16
	-2.483247083816273e-13,2.308097176700112e-16
	2.483248156466566e-13,0.0
	-2.520995975654218e+02,0.0
	3.140663186471084e+00,0.0

 1	1.029200527194428e-03,0.000000000000000e+00
	1.000000000000000e+00,0.000000000000000e+00
	5.454240123262721e-13,8.617279547834594e-10
	-2.786248964506982e-13,2.665321967875381e-16
	-2.786248964481129e-13,2.665348994452572e-16
	-2.786248964481129e-13,2.665348994452572e-16
	2.786250239328375e-13,0.0
	-2.510995976241489e+02,0.0
	3.140636045542411e+00,0.0

 2	1.059253725177289e-03,0.000000000000000e+00
	1.000000000000000e+00,0.000000000000000e+00
	6.119758017600773e-13,9.394424379971301e-10
	-3.126222649312959e-13,3.077865737941851e-16
	-3.126222649282232e-13,3.077896947745229e-16
	-3.126222649282232e-13,3.077896947745229e-16
	3.126224164441002e-13,0.0
	-2.500995976863536e+02,0.0
	3.140608112084421e+00,0.0

 3	1.090184492385128e-03,0.000000000000000e+00
	1.000000000000000e+00,0.000000000000000e+00
	6.866481366364465e-13,1.024165560113937e-09
	-3.507679377443689e-13,3.554263839464715e-16
	-3.507679377407169e-13,3.554299879982093e-16
	-3.507679377407169e-13,3.554299879982093e-16
	3.507681178176715e-13,0.0
	-2.490995977522487e+02,0.0
	3.140579362954849e+00,0.0

 4	1.122018454301964e-03,0.000000000000000e+00
	1.000000000000000e+00,0.000000000000000e+00
	7.704318731642739e-13,1.116529391318429e-09
	-3.935680841922447e-13,4.104399769914289e-16
	-3.935680841879043e-13,4.104441388852875e-16
	-3.935680841879043e-13,4.104441388852875e-16
	3.935682982097624e-13,0.0
	-2.480995978220422e+02,0.0
	3.140549774335666e+00,0.0

 5	1.154781984689459e-03,0.000000000000000e+00
	1.000000000000000e+00,0.000000000000000e+00
	8.644387702568041e-13,1.217223004666012e-09
	-4.415906355005409e-13,4.739686813505457e-16
	-4.415906354953824e-13,4.739734874304000e-16
	-4.415906354953824e-13,4.739734874304000e-16
	4.415908898608331e-13,0.0
	-2.470995978959749e+02,0.0
	3.140519321713346e+00,0.0

 6	1.188502227437019e-03,0.000000000000000e+00
	1.000000000000000e+00,0.000000000000000e+00
	9.699162418890615e-13,1.326997616853322e-09
	-4.954728209004291e-13,5.473304824508251e-16
	-4.954728208942981e-13,5.473360324250184e-16
	-4.954728208942981e-13,5.473360324250184e-16
	4.954731232081974e-13,0.0
	-2.460995979742885e+02,0.0
	3.140487979858551e+00,0.0

 7	1.223207119049932e-03,0.000000000000000e+00
	1.000000000000000e+00,0.000000000000000e+00
	1.088263909508945e-12,1.446672192599208e-09
	-5.559296232474556e-13,6.320473660295546e-16
	-5.559296232401690e-13,6.320537750394756e-16
	-5.559296232401690e-13,6.320537750394756e-16
	5.559299825409049e-13,0.0
	-2.450995980572418e+02,0.0
	3.140455722805241e+00,0.0

 8	1.258925411794168e-03,0.000000000000000e+00
	1.000000000000000e+00,0.000000000000000e+00
	1.221052174148822e-12,1.577139554454867e-09
	-6.237632663797019e-13,7.298768936875375e-16
	-6.237632663710417e-13,7.298842946963756e-16
	-6.237632663710417e-13,7.298842946963756e-16
	6.237636934007580e-13,0.0
	-2.440995981451070e+02,0.0
	3.140422523829151e+00,0.0

 9	1.295686697517020e-03,0.000000000000000e+00
	1.000000000000000e+00,0.000000000000000e+00
	1.370043054672197e-12,1.719373043619459e-09
	-6.998738601040167e-13,8.428486657628955e-16
	-6.998738600937240e-13,8.428572123141320e-16
	-6.998738600937240e-13,8.428572123141320e-16
	6.998743676194820e-13,0.0
	-2.430995982381833e+02,0.0
	3.140388355425655e+00,0.0

 10	1.333521432163325e-03,0.000000000000000e+00
	1.000000000000000e+00,0.000000000000000e+00
	1.537213568676280e-12,1.874433781462887e-09
	-7.852713440654909e-13,9.733064279994228e-16
	-7.852713440532580e-13,9.733162974022859e-16
	-7.852713440532580e-13,9.733162974022859e-16
	7.852719472487383e-13,0.0
	-2.420995983367726e+02,0.0
	3.140353189286980e+00,0.0

 11	1.372460961007563e-03,0.000000000000000e+00
	1.000000000000000e+00,0.000000000000000e+00
	1.724781966284475e-12,2.043478585913826e-09
	-8.810888889806636e-13,1.123956695556841e-15
	-8.810888889661248e-13,1.123968092564811e-15
	-8.810888889661248e-13,1.123968092564811e-15
	8.810896058652793e-13,0.0
	-2.410995984412041e+02,0.0
	3.140316996278753e+00,0.0

 12	1.412537544622755e-03,0.000000000000000e+00
	1.000000000000000e+00,0.000000000000000e+00
	1.935237164947117e-12,2.227768601785907e-09
	-9.885979330646146e-13,1.297924903136314e-15
	-9.885979330473353e-13,1.297938064194996e-15
	-9.885979330473353e-13,1.297938064194996e-15
	9.885987850835556e-13,0.0
	-2.400995985518288e+02,0.0
	3.140279746415862e+00,0.0

 13	1.453784385607663e-03,0.000000000000000e+00
	1.000000000000000e+00,0.000000000000000e+00
	2.171371775833023e-12,2.428678709426294e-09
	-1.109225053174317e-12,1.498820246127256e-15
	-1.109225053153781e-12,1.498835444279739e-15
	-1.109225053153781e-12,1.498835444279739e-15
	1.109226065800699e-12,0.0
	-2.390995986690021e+02,0.0
	3.140241408837616e+00,0.0

 14	1.496235656094435e-03,0.000000000000000e+00
	1.000000000000000e+00,0.000000000000000e+00
	2.436319160031802e-12,2.647707781862501e-09
	-1.244570894528789e-12,1.730810557974552e-15
	-1.244570894504382e-12,1.730828108526041e-15
	-1.244570894504382e-12,1.730828108526041e-15
	1.244572098037465e-12,0.0
	-2.380995987931148e+02,0.0
	3.140201951782181e+00,0.0

 15	1.539926526059493e-03,0.000000000000000e+00
	1.000000000000000e+00,0.000000000000000e+00
	2.733595006299316e-12,2.886489866987844e-09
	-1.396431410197377e-12,1.998708777202920e-15
	-1.396431410168368e-12,1.998729044262132e-15
	-1.396431410168368e-12,1.998729044262132e-15
	1.396432840570075e-12,0.0
	-2.370995989245898e+02,0.0
	3.140161342560259e+00,0.0

 16	1.584893192461115e-03,0.000000000000000e+00
	1.000000000000000e+00,0.000000000000000e+00
	3.067143982061371e-12,3.146806378212106e-09
	-1.566821692190532e-12,2.308072797968954e-15
	-1.566821692156055e-12,2.308096202002019e-15
	-1.566821692156055e-12,2.308096202002019e-15
	1.566823392191616e-12,0.0
	-2.360995990638531e+02,0.0
	3.140119547528011e+00,0.0

 17	1.631172909227840e-03,0.000000000000000e+00
	1.000000000000000e+00,0.000000000000000e+00
	3.441392076672475e-12,3.430599384495833e-09
	-1.758002710360549e-12,2.665320775643624e-15
	-1.758002710319574e-12,2.665347802197180e-15
	-1.758002710319574e-12,2.665347802197180e-15
	1.758004730815555e-12,0.0
	-2.350995992113618e+02,0.0
	3.140076532059183e+00,0.0

 18	1.678804018122562e-03,0.000000000000000e+00
	1.000000000000000e+00,0.000000000000000e+00
	3.861305331510314e-12,3.739986098935241e-09
	-1.972511313924949e-12,3.077864279593785e-15
	-1.972511313876250e-12,3.077895489368252e-15
	-1.972511313876250e-12,3.077895489368252e-15
	1.972513715240138e-12,0.0
	-2.340995993676190e+02,0.0
	3.140032260516421e+00,0.0

 19	1.727825980507865e-03,0.000000000000000e+00
	1.000000000000000e+00,0.000000000000000e+00
	4.332455736244943e-12,4.077274674008245e-09
	-2.213193893721237e-12,3.554262055603973e-15
	-2.213193893663357e-12,3.554298096085988e-15
	-2.213193893663357e-12,3.554298096085988e-15
	2.213196747689579e-12,0.0
	-2.330995995331330e+02,0.0
	3.139986696221741e+00,0.0

 20	1.778279410038925e-03,0.000000000000000e+00
	1.000000000000000e+00,0.000000000000000e+00
	4.861095165620758e-12,4.444981421269588e-09
	-2.483244151839109e-12,4.104397587883875e-15
	-2.483244151770320e-12,4.104439206779205e-15
	-2.483244151770320e-12,4.104439206779205e-15
	2.483247543786704e-12,0.0
	-2.320995997084498e+02,0.0
	3.139939801426149e+00,0.0

 21	1.830206106311058e-03,0.000000000000000e+00
	1.000000000000000e+00,0.000000000000000e+00
	5.454238337881860e-12,4.845849583992883e-09
	-2.786245479819722e-12,4.739684144429800e-15
	-2.786245479737965e-12,4.739732205175433e-15
	-2.786245479737965e-12,4.739732205175433e-15
	2.786249511156820e-12,0.0
	-2.310995998941599e+02,0.0
	3.139891537278362e+00,0.0

 22	1.883649089489803e-03,0.000000000000000e+00
	1.000000000000000e+00,0.000000000000000e+00
	6.119755895671539e-12,5.282869802822192e-09
	-3.126218507754465e-12,5.473301559677456e-15
	-3.126218507657296e-12,5.473357059354668e-15
	-3.126218507657296e-12,5.473357059354668e-15
	3.126223299007368e-12,0.0
	-2.300996000908715e+02,0.0
	3.139841863792626e+00,0.0

 23	1.938652635952210e-03,0.000000000000000e+00
	1.000000000000000e+00,0.000000000000000e+00
	6.866478844445362e-12,5.759302427060950e-09
	-3.507674455191875e-12,6.320469666727846e-15
	-3.507674455076390e-12,6.320533756747887e-15
	-3.507674455076390e-12,6.320533756747887e-15
	3.507680149606349e-12,0.0
	-2.290996002992447e+02,0.0
	3.139790739815583e+00,0.0

 24	1.995262314968882e-03,0.000000000000000e+00
	1.000000000000000e+00,0.000000000000000e+00
	7.704315734335597e-12,6.278701838118083e-09
	-3.935674991815211e-12,7.298764051913992e-15
	-3.935674991677957e-12,7.298838061905535e-15
	-3.935674991677957e-12,7.298838061905535e-15
	3.935681759639153e-12,0.0
	-2.280996005199579e+02,0.0
	3.139738122992184e+00,0.0

 25	2.053525026457149e-03,0.000000000000000e+00
	1.000000000000000e+00,0.000000000000000e+00
	8.644384140262646e-12,6.844942966484818e-09
	-4.415899402140493e-12,8.428480682311177e-15
	-4.415899401977366e-12,8.428566147705090e-15
	-4.415899401977366e-12,8.428566147705090e-15
	4.415907445713890e-12,0.0
	-2.270996007537518e+02,0.0
	3.139683969730593e+00,0.0

 26	2.113489039836650e-03,0.000000000000000e+00
	1.000000000000000e+00,0.000000000000000e+00
	9.699158185084264e-12,7.462250200161009e-09
	-4.954719945510175e-12,9.733056970943342e-15
	-4.954719945316299e-12,9.733155664827081e-15
	-4.954719945316299e-12,9.733155664827081e-15
	4.954729505314528e-12,0.0
	-2.260996010013980e+02,0.0
	3.139628235166076e+00,0.0

 27	2.175204034019526e-03,0.000000000000000e+00
	1.000000000000000e+00,0.000000000000000e+00
	1.088263406320265e-11,8.135228900115258e-09
	-5.559286411294484e-12,1.123955801508620e-14
	-5.559286411064061e-12,1.123967198498866e-14
	-5.559286411064061e-12,1.123967198498866e-14
	5.559297773142563e-12,0.0
	-2.250996012637181e+02,0.0
	3.139570873123832e+00,0.0

 28	2.238721138568343e-03,0.000000000000000e+00
	1.000000000000000e+00,0.000000000000000e+00
	1.221051576107637e-11,8.868899757939371e-09
	-6.237620991302343e-12,1.297923809531391e-14
	-6.237620991028485e-12,1.297936970568392e-14
	-6.237620991028485e-12,1.297936970568392e-14
	6.237634494883228e-12,0.0
	-2.240996015415806e+02,0.0
	3.139511836080738e+00,0.0

 29	2.304092976055850e-03,0.000000000000000e+00
	1.000000000000000e+00,0.000000000000000e+00
	1.370042343899328e-11,9.668736251990014e-09
	-6.998724728256811e-12,1.498818908421852e-14
	-6.998724727931331e-12,1.498834106547818e-14
	-6.998724727931331e-12,1.498834106547818e-14
	6.998740777291682e-12,0.0
	-2.230996018359087e+02,0.0
	3.139451075125979e+00,0.0

 30	2.371373705661660e-03,0.000000000000000e+00
	1.000000000000000e+00,0.000000000000000e+00
	1.537212723920766e-11,1.054070548146625e-08
	-7.852696952820473e-12,1.730808921682419e-14
	-7.852696952433640e-12,1.730826472201470e-14
	-7.852696952433640e-12,1.730826472201470e-14
	7.852716027132795e-12,0.0
	-2.220996021476787e+02,0.0
	3.139388539920525e+00,0.0

 31	2.440619068041985e-03,0.000000000000000e+00
	1.000000000000000e+00,0.000000000000000e+00
	1.724780962291055e-11,1.149131268304678e-08
	-8.810869293982028e-12,1.998706775680265e-14
	-8.810869293522277e-12,1.998727042699799e-14
	-8.810869293522277e-12,1.998727042699799e-14
	8.810891963842983e-12,0.0
	-2.210996024779189e+02,0.0
	3.139324178655431e+00,0.0

 32	2.511886431509585e-03,0.000000000000000e+00
	1.000000000000000e+00,0.000000000000000e+00
	1.935235971699792e-11,1.252764976216156e-08
	-9.885956040971221e-12,2.308070349692356e-14
	-9.885956040424802e-12,2.308093753676886e-14
	-9.885956040424802e-12,2.308093753676886e-14
	9.885982984149286e-12,0.0
	-2.200996028277303e+02,0.0
	3.139257938008913e+00,0.0

 33	2.585234839562196e-03,0.000000000000000e+00
	1.000000000000000e+00,0.000000000000000e+00
	2.171370357655329e-11,1.365744820102509e-08
	-1.109222285191303e-11,2.665317780892374e-14
	-1.109222285126361e-11,2.665344807386562e-14
	-1.109222285126361e-11,2.665344807386562e-14
	1.109225487393744e-11,0.0
	-2.190996031982685e+02,0.0
	3.139189763102171e+00,0.0

 34	2.660725059798815e-03,0.000000000000000e+00
	1.000000000000000e+00,0.000000000000000e+00
	2.436317474523227e-11,1.488913673804427e-08
	-1.244567604774573e-11,3.077860616394691e-14
	-1.244567604697389e-11,3.077891826096540e-14
	-1.244567604697389e-11,3.077891826096540e-14
	1.244571410598962e-11,0.0
	-2.180996035907610e+02,0.0
	3.139119597453932e+00,0.0

 35	2.738419634264367e-03,0.000000000000000e+00
	1.000000000000000e+00,0.000000000000000e+00
	2.733593003069374e-11,1.623190424895146e-08
	-1.396427500317853e-11,3.554257574752811e-14
	-1.396427500226120e-11,3.554293615145998e-14
	-1.396427500226120e-11,3.554293615145998e-14
	1.396432023548183e-11,0.0
	-2.170996040065127e+02,0.0
	3.139047382933647e+00,0.0

 36	2.818382931264460e-03,0.000000000000000e+00
	1.000000000000000e+00,0.000000000000000e+00
	3.067141601220555e-11,1.769576829879037e-08
	-1.566817045291507e-11,4.104392106875382e-14
	-1.566817045182483e-11,4.104433725662057e-14
	-1.566817045182483e-11,4.104433725662057e-14
	1.566822421160284e-11,0.0
	-2.160996044468935e+02,0.0
	3.138973059713343e+00,0.0

 37	2.900681198693160e-03,0.000000000000000e+00
	1.000000000000000e+00,0.000000000000000e+00
	3.441389247035540e-11,1.929164987604051e-08
	-1.757997187510385e-11,4.739677440023149e-14
	-1.757997187380809e-11,4.739725500635875e-14
	-1.757997187380809e-11,4.739725500635875e-14
	1.758003576741714e-11,0.0
	-2.150996049133722e+02,0.0
	3.138896566218052e+00,0.0

 38	2.985382618917966e-03,0.000000000000000e+00
	1.000000000000000e+00,0.000000000000000e+00
	3.861301968480485e-11,2.103145486659438e-08
	-1.972504750005997e-11,5.473293358797203e-14
	-1.972504749851996e-11,5.473348858311842e-14
	-1.972504749851996e-11,5.473348858311842e-14
	1.972512343620797e-11,0.0
	-2.140996054074951e+02,0.0
	3.138817839074801e+00,0.0

 39	3.072557365267454e-03,0.000000000000000e+00
	1.000000000000000e+00,0.000000000000000e+00
	4.332451739278590e-11,2.292816287524177e-08
	-2.213186092490699e-11,6.320459635359320e-14
	-2.213186092307669e-11,6.320523725180502e-14
	-2.213186092307669e-11,6.320523725180502e-14
	2.213195117517714e-11,0.0
	-2.130996059308914e+02,0.0
	3.138736813060111e+00,0.0

 40	3.162277660168387e-03,0.000000000000000e+00
	1.000000000000000e+00,0.000000000000000e+00
	4.861090415215055e-11,2.499592405726243e-08
	-2.483234880059634e-11,7.298751781472388e-14
	-2.483234879842101e-11,7.298825791220682e-14
	-2.483234879842101e-11,7.298825791220682e-14
	2.483245606322972e-11,0.0
	-2.120996064853024e+02,0.0
	3.138653421045962e+00,0.0

 41	3.254617834980467e-03,0.000000000000000e+00
	1.000000000000000e+00,0.000000000000000e+00
	5.454232692012102e-11,2.725016468264297e-08
	-2.786234460289801e-11,8.428465673016418e-14
	-2.786234460031262e-11,8.428551138112788e-14
	-2.786234460031262e-11,8.428551138112788e-14
	2.786247208475944e-11,0.0
	-2.110996070725695e+02,0.0
	3.138567593944184e+00,0.0

 42	3.349654391578285e-03,0.000000000000000e+00
	1.000000000000000e+00,0.000000000000000e+00
	6.119749185543132e-11,2.970770222035174e-08
	-3.126205411020843e-11,9.733038611470751e-14
	-3.126205410713570e-11,9.733137304990533e-14
	-3.126205410713570e-11,9.733137304990533e-14
	3.126220562266296e-11,0.0
	-2.100996076946282e+02,0.0
	3.138479260649218e+00,0.0

 43	3.447466065731503e-03,0.000000000000000e+00
	1.000000000000000e+00,0.000000000000000e+00
	6.866470869450808e-11,3.238687080105599e-08
	-3.507658889700539e-11,1.123953555765581e-13
	-3.507658889335345e-11,1.123964952711308e-13
	-3.507658889335345e-11,1.123964952711308e-13
	3.507676896986774e-11,0.0
	-2.090996083535445e+02,0.0
	3.138388347979211e+00,0.0

 44	3.548133892335764e-03,0.000000000000000e+00
	1.000000000000000e+00,0.000000000000000e+00
	7.704306256029573e-11,3.530765799446936e-08
	-3.935656492194113e-11,1.297921062521775e-13
	-3.935656491760079e-11,1.297934223504320e-13
	-3.935656491760079e-11,1.297934223504320e-13
	3.935677893890467e-11,0.0
	-2.080996090515123e+02,0.0
	3.138294780615389e+00,0.0

 45	3.651741272548387e-03,0.000000000000000e+00
	1.000000000000000e+00,0.000000000000000e+00
	8.644372875282946e-11,3.849185392170350e-08
	-4.415877415306996e-11,1.498815548261754e-13
	-4.415877414791146e-11,1.498830746321107e-13
	-4.415877414791146e-11,1.498830746321107e-13
	4.415902851266448e-11,0.0
	-2.070996097908262e+02,0.0
	3.138198481039661e+00,0.0

 46	3.758374042884452e-03,0.000000000000000e+00
	1.000000000000000e+00,0.000000000000000e+00
	9.699144796629517e-11,4.196321381446718e-08
	-4.954693814113748e-11,1.730804811511379e-13
	-4.954693813500659e-11,1.730822361948949e-13
	-4.954693813500659e-11,1.730822361948949e-13
	4.954724044802754e-11,0.0
	-2.060996105739547e+02,0.0
	3.138099369470401e+00,0.0

 47	3.868120546330533e-03,0.000000000000000e+00
	1.000000000000000e+00,0.000000000000000e+00
	1.088261815099438e-10,4.574763523470079e-08
	-5.559255354078041e-11,1.998701748090177e-13
	-5.559255353349383e-11,1.998722015010045e-13
	-5.559255353349383e-11,1.998722015010045e-13
	5.559291283312389e-11,0.0
	-2.050996114034847e+02,0.0
	3.137997363796352e+00,0.0

 48	3.981071705534985e-03,0.000000000000000e+00
	1.000000000000000e+00,0.000000000000000e+00
	1.221049684938051e-10,4.987335127575563e-08
	-6.237584079738687e-11,2.308064199910009e-13
	-6.237584078872677e-11,2.308087603772627e-13
	-6.237584078872677e-11,2.308087603772627e-13
	6.237626781705087e-11,0.0
	-2.040996122821675e+02,0.0
	3.137892379508604e+00,0.0

 49	4.097321098135428e-03,0.000000000000000e+00
	1.000000000000000e+00,0.000000000000000e+00
	1.370040096240320e-10,5.437114118698794e-08
	-6.998680858791990e-11,2.665310258436834e-13
	-6.998680857762733e-11,2.665337284781898e-13
	-6.998680857762733e-11,2.665337284781898e-13
	6.998731610163278e-11,0.0
	-2.030996132129150e+02,0.0
	3.137784329630586e+00,0.0

 50	4.216965034285836e-03,0.000000000000000e+00
	1.000000000000000e+00,0.000000000000000e+00
	1.537210052574085e-10,5.927455999270701e-08
	-7.852644813880740e-11,3.077851414875964e-13
	-7.852644812657468e-11,3.077882624395403e-13
	-7.852644812657468e-11,3.077882624395403e-13
	7.852705131984850e-11,0.0
	-2.020996141988108e+02,0.0
	3.137673124646014e+00,0.0

 51	4.340102636447452e-03,0.000000000000000e+00
	1.000000000000000e+00,0.000000000000000e+00
	1.724777787389653e-10,6.462018881841649e-08
	-8.810807326751676e-11,3.554246319393344e-13
	-8.810807325297815e-11,3.554282359563406e-13
	-8.810807325297815e-11,3.554282359563406e-13
	8.810879014935501e-11,0.0
	-2.010996152431264e+02,0.0
	3.137558672424730e+00,0.0

 52	4.466835921509646e-03,0.000000000000000e+00
	1.000000000000000e+00,0.000000000000000e+00
	1.935232198322767e-10,7.044790779182517e-08
	-9.885882392801121e-11,4.104378339239875e-13
	-9.885882391073203e-11,4.104419957753623e-13
	-9.885882391073203e-11,4.104419957753623e-13
	9.885967594345542e-11,0.0
	-2.000996163493235e+02,0.0
	3.137440878146383e+00,0.0

 53	4.597269885308737e-03,0.000000000000000e+00
	1.000000000000000e+00,0.000000000000000e+00
	2.171365872989614e-10,7.680119355427763e-08
	-1.109213532092812e-10,4.739660599358519e-13
	-1.109213531887449e-10,4.739708659637398e-13
	-1.109213531887449e-10,4.739708659637398e-13
	1.109223658312609e-10,0.0
	-1.990996175210641e+02,0.0
	3.137319644221878e+00,0.0

 54	4.731512589614821e-03,0.000000000000000e+00
	1.000000000000000e+00,0.000000000000000e+00
	2.436312144487523e-10,8.372744360178267e-08
