Title: * sky130 bjt 3-stage high-frequency ch/riso sweep ac: ch=18p, riso=470k
Date: Fri May 22 22:49:31  2026
Command: ngspice-46, Build Mar 29 2026   15:02:07
Plotname: AC Analysis
Flags: complex
No. Variables: 9
No. Points: 721
Variables:
	0	frequency	frequency grid=3
	1	v(vin)	voltage
	2	v(b3_collector)	voltage
	3	v(vout_drv)	voltage
	4	v(vout_final)	voltage
	5	gain	notype
	6	gain_vv	notype
	7	gain_db	decibel
	8	phase_deg	phase
Values:
 0	1.000000000000000e-03,0.000000000000000e+00
	1.000000000000000e+00,0.000000000000000e+00
	4.860883475702307e-13,7.904423276747670e-10
	-2.483247083902640e-13,2.308006796385483e-16
	-2.483247083834481e-13,2.308080129082962e-16
	-2.483247083834481e-13,2.308080129082962e-16
	2.483248156468929e-13,0.0
	-2.520995975654135e+02,0.0
	3.140663193336136e+00,0.0

 1	1.029200527194428e-03,0.000000000000000e+00
	1.000000000000000e+00,0.000000000000000e+00
	5.454000917764013e-13,8.617279547994776e-10
	-2.786248964583777e-13,2.665244624897032e-16
	-2.786248964502770e-13,2.665329308172230e-16
	-2.786248964502770e-13,2.665329308172230e-16
	2.786250239331184e-13,0.0
	-2.510995976241402e+02,0.0
	3.140636052607926e+00,0.0

 2	1.059253725177289e-03,0.000000000000000e+00
	1.000000000000000e+00,0.000000000000000e+00
	6.119489624621634e-13,9.394424380156280e-10
	-3.126222649404235e-13,3.077776423667107e-16
	-3.126222649307957e-13,3.077874214384358e-16
	-3.126222649307957e-13,3.077874214384358e-16
	3.126224164444344e-13,0.0
	-2.500995976863443e+02,0.0
	3.140608119356252e+00,0.0

 3	1.090184492385128e-03,0.000000000000000e+00
	1.000000000000000e+00,0.000000000000000e+00
	6.866180224494548e-13,1.024165560135297e-09
	-3.507679377552166e-13,3.554160700953286e-16
	-3.507679377437738e-13,3.554273627907737e-16
	-3.507679377437738e-13,3.554273627907737e-16
	3.507681178180683e-13,0.0
	-2.490995977522388e+02,0.0
	3.140579370439022e+00,0.0

 4	1.122018454301964e-03,0.000000000000000e+00
	1.000000000000000e+00,0.000000000000000e+00
	7.703980844914081e-13,1.116529391343095e-09
	-3.935680842051403e-13,4.104280667424328e-16
	-3.935680841915406e-13,4.104411073431899e-16
	-3.935680841915406e-13,4.104411073431899e-16
	3.935682982102372e-13,0.0
	-2.480995978220317e+02,0.0
	3.140549782038381e+00,0.0

 5	1.154781984689459e-03,0.000000000000000e+00
	1.000000000000000e+00,0.000000000000000e+00
	8.644008587431043e-13,1.217223004694497e-09
	-4.415906355158673e-13,4.739549276101735e-16
	-4.415906354997040e-13,4.739699866603841e-16
	-4.415906354997040e-13,4.739699866603841e-16
	4.415908898613973e-13,0.0
	-2.470995978959638e+02,0.0
	3.140519329640983e+00,0.0

 6	1.188502227437019e-03,0.000000000000000e+00
	1.000000000000000e+00,0.000000000000000e+00
	9.698737044720135e-13,1.326997616886216e-09
	-4.954728209186469e-13,5.473145998799613e-16
	-4.954728208994368e-13,5.473319897991006e-16
	-4.954728208994368e-13,5.473319897991006e-16
	4.954731232088703e-13,0.0
	-2.460995979742767e+02,0.0
	3.140487988017680e+00,0.0

 7	1.223207119049932e-03,0.000000000000000e+00
	1.000000000000000e+00,0.000000000000000e+00
	1.088216181743153e-12,1.446672192637194e-09
	-5.559296232691051e-13,6.320290251237488e-16
	-5.559296232462739e-13,6.320491066881683e-16
	-5.559296232462739e-13,6.320491066881683e-16
	5.559299825417022e-13,0.0
	-2.450995980572293e+02,0.0
	3.140455731202621e+00,0.0

 8	1.258925411794168e-03,0.000000000000000e+00
	1.000000000000000e+00,0.000000000000000e+00
	1.220998622716167e-12,1.577139554498732e-09
	-6.237632664054299e-13,7.298557139410287e-16
	-6.237632663782950e-13,7.298789037687219e-16
	-6.237632663782950e-13,7.298789037687219e-16
	6.237636934017032e-13,0.0
	-2.440995981450939e+02,0.0
	3.140422532471739e+00,0.0

 9	1.295686697517020e-03,0.000000000000000e+00
	1.000000000000000e+00,0.000000000000000e+00
	1.369982968978105e-12,1.719373043670115e-09
	-6.998738601345964e-13,8.428242077745373e-16
	-6.998738601023464e-13,8.428509869684123e-16
	-6.998738601023464e-13,8.428509869684123e-16
	6.998743676206074e-13,0.0
	-2.430995982381694e+02,0.0
	3.140388364320611e+00,0.0

 10	1.333521432163325e-03,0.000000000000000e+00
	1.000000000000000e+00,0.000000000000000e+00
	1.537146151420574e-12,1.874433781521383e-09
	-7.852713441018333e-13,9.732781843567325e-16
	-7.852713440635043e-13,9.733091084857042e-16
	-7.852713440635043e-13,9.733091084857042e-16
	7.852719472500742e-13,0.0
	-2.420995983367579e+02,0.0
	3.140353198441673e+00,0.0

 11	1.372460961007563e-03,0.000000000000000e+00
	1.000000000000000e+00,0.000000000000000e+00
	1.724706322881695e-12,2.043478585981374e-09
	-8.810888890238555e-13,1.123924080309096e-15
	-8.810888889783012e-13,1.123959790934071e-15
	-8.810888889783012e-13,1.123959790934071e-15
	8.810896058668657e-13,0.0
	-2.410995984411884e+02,0.0
	3.140317005700767e+00,0.0

 12	1.412537544622755e-03,0.000000000000000e+00
	1.000000000000000e+00,0.000000000000000e+00
	1.935152291655938e-12,2.227768601863910e-09
	-9.885979331159527e-13,1.297887239638267e-15
	-9.885979330618116e-13,1.297928477622136e-15
	-9.885979330618116e-13,1.297928477622136e-15
	9.885987850854456e-13,0.0
	-2.400995985518122e+02,0.0
	3.140279756113004e+00,0.0

 13	1.453784385607663e-03,0.000000000000000e+00
	1.000000000000000e+00,0.000000000000000e+00
	2.171276546437238e-12,2.428678709516373e-09
	-1.109225053235329e-12,1.498776753001243e-15
	-1.109225053170982e-12,1.498824373879025e-15
	-1.109225053170982e-12,1.498824373879025e-15
	1.109226065802942e-12,0.0
	-2.390995986689846e+02,0.0
	3.140241418817921e+00,0.0

 14	1.496235656094435e-03,0.000000000000000e+00
	1.000000000000000e+00,0.000000000000000e+00
	2.436212310896136e-12,2.647707781966522e-09
	-1.244570894601306e-12,1.730760332899872e-15
	-1.244570894524829e-12,1.730815324627870e-15
	-1.244570894524829e-12,1.730815324627870e-15
	1.244572098040134e-12,0.0
	-2.380995987930961e+02,0.0
	3.140201962053915e+00,0.0

 15	1.539926526059493e-03,0.000000000000000e+00
	1.000000000000000e+00,0.000000000000000e+00
	2.733475119601783e-12,2.886489867107964e-09
	-1.396431410283552e-12,1.998650778195998e-15
	-1.396431410192660e-12,1.998714281648196e-15
	-1.396431410192660e-12,1.998714281648196e-15
	1.396432840573237e-12,0.0
	-2.370995989245701e+02,0.0
	3.140161353131933e+00,0.0

 16	1.584893192461115e-03,0.000000000000000e+00
	1.000000000000000e+00,0.000000000000000e+00
	3.067009466979678e-12,3.146806378350819e-09
	-1.566821692292960e-12,2.308005821766171e-15
	-1.566821692184935e-12,2.308079154403110e-15
	-1.566821692184935e-12,2.308079154403110e-15
	1.566823392195382e-12,0.0
	-2.360995990638322e+02,0.0
	3.140119558408384e+00,0.0

 17	1.631172909227840e-03,0.000000000000000e+00
	1.000000000000000e+00,0.000000000000000e+00
	3.441241148274807e-12,3.430599384656015e-09
	-1.758002710482280e-12,2.665243432737995e-15
	-1.758002710353891e-12,2.665328115939138e-15
	-1.758002710353891e-12,2.665328115939138e-15
	1.758004730820026e-12,0.0
	-2.350995992113397e+02,0.0
	3.140076543257269e+00,0.0

 18	1.678804018122562e-03,0.000000000000000e+00
	1.000000000000000e+00,0.000000000000000e+00
	3.861135987070430e-12,3.739986099120221e-09
	-1.972511314069631e-12,3.077774965407990e-15
	-1.972511313917039e-12,3.077872756034657e-15
	-1.972511313917039e-12,3.077872756034657e-15
	1.972513715245455e-12,0.0
	-2.340995993675955e+02,0.0
	3.140032272041497e+00,0.0

 19	1.727825980507865e-03,0.000000000000000e+00
	1.000000000000000e+00,0.000000000000000e+00
	4.332265728667265e-12,4.077274674221855e-09
	-2.213193893893185e-12,3.554158917201343e-15
	-2.213193893711831e-12,3.554271844044991e-15
	-2.213193893711831e-12,3.554271844044991e-15
	2.213196747695892e-12,0.0
	-2.330995995331082e+02,0.0
	3.139986708083355e+00,0.0

 20	1.778279410038925e-03,0.000000000000000e+00
	1.000000000000000e+00,0.000000000000000e+00
	4.860881973622842e-12,4.444981421516262e-09
	-2.483244152043474e-12,4.104278485526956e-15
	-2.483244151827933e-12,4.104408891398992e-15
	-2.483244151827933e-12,4.104408891398992e-15
	2.483247543794210e-12,0.0
	-2.320995997084235e+02,0.0
	3.139939813634128e+00,0.0

 21	1.830206106311058e-03,0.000000000000000e+00
	1.000000000000000e+00,0.000000000000000e+00
	5.453999132538607e-12,4.845849584277736e-09
	-2.786245480062596e-12,4.739546607188793e-15
	-2.786245479806425e-12,4.739697197525111e-15
	-2.786245479806425e-12,4.739697197525111e-15
	2.786249511165728e-12,0.0
	-2.310995998941322e+02,0.0
	3.139891549842820e+00,0.0

 22	1.883649089489803e-03,0.000000000000000e+00
	1.000000000000000e+00,0.000000000000000e+00
	6.119487502877154e-12,5.282869803151134e-09
	-3.126218508043128e-12,5.473142734167837e-15
	-3.126218507738670e-12,5.473316633156438e-15
	-3.126218507738670e-12,5.473316633156438e-15
	3.126223299017964e-12,0.0
	-2.300996000908421e+02,0.0
	3.139841876723973e+00,0.0

 23	1.938652635952210e-03,0.000000000000000e+00
	1.000000000000000e+00,0.000000000000000e+00
	6.866177702795027e-12,5.759302427440810e-09
	-3.507674455534964e-12,6.320286257913286e-15
	-3.507674455173115e-12,6.320487073309425e-15
	-3.507674455173115e-12,6.320487073309425e-15
	3.507680149618954e-12,0.0
	-2.290996002992134e+02,0.0
	3.139790753124533e+00,0.0

 24	1.995262314968882e-03,0.000000000000000e+00
	1.000000000000000e+00,0.000000000000000e+00
	7.703977847867910e-12,6.278701838556734e-09
	-3.935674992222962e-12,7.298552254746762e-15
	-3.935674991792901e-12,7.298784152720271e-15
	-3.935674991792901e-12,7.298784152720271e-15
	3.935681759654122e-12,0.0
	-2.280996005199249e+02,0.0
	3.139738136689762e+00,0.0

 25	2.053525026457149e-03,0.000000000000000e+00
	1.000000000000000e+00,0.000000000000000e+00
	8.644005025435820e-12,6.844942966991365e-09
	-4.415899402625119e-12,8.428236102791958e-15
	-4.415899402113992e-12,8.428503894359557e-15
	-4.415899402113992e-12,8.428503894359557e-15
	4.415907445731693e-12,0.0
	-2.270996007537168e+02,0.0
	3.139683983828147e+00,0.0

 26	2.113489039836650e-03,0.000000000000000e+00
	1.000000000000000e+00,0.000000000000000e+00
	9.698732811282422e-12,7.462250200745958e-09
	-4.954719946086140e-12,9.732774534962109e-15
	-4.954719945478665e-12,9.733083775797831e-15
	-4.954719945478665e-12,9.733083775797831e-15
	4.954729505335674e-12,0.0
	-2.260996010013610e+02,0.0
	3.139628249675286e+00,0.0

 27	2.175204034019526e-03,0.000000000000000e+00
	1.000000000000000e+00,0.000000000000000e+00
	1.088215678598286e-11,8.135228900790756e-09
	-5.559286411979039e-12,1.123923186315395e-14
	-5.559286411257053e-12,1.123958896884837e-14
	-5.559286411257053e-12,1.123958896884837e-14
	5.559297773167715e-12,0.0
	-2.250996012636788e+02,0.0
	3.139570888056718e+00,0.0

 28	2.238721138568343e-03,0.000000000000000e+00
	1.000000000000000e+00,0.000000000000000e+00
	1.220998024727054e-11,8.868899758719422e-09
	-6.237620992115911e-12,1.297886146100019e-14
	-6.237620991257829e-12,1.297927384015959e-14
	-6.237620991257829e-12,1.297927384015959e-14
	6.237634494913093e-12,0.0
	-2.240996015415390e+02,0.0
	3.139511851449673e+00,0.0

 29	2.304092976055850e-03,0.000000000000000e+00
	1.000000000000000e+00,0.000000000000000e+00
	1.369982258267123e-11,9.668736252890798e-09
	-6.998724729223746e-12,1.498775415377406e-14
	-6.998724728203916e-12,1.498823036172097e-14
	-6.998724728203916e-12,1.498823036172097e-14
	6.998740777327187e-12,0.0
	-2.230996018358647e+02,0.0
	3.139451090943694e+00,0.0

 30	2.371373705661660e-03,0.000000000000000e+00
	1.000000000000000e+00,0.000000000000000e+00
	1.537145306738611e-11,1.054070548250646e-08
	-7.852696953969672e-12,1.730758696707505e-14
	-7.852696952757601e-12,1.730813688333866e-14
	-7.852696952757601e-12,1.730813688333866e-14
	7.852716027174985e-12,0.0
	-2.220996021476320e+02,0.0
	3.139388556200125e+00,0.0

 31	2.440619068041985e-03,0.000000000000000e+00
	1.000000000000000e+00,0.000000000000000e+00
	1.724705318975692e-11,1.149131268424800e-08
	-8.810869295347869e-12,1.998648776795401e-14
	-8.810869293907321e-12,1.998712280123277e-14
	-8.810869293907321e-12,1.998712280123277e-14
	8.810891963893142e-12,0.0
	-2.210996024778694e+02,0.0
	3.139324195410404e+00,0.0

 32	2.511886431509585e-03,0.000000000000000e+00
	1.000000000000000e+00,0.000000000000000e+00
	1.935151098512753e-11,1.252764976355026e-08
	-9.885956042595828e-12,2.308003373639169e-14
	-9.885956040883732e-12,2.308076706124035e-14
	-9.885956040883732e-12,2.308076706124035e-14
	9.885982984210205e-12,0.0
	-2.200996028276768e+02,0.0
	3.139257955253139e+00,0.0

 33	2.585234839562196e-03,0.000000000000000e+00
	1.000000000000000e+00,0.000000000000000e+00
	2.171275128382829e-11,1.365744820262581e-08
	-1.109222285384143e-11,2.665240438169131e-14
	-1.109222285180660e-11,2.665325121184258e-14
	-1.109222285180660e-11,2.665325121184258e-14
	1.109225487400739e-11,0.0
	-2.190996031982137e+02,0.0
	3.139189780849938e+00,0.0

 34	2.660725059798815e-03,0.000000000000000e+00
	1.000000000000000e+00,0.000000000000000e+00
	2.436210625534318e-11,1.488913673989404e-08
	-1.244567605003868e-11,3.077771302432264e-14
	-1.244567604762028e-11,3.077869092831395e-14
	-1.244567604762028e-11,3.077869092831395e-14
	1.244571410607381e-11,0.0
	-2.180996035907023e+02,0.0
	3.139119615719943e+00,0.0

 35	2.738419634264367e-03,0.000000000000000e+00
	1.000000000000000e+00,0.000000000000000e+00
	2.733473116546264e-11,1.623190425108755e-08
	-1.396427500590375e-11,3.554154436623424e-14
	-1.396427500302948e-11,3.554267363188749e-14
	-1.396427500302948e-11,3.554267363188749e-14
	1.396432023558193e-11,0.0
	-2.170996040064504e+02,0.0
	3.139047401733035e+00,0.0

 36	2.818382931264460e-03,0.000000000000000e+00
	1.000000000000000e+00,0.000000000000000e+00
	3.067007086346419e-11,1.769576830125855e-08
	-1.566817045615530e-11,4.104273004853038e-14
	-1.566817045273923e-11,4.104403410384627e-14
	-1.566817045273923e-11,4.104403410384627e-14
	1.566822421172311e-11,0.0
	-2.160996044468268e+02,0.0
	3.138973079061683e+00,0.0

 37	2.900681198693160e-03,0.000000000000000e+00
	1.000000000000000e+00,0.000000000000000e+00
	3.441238318884250e-11,1.929164987888902e-08
	-1.757997187895323e-11,4.739539903190976e-14
	-1.757997187489322e-11,4.739690493110857e-14
	-1.757997187489322e-11,4.739690493110857e-14
	1.758003576755843e-11,0.0
	-2.150996049133024e+02,0.0
	3.138896586131374e+00,0.0

 38	2.985382618917966e-03,0.000000000000000e+00
	1.000000000000000e+00,0.000000000000000e+00
	3.861132624333418e-11,2.103145486988381e-08
	-1.972504750463507e-11,5.473134533787686e-14
	-1.972504749980974e-11,5.473308432266897e-14
	-1.972504749980974e-11,5.473308432266897e-14
	1.972512343637601e-11,0.0
	-2.140996054074211e+02,0.0
	3.138817859569602e+00,0.0

 39	3.072557365267454e-03,0.000000000000000e+00
	1.000000000000000e+00,0.000000000000000e+00
	4.332261732048925e-11,2.292816287904034e-08
	-2.213186093034446e-11,6.320276227156445e-14
	-2.213186092460954e-11,6.320477041929495e-14
	-2.213186092460954e-11,6.320477041929495e-14
	2.213195117537680e-11,0.0
	-2.130996059308131e+02,0.0
	3.138736834153370e+00,0.0

 40	3.162277660168387e-03,0.000000000000000e+00
	1.000000000000000e+00,0.000000000000000e+00
	4.860877223630756e-11,2.499592406164893e-08
	-2.483234880705891e-11,7.298539985053458e-14
	-2.483234880024294e-11,7.298771882264801e-14
	-2.483234880024294e-11,7.298771882264801e-14
	2.483245606346714e-11,0.0
	-2.120996064852194e+02,0.0
	3.138653442755155e+00,0.0

 41	3.254617834980467e-03,0.000000000000000e+00
	1.000000000000000e+00,0.000000000000000e+00
	5.453993487160430e-11,2.725016468770843e-08
	-2.786234461057885e-11,8.428221094412505e-14
	-2.786234460247806e-11,8.428488885047819e-14
	-2.786234460247806e-11,8.428488885047819e-14
	2.786247208504168e-11,0.0
	-2.110996070724815e+02,0.0
	3.138567616287297e+00,0.0

 42	3.349654391578285e-03,0.000000000000000e+00
	1.000000000000000e+00,0.000000000000000e+00
	6.119480793332995e-11,2.970770222620125e-08
	-3.126205411933688e-11,9.732756176609062e-14
	-3.126205410970907e-11,9.733065416304403e-14
	-3.126205410970907e-11,9.733065416304403e-14
	3.126220562299816e-11,0.0
	-2.100996076945351e+02,0.0
	3.138479283644761e+00,0.0

 43	3.447466065731503e-03,0.000000000000000e+00
	1.000000000000000e+00,0.000000000000000e+00
	6.866169728494854e-11,3.238687080781090e-08
	-3.507658890785450e-11,1.123920940709292e-13
	-3.507658889641183e-11,1.123956651139241e-13
	-3.507658889641183e-11,1.123956651139241e-13
	3.507676897026604e-11,0.0
	-2.090996083534459e+02,0.0
	3.138388371646235e+00,0.0

 44	3.548133892335764e-03,0.000000000000000e+00
	1.000000000000000e+00,0.000000000000000e+00
	7.703968370387857e-11,3.530765800227278e-08
	-3.935656493483899e-11,1.297883399258041e-13
	-3.935656492123937e-11,1.297924637003354e-13
	-3.935656492123937e-11,1.297924637003354e-13
	3.935677893938174e-11,0.0
	-2.080996090514070e+02,0.0
	3.138294804973503e+00,0.0

 45	3.651741272548387e-03,0.000000000000000e+00
	1.000000000000000e+00,0.000000000000000e+00
	8.643993761436954e-11,3.849185393071129e-08
	-4.415877416839489e-11,1.498772055422209e-13
	-4.415877415223171e-11,1.498819676008189e-13
	-4.415877415223171e-11,1.498819676008189e-13
	4.415902851322727e-11,0.0
	-2.070996097907155e+02,0.0
	3.138198506109044e+00,0.0

 46	3.758374042884452e-03,0.000000000000000e+00
	1.000000000000000e+00,0.000000000000000e+00
	9.698719423993405e-11,4.196321382486923e-08
	-4.954693815935142e-11,1.730754586787115e-13
	-4.954693814014144e-11,1.730809578158177e-13
	-4.954693814014144e-11,1.730809578158177e-13
	4.954724044869664e-11,0.0
	-2.060996105738374e+02,0.0
	3.138099395271822e+00,0.0

 47	3.868120546330533e-03,0.000000000000000e+00
	1.000000000000000e+00,0.000000000000000e+00
	1.088214087516005e-10,4.574763524671286e-08
	-5.559255356242754e-11,1.998643749511896e-13
	-5.559255353959645e-11,1.998707252527489e-13
	-5.559255353959645e-11,1.998707252527489e-13
	5.559291283391895e-11,0.0
	-2.050996114033605e+02,0.0
	3.137997390351187e+00,0.0

 48	3.981071705534985e-03,0.000000000000000e+00
	1.000000000000000e+00,0.000000000000000e+00
	1.220996133722132e-10,4.987335128962701e-08
	-6.237584082311396e-11,2.307997224231497e-13
	-6.237584079597914e-11,2.308070556334375e-13
	-6.237584079597914e-11,2.308070556334375e-13
	6.237626781799522e-11,0.0
	-2.040996122820360e+02,0.0
	3.137892406838854e+00,0.0

 49	4.097321098135428e-03,0.000000000000000e+00
	1.000000000000000e+00,0.000000000000000e+00
	1.369980010803818e-10,5.437114120300634e-08
	-6.998680861849747e-11,2.665232916172552e-13
	-6.998680858624769e-11,2.665317598720430e-13
	-6.998680858624769e-11,2.665317598720430e-13
	6.998731610275603e-11,0.0
	-2.030996132127756e+02,0.0
	3.137784357758893e+00,0.0

 50	4.216965034285836e-03,0.000000000000000e+00
	1.000000000000000e+00,0.000000000000000e+00
	1.537142635624523e-10,5.927456001120472e-08
	-7.852644817514852e-11,3.077762101474647e-13
	-7.852644813681961e-11,3.077859891302235e-13
	-7.852644813681961e-11,3.077859891302235e-13
	7.852705132118310e-11,0.0
	-2.020996141986632e+02,0.0
	3.137673153595681e+00,0.0

 51	4.340102636447452e-03,0.000000000000000e+00
	1.000000000000000e+00,0.000000000000000e+00
	1.724702144350727e-10,6.462018883977733e-08
	-8.810807331070842e-11,3.554143181950309e-13
	-8.810807326515444e-11,3.554256107816519e-13
	-8.810807326515444e-11,3.554256107816519e-13
	8.810879015094136e-11,0.0
	-2.010996152429699e+02,0.0
	3.137558702219742e+00,0.0

 52	4.466835921509646e-03,0.000000000000000e+00
	1.000000000000000e+00,0.000000000000000e+00
	1.935147325464030e-10,7.044790781649228e-08
	-9.885882397934446e-11,4.104259238056729e-13
	-9.885882392520346e-11,4.104389642733157e-13
	-9.885882392520346e-11,4.104389642733157e-13
	9.885967594534070e-11,0.0
	-2.000996163491579e+02,0.0
	3.137440908811424e+00,0.0

 53	4.597269885308737e-03,0.000000000000000e+00
	1.000000000000000e+00,0.000000000000000e+00
	2.171270644107984e-10,7.680119358276923e-08
	-1.109213532702996e-10,4.739523063553692e-13
	-1.109213532059529e-10,4.739673652427532e-13
	-1.109213532059529e-10,4.739673652427532e-13
	1.109223658335102e-10,0.0
	-1.990996175208880e+02,0.0
	3.137319675782353e+00,0.0

 54	4.731512589614821e-03,0.000000000000000e+00
	1.000000000000000e+00,0.000000000000000e+00
	2.436205295962697e-10,8.372744363467686e-08
