Title: * sky130 bjt 3-stage output rebias ac candidate: cout=68n, rout=10meg/10meg
Date: Fri May 22 20:57:18  2026
Command: ngspice-46, Build Mar 29 2026   15:02:07
Plotname: AC Analysis
Flags: complex
No. Variables: 8
No. Points: 721
Variables:
	0	frequency	frequency grid=3
	1	v(vin)	voltage
	2	v(b3_collector)	voltage
	3	v(vout_final)	voltage
	4	gain	notype
	5	gain_vv	notype
	6	gain_db	decibel
	7	phase_deg	phase
Values:
 0	1.000000000000000e-03,0.000000000000000e+00
	1.000000000000000e+00,0.000000000000000e+00
	5.204570444663501e-13,7.904422206476601e-10
	-1.688598197869615e-12,4.719697658843077e-15
	-1.688598197869615e-12,4.719697658843077e-15
	1.688604793726022e-12,0.0
	-2.354494396431273e+02,0.0
	3.138797621962742e+00,0.0

 1	1.029200527194428e-03,0.000000000000000e+00
	1.000000000000000e+00,0.000000000000000e+00
	5.839623871367867e-13,8.617278312065540e-10
	-1.894637625798356e-12,5.450220212180806e-15
	-1.894637625798356e-12,5.450220212180806e-15
	1.894645464985783e-12,0.0
	-2.344494409065879e+02,0.0
	3.138716005779020e+00,0.0

 2	1.059253725177289e-03,0.000000000000000e+00
	1.000000000000000e+00,0.000000000000000e+00
	6.552165495211617e-13,9.394422952927773e-10
	-2.125817531637450e-12,6.293814135164921e-15
	-2.125817531637450e-12,6.293814135164921e-15
	2.125826848525888e-12,0.0
	-2.334494422449108e+02,0.0
	3.138632006378942e+00,0.0

 3	1.090184492385128e-03,0.000000000000000e+00
	1.000000000000000e+00,0.000000000000000e+00
	7.351650298617330e-13,1.024165395321587e-09
	-2.385205492265952e-12,7.267980758213741e-15
	-2.385205492265952e-12,7.267980758213741e-15
	2.385216565404485e-12,0.0
	-2.324494436625383e+02,0.0
	3.138545554173070e+00,0.0

 4	1.122018454301964e-03,0.000000000000000e+00
	1.000000000000000e+00,0.000000000000000e+00
	8.248686944927761e-13,1.116529201019105e-09
	-2.676243380773072e-12,8.392930284428726e-15
	-2.676243380773072e-12,8.392930284428726e-15
	2.676256541217684e-12,0.0
	-2.314494451641601e+02,0.0
	3.138456577540074e+00,0.0

 5	1.154781984689459e-03,0.000000000000000e+00
	1.000000000000000e+00,0.000000000000000e+00
	9.255178548467402e-13,1.217222784911949e-09
	-3.002793036593280e-12,9.692001070243482e-15
	-3.002793036593280e-12,9.692001070243482e-15
	3.002808677804471e-12,0.0
	-2.304494467547599e+02,0.0
	3.138365002767411e+00,0.0

 6	1.188502227437019e-03,0.000000000000000e+00
	1.000000000000000e+00,0.000000000000000e+00
	1.038448062115482e-12,1.326997363085568e-09
	-3.369187508085829e-12,1.119214380231633e-14
	-3.369187508085829e-12,1.119214380231633e-14
	3.369206097691931e-12,0.0
	-2.294494484396078e+02,0.0
	3.138270753990283e+00,0.0

 7	1.223207119049932e-03,0.000000000000000e+00
	1.000000000000000e+00,0.000000000000000e+00
	1.165157829141399e-12,1.446671899552664e-09
	-3.780288547441785e-12,1.292448061515116e-14
	-3.780288547441785e-12,1.292448061515116e-14
	3.780310641219672e-12,0.0
	-2.284494502242904e+02,0.0
	3.138173753128798e+00,0.0

 8	1.258925411794168e-03,0.000000000000000e+00
	1.000000000000000e+00,0.000000000000000e+00
	1.307328514702921e-12,1.577139216050306e-09
	-4.241551120800587e-12,1.492495074874737e-14
	-4.241551120800587e-12,1.492495074874737e-14
	4.241577379291762e-12,0.0
	-2.274494521147157e+02,0.0
	3.138073919823316e+00,0.0

 9	1.295686697517020e-03,0.000000000000000e+00
	1.000000000000000e+00,0.000000000000000e+00
	1.466846634034108e-12,1.719372652836131e-09
	-4.759095789487100e-12,1.723505614071337e-14
	-4.759095789487100e-12,1.723505614071337e-14
	4.759126997745913e-12,0.0
	-2.264494541171605e+02,0.0
	3.137971171367890e+00,0.0

 10	1.333521432163325e-03,0.000000000000000e+00
	1.000000000000000e+00,0.000000000000000e+00
	1.645828891640962e-12,1.874433330193569e-09
	-5.339789922787444e-12,1.990272242071635e-14
	-5.339789922787444e-12,1.990272242071635e-14
	5.339827013851861e-12,0.0
	-2.254494562382546e+02,0.0
	3.137865422641781e+00,0.0

 11	1.372460961007563e-03,0.000000000000000e+00
	1.000000000000000e+00,0.000000000000000e+00
	1.846650268559097e-12,2.043478064796555e-09
	-5.991338819746586e-12,2.298329316878717e-14
	-5.991338819746586e-12,2.298329316878717e-14
	5.991382902533212e-12,0.0
	-2.244494584850300e+02,0.0
	3.137756586038964e+00,0.0

 12	1.412537544622755e-03,0.000000000000000e+00
	1.000000000000000e+00,0.000000000000000e+00
	2.071975536765949e-12,2.227768000009154e-09
	-6.722387949043017e-12,2.654067806395043e-14
	-6.722387949043017e-12,2.654067806395043e-14
	6.722440341500316e-12,0.0
	-2.234494608649409e+02,0.0
	3.137644571395586e+00,0.0

 13	1.453784385607663e-03,0.000000000000000e+00
	1.000000000000000e+00,0.000000000000000e+00
	2.324794618923778e-12,2.428678014505805e-09
	-7.542637663465284e-12,3.064867874199289e-14
	-7.542637663465284e-12,3.064867874199289e-14
	7.542699931976193e-12,0.0
	-2.224494633858617e+02,0.0
	3.137529285915301e+00,0.0

 14	1.496235656094435e-03,0.000000000000000e+00
	1.000000000000000e+00,0.000000000000000e+00
	2.608462262624753e-12,2.647706979381241e-09
	-8.462971910945647e-12,3.539251986743227e-14
	-8.462971910945647e-12,3.539251986743227e-14
	8.463045917157580e-12,0.0
	-2.214494660561516e+02,0.0
	3.137410634092430e+00,0.0

 15	1.539926526059493e-03,0.000000000000000e+00
	1.000000000000000e+00,0.000000000000000e+00
	2.926742555614225e-12,2.886488940297528e-09
	-9.495602649943870e-12,4.087061718248109e-14
	-9.495602649943870e-12,4.087061718248109e-14
	9.495690606426156e-12,0.0
	-2.204494688846726e+02,0.0
	3.137288517632887e+00,0.0

 16	1.584893192461115e-03,0.000000000000000e+00
	1.000000000000000e+00,0.000000000000000e+00
	3.283858872674880e-12,3.146805308088156e-09
	-1.065423188524581e-11,4.719661921155408e-14
	-1.065423188524581e-11,4.719661921155408e-14
	1.065433642163854e-11,0.0
	-2.194494718807883e+02,0.0
	3.137162835372783e+00,0.0

 17	1.631172909227840e-03,0.000000000000000e+00
	1.000000000000000e+00,0.000000000000000e+00
	3.684549916893691e-12,3.430598148736278e-09
	-1.195423347391655e-11,5.450176497633297e-14
	-1.195423347391655e-11,5.450176497633297e-14
	1.195435771554844e-11,0.0
	-2.184494750544296e+02,0.0
	3.137033483194675e+00,0.0

 18	1.678804018122562e-03,0.000000000000000e+00
	1.000000000000000e+00,0.000000000000000e+00
	4.134132598967727e-12,3.739984671903804e-09
	-1.341285711361854e-11,6.293760663272956e-14
	-1.341285711361854e-11,6.293760663272956e-14
	1.341300477494420e-11,0.0
	-2.174494784161242e+02,0.0
	3.136900353941356e+00,0.0

 19	1.727825980507865e-03,0.000000000000000e+00
	1.000000000000000e+00,0.000000000000000e+00
	4.638572588914035e-12,4.077273026099157e-09
	-1.504945721969957e-11,7.267915351089135e-14
	-1.504945721969957e-11,7.267915351089135e-14
	1.504963271534966e-11,0.0
	-2.164494819770085e+02,0.0
	3.136763337327146e+00,0.0

 20	1.778279410038925e-03,0.000000000000000e+00
	1.000000000000000e+00,0.000000000000000e+00
	5.204563476310875e-12,4.444979518296449e-09
	-1.688574972755229e-11,8.392850278066721e-14
	-1.688574972755229e-11,8.392850278066721e-14
	1.688595830431637e-11,0.0
	-2.154494857488785e+02,0.0
	3.136622319846587e+00,0.0

 21	1.830206106311058e-03,0.000000000000000e+00
	1.000000000000000e+00,0.000000000000000e+00
	5.839615589471944e-12,4.845847386475629e-09
	-1.894610022730687e-11,9.691903206012299e-14
	-1.894610022730687e-11,9.691903206012299e-14
	1.894634812099506e-11,0.0
	-2.144494897442498e+02,0.0
	3.136477184680480e+00,0.0

 22	1.883649089489803e-03,0.000000000000000e+00
	1.000000000000000e+00,0.000000000000000e+00
	6.552155652169306e-12,5.282867265171206e-09
	-2.125784725371160e-11,1.119202409425167e-13
	-2.125784725371160e-11,1.119202409425167e-13
	2.125814187558419e-11,0.0
	-2.134494939763553e+02,0.0
	3.136327811599186e+00,0.0

 23	1.938652635952210e-03,0.000000000000000e+00
	1.000000000000000e+00,0.000000000000000e+00
	7.351638600151371e-12,5.759299496631298e-09
	-2.385166501997276e-11,1.292433418759752e-13
	-2.385166501997276e-11,1.292433418759752e-13
	2.385201517831169e-11,0.0
	-2.124494984592286e+02,0.0
	3.136174076863103e+00,0.0

 24	1.995262314968882e-03,0.000000000000000e+00
	1.000000000000000e+00,0.000000000000000e+00
	8.248673041290850e-12,6.278698454114555e-09
	-2.676197040817428e-11,1.492477163778476e-13
	-2.676197040817428e-11,1.492477163778476e-13
	2.676238657162025e-11,0.0
	-2.114495032077185e+02,0.0
	3.136015853120246e+00,0.0

 25	2.053525026457149e-03,0.000000000000000e+00
	1.000000000000000e+00,0.000000000000000e+00
	9.255162023983376e-12,6.844939058703102e-09
	-3.002737961534950e-11,1.723483705125708e-13
	-3.002737961534950e-11,1.723483705125708e-13
	3.002787422587761e-11,0.0
	-2.104495082375715e+02,0.0
	3.135853009300846e+00,0.0

 26	2.113489039836650e-03,0.000000000000000e+00
	1.000000000000000e+00,0.000000000000000e+00
	1.038446098179323e-11,7.462245687530639e-09
	-3.369122051359953e-11,1.990245442938088e-13
	-3.369122051359953e-11,1.990245442938088e-13
	3.369180835849007e-11,0.0
	-2.094495135654553e+02,0.0
	3.135685410508873e+00,0.0

 27	2.175204034019526e-03,0.000000000000000e+00
	1.000000000000000e+00,0.000000000000000e+00
	1.165155495002427e-11,8.135223689018694e-09
	-3.780210752108999e-11,2.298296536045952e-13
	-3.780210752108999e-11,2.298296536045952e-13
	3.780280617501463e-11,0.0
	-2.084495192090282e+02,0.0
	3.135512917910400e+00,0.0

 28	2.238721138568343e-03,0.000000000000000e+00
	1.000000000000000e+00,0.000000000000000e+00
	1.307325740577085e-11,8.868893740268265e-09
	-4.241458661037700e-11,2.654027708724912e-13
	-4.241458661037700e-11,2.654027708724912e-13
	4.241541696081696e-11,0.0
	-2.074495251869953e+02,0.0
	3.135335388618722e+00,0.0

 29	2.304092976055850e-03,0.000000000000000e+00
	1.000000000000000e+00,0.000000000000000e+00
	1.466843336984758e-11,9.668729302902650e-09
	-4.758985901060994e-11,3.064818826540904e-13
	-4.758985901060994e-11,3.064818826540904e-13
	4.759084588231362e-11,0.0
	-2.064495315191724e+02,0.0
	3.135152675576117e+00,0.0

 30	2.371373705661660e-03,0.000000000000000e+00
	1.000000000000000e+00,0.000000000000000e+00
	1.645824973096102e-11,1.054069745679757e-08
	-5.339659320407002e-11,3.539191991421775e-13
	-5.339659320407002e-11,3.539191991421775e-13
	5.339776610121867e-11,0.0
	-2.054495382265476e+02,0.0
	3.134964627432181e+00,0.0

 31	2.440619068041985e-03,0.000000000000000e+00
	1.000000000000000e+00,0.000000000000000e+00
	1.846645611368059e-11,1.149130341632101e-08
	-5.991183598855703e-11,4.086988331710525e-13
	-5.991183598855703e-11,4.086988331710525e-13
	5.991322997682560e-11,0.0
	-2.044495453313443e+02,0.0
	3.134771088418606e+00,0.0

 32	2.511886431509585e-03,0.000000000000000e+00
	1.000000000000000e+00,0.000000000000000e+00
	2.071970001695215e-11,1.252763906113305e-08
	-6.722203469084824e-11,4.719572154431334e-13
	-6.722203469084824e-11,4.719572154431334e-13
	6.722369144573075e-11,0.0
	-2.034495528571187e+02,0.0
	3.134571898220325e+00,0.0

 33	2.585234839562196e-03,0.000000000000000e+00
	1.000000000000000e+00,0.000000000000000e+00
	2.324788040491638e-11,1.365743584369460e-08
	-7.542418409142274e-11,5.450066694609484e-13
	-7.542418409142274e-11,5.450066694609484e-13
	7.542615314416202e-11,0.0
	-2.024495608288087e+02,0.0
	3.134366891842898e+00,0.0

 34	2.660725059798815e-03,0.000000000000000e+00
	1.000000000000000e+00,0.000000000000000e+00
	2.608454444157824e-11,1.488912246805086e-08
	-8.462711327344942e-11,6.293626351790931e-13
	-8.462711327344942e-11,6.293626351790931e-13
	8.462945349181807e-11,0.0
	-2.014495692728348e+02,0.0
	3.134155899476048e+00,0.0

 35	2.738419634264367e-03,0.000000000000000e+00
	1.000000000000000e+00,0.000000000000000e+00
	2.926733263369255e-11,1.623188777025598e-08
	-9.495292946579630e-11,7.267751060789350e-13
	-9.495292946579630e-11,7.267751060789350e-13
	9.495571081399634e-11,0.0
	-2.004495782171863e+02,0.0
	3.133938746353220e+00,0.0

 36	2.818382931264460e-03,0.000000000000000e+00
	1.000000000000000e+00,0.000000000000000e+00
	3.283847828847992e-11,1.769574926953543e-08
	-1.065386380315014e-10,8.392649317599622e-13
	-1.065386380315014e-10,8.392649317599622e-13
	1.065419436617943e-10,0.0
	-1.994495876914983e+02,0.0
	3.133715252607066e+00,0.0

 37	2.900681198693160e-03,0.000000000000000e+00
	1.000000000000000e+00,0.000000000000000e+00
	3.684536791309518e-11,1.929162790145048e-08
	-1.195379600882492e-10,9.691657390513990e-13
	-1.195379600882492e-10,9.691657390513990e-13
	1.195418888268443e-10,0.0
	-1.984495977271833e+02,0.0
	3.133485233120719e+00,0.0

 38	2.985382618917966e-03,0.000000000000000e+00
	1.000000000000000e+00,0.000000000000000e+00
	4.134116999220831e-11,2.103142949080167e-08
	-1.341233718702601e-10,1.119172341198361e-12
	-1.341233718702601e-10,1.119172341198361e-12
	1.341280411717750e-10,0.0
	-1.974496083574970e+02,0.0
	3.133248497374746e+00,0.0

 39	3.072557365267454e-03,0.000000000000000e+00
	1.000000000000000e+00,0.000000000000000e+00
	4.638554048632281e-11,2.292813357181614e-08
	-1.504883928786243e-10,1.292396639221626e-12
	-1.504883928786243e-10,1.292396639221626e-12
	1.504939423374384e-10,0.0
	-1.964496196176646e+02,0.0
	3.133004849289660e+00,0.0

 40	3.162277660168387e-03,0.000000000000000e+00
	1.000000000000000e+00,0.000000000000000e+00
	5.204541441203338e-11,2.499589021829369e-08
	-1.688501531678289e-10,1.492432174953821e-12
	-1.688501531678289e-10,1.492432174953821e-12
	1.688567486912979e-10,0.0
	-1.954496315450108e+02,0.0
	3.132754087063853e+00,0.0

 41	3.254617834980467e-03,0.000000000000000e+00
	1.000000000000000e+00,0.000000000000000e+00
	5.839589400773871e-11,2.725012560613285e-08
	-1.894522738174518e-10,1.723428674692562e-12
	-1.894522738174518e-10,1.723428674692562e-12
	1.894601125857353e-10,0.0
	-1.944496441790681e+02,0.0
	3.132496003006819e+00,0.0

 42	3.349654391578285e-03,0.000000000000000e+00
	1.000000000000000e+00,0.000000000000000e+00
	6.552124526941751e-11,2.970765709564752e-08
	-2.125680987894562e-10,1.990178129603487e-12
	-2.125680987894562e-10,1.990178129603487e-12
	2.125774151502261e-10,0.0
	-1.934496575616969e+02,0.0
	3.132230383367542e+00,0.0

 43	3.447466065731503e-03,0.000000000000000e+00
	1.000000000000000e+00,0.000000000000000e+00
	7.351601607881755e-11,3.238681869204831e-08
	-2.385043210297231e-10,2.298214198263388e-12
	-2.385043210297231e-10,2.298214198263388e-12
	2.385153935039630e-10,0.0
	-1.924496717372494e+02,0.0
	3.131957008157903e+00,0.0

 44	3.548133892335764e-03,0.000000000000000e+00
	1.000000000000000e+00,0.000000000000000e+00
	8.248629076043818e-11,3.530759782014635e-08
	-2.676050509009278e-10,2.653926993035567e-12
	-2.676050509009278e-10,2.653926993035567e-12
	2.676182105092487e-10,0.0
	-1.914496867527187e+02,0.0
	3.131675650970958e+00,0.0

 45	3.651741272548387e-03,0.000000000000000e+00
	1.000000000000000e+00,0.000000000000000e+00
	9.255109771394562e-11,3.849178443375159e-08
	-3.002563808980571e-10,3.064695631010043e-12
	-3.002563808980571e-10,3.064695631010043e-12
	3.002720210564246e-10,0.0
	-1.904497026578451e+02,0.0
	3.131386078793954e+00,0.0

 46	3.758374042884452e-03,0.000000000000000e+00
	1.000000000000000e+00,0.000000000000000e+00
	1.038439887972194e-10,4.196313357136830e-08
	-3.368915071697846e-10,3.539041298569250e-12
	-3.368915071697846e-10,3.539041298569250e-12
	3.369100954504659e-10,0.0
	-1.894497195053559e+02,0.0
	3.131088051815922e+00,0.0

 47	3.868120546330533e-03,0.000000000000000e+00
	1.000000000000000e+00,0.000000000000000e+00
	1.165148114188366e-10,4.574754257181940e-08
	-3.779964757624379e-10,4.086804004171976e-12
	-3.779964757624379e-10,4.086804004171976e-12
	3.780185678717275e-10,0.0
	-1.884497373510765e+02,0.0
	3.130781323229694e+00,0.0

 48	3.981071705534985e-03,0.000000000000000e+00
	1.000000000000000e+00,0.000000000000000e+00
	1.307316968502303e-10,4.987324427083490e-08
	-4.241166297687941e-10,4.719346685013935e-12
	-4.241166297687941e-10,4.719346685013935e-12
	4.241428861593387e-10,0.0
	-1.874497562541447e+02,0.0
	3.130465639028189e+00,0.0

 49	4.097321098135428e-03,0.000000000000000e+00
	1.000000000000000e+00,0.000000000000000e+00
	1.466832911403734e-10,5.437101762023674e-08
	-4.758638428637356e-10,5.449790900547367e-12
	-4.758638428637356e-10,5.449790900547367e-12
	4.758950484780250e-10,0.0
	-1.864497762772065e+02,0.0
	3.130140737794802e+00,0.0

 50	4.216965034285836e-03,0.000000000000000e+00
	1.000000000000000e+00,0.000000000000000e+00
	1.645812582332919e-10,5.927441730078543e-08
	-5.339246351264511e-10,6.293289000778021e-12
	-5.339246351264511e-10,6.293289000778021e-12
	5.339617228616310e-10,0.0
	-1.854497974866122e+02,0.0
	3.129806350487727e+00,0.0

 51	4.340102636447452e-03,0.000000000000000e+00
	1.000000000000000e+00,0.000000000000000e+00
	1.846630884996740e-10,6.462002404127716e-08
	-5.990692787388883e-10,7.267338413543377e-12
	-5.990692787388883e-10,7.267338413543377e-12
	5.991133573342768e-10,0.0
	-1.844498199526460e+02,0.0
	3.129462200218049e+00,0.0

 52	4.466835921509646e-03,0.000000000000000e+00
	1.000000000000000e+00,0.000000000000000e+00
	2.071952499468536e-10,7.044771751125740e-08
	-6.721620142690626e-10,8.392144568315147e-12
	-6.721620142690626e-10,8.392144568315147e-12
	6.722144014499385e-10,0.0
	-1.834498437497604e+02,0.0
	3.129108002021416e+00,0.0

 53	4.597269885308737e-03,0.000000000000000e+00
	1.000000000000000e+00,0.000000000000000e+00
	2.324767239181785e-10,7.680097382308368e-08
	-7.541725129623616e-10,9.691039982488154e-12
	-7.541725129623616e-10,9.691039982488154e-12
	7.542347748306926e-10,0.0
	-1.824498689568017e+02,0.0
	3.128743462623126e+00,0.0

 54	4.731512589614821e-03,0.000000000000000e+00
	1.000000000000000e+00,0.000000000000000e+00
	2.608429721909761e-10,8.372718986181611e-08
	-8.461887369631911e-10,1.119096820042256e-11
	-8.461887369631911e-10,1.119096820042256e-11
	8.462627348126724e-10,0.0
	-1.814498956573086e+02,0.0
	3.128368280196426e+00,0.0

 55	4.869675251658647e-03,0.000000000000000e+00
	1.000000000000000e+00,0.000000000000000e+00
	2.926703881121947e-10,9.127803686332317e-08
	-9.494313679245643e-10,1.292304262026567e-11
	-9.494313679245643e-10,1.292304262026567e-11
	9.495193138792253e-10,0.0
	-1.804499239397428e+02,0.0
	3.127982144113848e+00,0.0

 56	5.011872336272740e-03,0.000000000000000e+00
	1.000000000000000e+00,0.000000000000000e+00
	3.283812908228099e-10,9.950984587643356e-08
	-1.065269995210760e-09,1.492319179574389e-11
	-1.065269995210760e-09,1.492319179574389e-11
	1.065374518350099e-09,0.0
	-1.794499538978285e+02,0.0
	3.127584734691375e+00,0.0

 57	5.158221650723075e-03,0.000000000000000e+00
	1.000000000000000e+00,0.000000000000000e+00
	3.684495288389049e-10,1.084840279858859e-07
	-1.195241278232751e-09,1.723290459318866e-11
	-1.195241278232751e-09,1.723290459318866e-11
	1.195365503179751e-09,0.0
	-1.784499856308273e+02,0.0
	3.127175722925240e+00,0.0

 58	5.308844442309902e-03,0.000000000000000e+00
	1.000000000000000e+00,0.000000000000000e+00
	4.134067673301857e-10,1.182675324291529e-07
	-1.341069323568943e-09,1.990009065358770e-11
	-1.341069323568943e-09,1.990009065358770e-11
	1.341216963889766e-09,0.0
	-1.774500192438873e+02,0.0
	3.126754770221156e+00,0.0

 59	5.463865498818562e-03,0.000000000000000e+00
	1.000000000000000e+00,0.000000000000000e+00
	4.638495425161362e-10,1.289333460250898e-07
	-1.504688546872243e-09,2.298007399986761e-11
	-1.504688546872243e-09,2.298007399986761e-11
	1.504864016079041e-09,0.0
	-1.764500548483756e+02,0.0
	3.126321528115759e+00,0.0

 60	5.623413251903512e-03,0.000000000000000e+00
	1.000000000000000e+00,0.000000000000000e+00
	5.204471767700225e-10,1.405610376387539e-07
	-1.688269322442701e-09,2.653674038909044e-11
	-1.688269322442701e-09,2.653674038909044e-11
	1.688477865916996e-09,0.0
	-1.754500925622607e+02,0.0
	3.125875637990053e+00,0.0

 61	5.787619883491228e-03,0.000000000000000e+00
	1.000000000000000e+00,0.000000000000000e+00
	5.839506594450819e-10,1.532373517439983e-07
	-1.894246760261160e-09,3.064386219602089e-11
	-1.894246760261160e-09,3.064386219602089e-11
	1.894494612040422e-09,0.0
	-1.744501325104923e+02,0.0
	3.125416730774638e+00,0.0

 62	5.956621435290127e-03,0.000000000000000e+00
	1.000000000000000e+00,0.000000000000000e+00
	6.552026112430144e-10,1.670568555102890e-07
