Title: * sky130 bjt 3-stage cout pole-alignment ac sweep: cout=3.3n, rout=10meg/10meg
Date: Fri May 22 21:26:15  2026
Command: ngspice-46, Build Mar 29 2026   15:02:07
Plotname: AC Analysis
Flags: complex
No. Variables: 8
No. Points: 721
Variables:
	0	frequency	frequency grid=3
	1	v(vin)	voltage
	2	v(b3_collector)	voltage
	3	v(vout_final)	voltage
	4	gain	notype
	5	gain_vv	notype
	6	gain_db	decibel
	7	phase_deg	phase
Values:
 0	1.000000000000000e-03,0.000000000000000e+00
	1.000000000000000e+00,0.000000000000000e+00
	4.821419258596051e-13,7.904423317656733e-10
	-8.194717206064857e-14,5.850630394125278e-17
	-8.194717206064857e-14,5.850630394125278e-17
	8.194719294597675e-14,0.0
	-2.617293183669342e+02,0.0
	3.140878702241268e+00,0.0

 1	1.029200527194428e-03,0.000000000000000e+00
	1.000000000000000e+00,0.000000000000000e+00
	5.409721339609296e-13,8.617279595235824e-10
	-9.194623757118220e-14,6.756202511948759e-17
	-9.194623757118220e-14,6.756202511948759e-17
	9.194626239344106e-14,0.0
	-2.607293184019048e+02,0.0
	3.140857854486049e+00,0.0

 2	1.059253725177289e-03,0.000000000000000e+00
	1.000000000000000e+00,0.000000000000000e+00
	6.069807122831133e-13,9.394424434709269e-10
	-1.031653732682784e-13,7.801940864660331e-17
	-1.031653732682784e-13,7.801940864660331e-17
	1.031654027695880e-13,0.0
	-2.597293184389453e+02,0.0
	3.140836397965437e+00,0.0

 3	1.090184492385128e-03,0.000000000000000e+00
	1.000000000000000e+00,0.000000000000000e+00
	6.810435543063625e-13,1.024165566434975e-09
	-1.157534501676682e-13,9.009540656973961e-17
	-1.157534501676682e-13,9.009540656973961e-17
	1.157534852300402e-13,0.0
	-2.587293184781851e+02,0.0
	3.140814314903166e+00,0.0

 4	1.122018454301964e-03,0.000000000000000e+00
	1.000000000000000e+00,0.000000000000000e+00
	7.641434286511449e-13,1.116529398617757e-09
	-1.298775042847418e-13,1.040405511972933e-16
	-1.298775042847418e-13,1.040405511972933e-16
	1.298775459564486e-13,0.0
	-2.577293185197445e+02,0.0
	3.140791587003892e+00,0.0

 5	1.154781984689459e-03,0.000000000000000e+00
	1.000000000000000e+00,0.000000000000000e+00
	8.573830198088679e-13,1.217223013095217e-09
	-1.457249530970638e-13,1.201441527163520e-16
	-1.457249530970638e-13,1.201441527163520e-16
	1.457250026239797e-13,0.0
	-2.567293185637689e+02,0.0
	3.140768195438042e+00,0.0

 6	1.188502227437019e-03,0.000000000000000e+00
	1.000000000000000e+00,0.000000000000000e+00
	9.619995600871330e-13,1.326997626587278e-09
	-1.635060824566159e-13,1.387403013080613e-16
	-1.635060824566159e-13,1.387403013080613e-16
	1.635061413194650e-13,0.0
	-2.557293186104023e+02,0.0
	3.140744120826207e+00,0.0

 7	1.223207119049932e-03,0.000000000000000e+00
	1.000000000000000e+00,0.000000000000000e+00
	1.079381246917003e-12,1.446672203839666e-09
	-1.834568369501904e-13,1.602147982813408e-16
	-1.834568369501904e-13,1.602147982813408e-16
	1.834569069088170e-13,0.0
	-2.547293186597993e+02,0.0
	3.140719343223091e+00,0.0

 8	1.258925411794168e-03,0.000000000000000e+00
	1.000000000000000e+00,0.000000000000000e+00
	1.211085663375904e-12,1.577139567435235e-09
	-2.058419507349804e-13,1.850131600210464e-16
	-2.058419507349804e-13,1.850131600210464e-16
	2.058420338809629e-13,0.0
	-2.537293187121187e+02,0.0
	3.140693842100985e+00,0.0

 9	1.295686697517020e-03,0.000000000000000e+00
	1.000000000000000e+00,0.000000000000000e+00
	1.358860446347669e-12,1.719373058609101e-09
	-2.309584603925783e-13,2.136498608017440e-16
	-2.309584603925783e-13,2.136498608017440e-16
	2.309585592117625e-13,0.0
	-2.527293187675426e+02,0.0
	3.140667596332760e+00,0.0

 10	1.333521432163325e-03,0.000000000000000e+00
	1.000000000000000e+00,0.000000000000000e+00
	1.524666476585917e-12,1.874433798772416e-09
	-2.591396464162516e-13,2.467190062229697e-16
	-2.591396464162516e-13,2.467190062229697e-16
	2.591397638630705e-13,0.0
	-2.517293188262504e+02,0.0
	3.140640584174364e+00,0.0

 11	1.372460961007563e-03,0.000000000000000e+00
	1.000000000000000e+00,0.000000000000000e+00
	1.710703898382580e-12,2.043478605902684e-09
	-2.907594556303712e-13,2.849066586977999e-16
	-2.907594556303712e-13,2.849066586977999e-16
	2.907595952161751e-13,0.0
	-2.507293188884355e+02,0.0
	3.140612783246811e+00,0.0

 12	1.412537544622755e-03,0.000000000000000e+00
	1.000000000000000e+00,0.000000000000000e+00
	1.919441314114587e-12,2.227768624868692e-09
	-3.262374632256280e-13,3.290050707039396e-16
	-3.262374632256280e-13,3.290050707039396e-16
	3.262376291236643e-13,0.0
	-2.497293189543111e+02,0.0
	3.140584170517635e+00,0.0

 13	1.453784385607663e-03,0.000000000000000e+00
	1.000000000000000e+00,0.000000000000000e+00
	2.153648541069332e-12,2.428678736081796e-09
	-3.660444402538803e-13,3.799291210856280e-16
	-3.660444402538803e-13,3.799291210856280e-16
	3.660446374240627e-13,0.0
	-2.487293190240841e+02,0.0
	3.140554722281809e+00,0.0

 14	1.496235656094435e-03,0.000000000000000e+00
	1.000000000000000e+00,0.000000000000000e+00
	2.416433365187230e-12,2.647707812643518e-09
	-4.107086004563385e-13,4.387352953945205e-16
	-4.107086004563385e-13,4.387352953945205e-16
	4.107088347935356e-13,0.0
	-2.477293190979884e+02,0.0
	3.140524414142113e+00,0.0

 15	1.539926526059493e-03,0.000000000000000e+00
	1.000000000000000e+00,0.000000000000000e+00
	2.711282779443059e-12,2.886489902533203e-09
	-4.608226093192728e-13,5.066436040445471e-16
	-4.608226093192728e-13,5.066436040445471e-16
	4.608228878295485e-13,0.0
	-2.467293191762792e+02,0.0
	3.140493220988911e+00,0.0

 16	1.584893192461115e-03,0.000000000000000e+00
	1.000000000000000e+00,0.000000000000000e+00
	3.042109254075315e-12,3.146806419259383e-09
	-5.170514483629248e-13,5.850628930014765e-16
	-5.170514483629248e-13,5.850628930014765e-16
	5.170517793730015e-13,0.0
	-2.457293192592064e+02,0.0
	3.140461116979357e+00,0.0

 17	1.631172909227840e-03,0.000000000000000e+00
	1.000000000000000e+00,0.000000000000000e+00
	3.413302652610858e-12,3.430599431896433e-09
	-5.801412390133491e-13,6.756200721044156e-16
	-5.801412390133491e-13,6.756200721044156e-16
	5.801416324195547e-13,0.0
	-2.447293193470416e+02,0.0
	3.140428075515980e+00,0.0

 18	1.678804018122562e-03,0.000000000000000e+00
	1.000000000000000e+00,0.000000000000000e+00
	3.829788482595741e-12,3.739986153672649e-09
	-6.509291431463963e-13,7.801938674008711e-16
	-6.509291431463963e-13,7.801938674008711e-16
	6.509296107105379e-13,0.0
	-2.437293194400890e+02,0.0
	3.140394069224651e+00,0.0

 19	1.727825980507865e-03,0.000000000000000e+00
	1.000000000000000e+00,0.000000000000000e+00
	4.297093254007550e-12,4.077274737217776e-09
	-7.303544716804062e-13,9.009537977355169e-16
	-7.303544716804062e-13,9.009537977355169e-16
	7.303550273814174e-13,0.0
	-2.427293195386485e+02,0.0
	3.140359069931902e+00,0.0

 20	1.778279410038925e-03,0.000000000000000e+00
	1.000000000000000e+00,0.000000000000000e+00
	4.821417812556145e-12,4.444981494263189e-09
	-8.194711486132547e-13,1.040405184200423e-15
	-8.194711486132547e-13,1.040405184200423e-15
	8.194718090651284e-13,0.0
	-2.417293196430421e+02,0.0
	3.140323048641587e+00,0.0

 21	1.830206106311058e-03,0.000000000000000e+00
	1.000000000000000e+00,0.000000000000000e+00
	5.409719620986728e-12,4.845849668284306e-09
	-9.194616958964963e-13,1.201441126229539e-15
	-9.194616958964963e-13,1.201441126229539e-15
	9.194624808449994e-13,0.0
	-2.407293197536280e+02,0.0
	3.140285975510861e+00,0.0

 22	1.883649089489803e-03,0.000000000000000e+00
	1.000000000000000e+00,0.000000000000000e+00
	6.069805080244384e-12,5.282869900160428e-09
	-1.031652924720753e-12,1.387402522655636e-15
	-1.031652924720753e-12,1.387402522655636e-15
	1.031653857633773e-12,0.0
	-2.397293198707634e+02,0.0
	3.140247819825451e+00,0.0

 23	1.938652635952210e-03,0.000000000000000e+00
	1.000000000000000e+00,0.000000000000000e+00
	6.810433115443640e-12,5.759302539465691e-09
	-1.157533541411915e-12,1.602147382921414e-15
	-1.157533541411915e-12,1.602147382921414e-15
	1.157534650181085e-12,0.0
	-2.387293199948445e+02,0.0
	3.140208549974216e+00,0.0

 24	1.995262314968882e-03,0.000000000000000e+00
	1.000000000000000e+00,0.000000000000000e+00
	7.641431401280026e-12,6.278701967921355e-09
	-1.298773901570695e-12,1.850130866417983e-15
	-1.298773901570695e-12,1.850130866417983e-15
	1.298775219345283e-12,0.0
	-2.377293201262714e+02,0.0
	3.140168133422953e+00,0.0

 25	2.053525026457149e-03,0.000000000000000e+00
	1.000000000000000e+00,0.000000000000000e+00
	8.573826768985305e-12,6.844943116379520e-09
	-1.457248174560770e-12,2.136497710437570e-15
	-1.457248174560770e-12,2.136497710437570e-15
	1.457249740738754e-12,0.0
	-2.367293202654884e+02,0.0
	3.140126536687446e+00,0.0

 26	2.113489039836650e-03,0.000000000000000e+00
	1.000000000000000e+00,0.000000000000000e+00
	9.619991525374583e-12,7.462250373256074e-09
	-1.635059212470105e-12,2.467188964303743e-15
	-1.635059212470105e-12,2.467188964303743e-15
	1.635061073876064e-12,0.0
	-2.357293204129548e+02,0.0
	3.140083725305728e+00,0.0

 27	2.175204034019526e-03,0.000000000000000e+00
	1.000000000000000e+00,0.000000000000000e+00
	1.079380762543626e-11,8.135229100002814e-09
	-1.834566453522670e-12,2.849065243987290e-15
	-1.834566453522670e-12,2.849065243987290e-15
	1.834568665807718e-12,0.0
	-2.347293205691577e+02,0.0
	3.140039663809521e+00,0.0

 28	2.238721138568343e-03,0.000000000000000e+00
	1.000000000000000e+00,0.000000000000000e+00
	1.211085087696654e-11,8.868899988765724e-09
	-2.058417230203775e-12,3.290049064286592e-15
	-2.058417230203775e-12,3.290049064286592e-15
	2.058419859509383e-12,0.0
	-2.337293207346160e+02,0.0
	3.139994315694865e+00,0.0

 29	2.304092976055850e-03,0.000000000000000e+00
	1.000000000000000e+00,0.000000000000000e+00
	1.358859762151931e-11,9.668736518544394e-09
	-2.309581897533143e-12,3.799289201429271e-15
	-2.309581897533143e-12,3.799289201429271e-15
	2.309585022468589e-12,0.0
	-2.327293209098790e+02,0.0
	3.139947643391864e+00,0.0

 30	2.371373705661660e-03,0.000000000000000e+00
	1.000000000000000e+00,0.000000000000000e+00
	1.524665663417460e-11,1.054070578927761e-08
	-2.591393247608504e-12,4.387350495996084e-15
	-2.591393247608504e-12,4.387350495996084e-15
	2.591396961601083e-12,0.0
	-2.317293210955298e+02,0.0
	3.139899608233565e+00,0.0

 31	2.440619068041985e-03,0.000000000000000e+00
	1.000000000000000e+00,0.000000000000000e+00
	1.710702931930341e-11,1.149131303850181e-08
	-2.907590733422674e-12,5.066433033868453e-15
	-2.907590733422674e-12,5.066433033868453e-15
	2.907595147510927e-12,0.0
	-2.307293212921770e+02,0.0
	3.139850170423927e+00,0.0

 32	2.511886431509585e-03,0.000000000000000e+00
	1.000000000000000e+00,0.000000000000000e+00
	1.919440165485032e-11,1.252765017263464e-08
	-3.262370088755274e-12,5.850625252348255e-15
	-3.262370088755274e-12,5.850625252348255e-15
	3.262375334908744e-12,0.0
	-2.297293215004796e+02,0.0
	3.139799289004844e+00,0.0

 33	2.585234839562196e-03,0.000000000000000e+00
	1.000000000000000e+00,0.000000000000000e+00
	2.153647175920126e-11,1.365744867503260e-08
	-3.660439002577564e-12,6.756196222491210e-15
	-3.660439002577564e-12,6.756196222491210e-15
	3.660445237642332e-12,0.0
	-2.287293217211237e+02,0.0
	3.139746921822220e+00,0.0

 34	2.660725059798815e-03,0.000000000000000e+00
	1.000000000000000e+00,0.000000000000000e+00
	2.416431742703435e-11,1.488913728541984e-08
	-4.107079586696390e-12,7.801933171351381e-15
	-4.107079586696390e-12,7.801933171351381e-15
	4.107086997084357e-12,0.0
	-2.277293219548407e+02,0.0
	3.139693025491042e+00,0.0

 35	2.738419634264367e-03,0.000000000000000e+00
	1.000000000000000e+00,0.000000000000000e+00
	2.711280851117815e-11,1.623190488104851e-08
	-4.608218465544250e-12,9.009531246464277e-15
	-4.608218465544250e-12,9.009531246464277e-15
	4.608227272806353e-12,0.0
	-2.267293222024101e+02,0.0
	3.139637555359435e+00,0.0

 36	2.818382931264460e-03,0.000000000000000e+00
	1.000000000000000e+00,0.000000000000000e+00
	3.042106962258571e-11,1.769576902872361e-08
	-5.170505418155290e-12,1.040404360872943e-14
	-5.170505418155290e-12,1.040404360872943e-14
	5.170515885605286e-12,0.0
	-2.257293224646425e+02,0.0
	3.139580465471675e+00,0.0

 37	2.900681198693160e-03,0.000000000000000e+00
	1.000000000000000e+00,0.000000000000000e+00
	3.413299928779195e-11,1.929165071895363e-08
	-5.801401615794890e-12,1.201440119129941e-14
	-5.801401615794890e-12,1.201440119129941e-14
	5.801414056381732e-12,0.0
	-2.247293227424166e+02,0.0
	3.139521708530113e+00,0.0

 38	2.985382618917966e-03,0.000000000000000e+00
	1.000000000000000e+00,0.000000000000000e+00
	3.829785245315996e-11,2.103145583997704e-08
	-6.509278626139754e-12,1.387401290763579e-14
	-6.509278626139754e-12,1.387401290763579e-14
	6.509293411803927e-12,0.0
	-2.237293230366523e+02,0.0
	3.139461235855990e+00,0.0

 39	3.072557365267454e-03,0.000000000000000e+00
	1.000000000000000e+00,0.000000000000000e+00
	4.297089406495568e-11,2.292816399928579e-08
	-7.303529497651462e-12,1.602145876063670e-14
	-7.303529497651462e-12,1.602145876063670e-14
	7.303547070445005e-12,0.0
	-2.227293233483186e+02,0.0
	3.139398997349112e+00,0.0

 40	3.162277660168387e-03,0.000000000000000e+00
	1.000000000000000e+00,0.000000000000000e+00
	4.821413239777159e-11,2.499592535528947e-08
	-8.194693398133963e-12,1.850129023218574e-14
	-8.194693398133963e-12,1.850129023218574e-14
	8.194714283436647e-12,0.0
	-2.217293236784529e+02,0.0
	3.139334941446339e+00,0.0

 41	3.254617834980467e-03,0.000000000000000e+00
	1.000000000000000e+00,0.000000000000000e+00
	5.409714186226934e-11,2.725016618158059e-08
	-9.194595461337216e-12,2.136495455821595e-14
	-9.194595461337216e-12,2.136495455821595e-14
	9.194620283563982e-12,0.0
	-2.207293240281548e+02,0.0
	3.139269015078873e+00,0.0

 42	3.349654391578285e-03,0.000000000000000e+00
	1.000000000000000e+00,0.000000000000000e+00
	6.069798621020029e-11,2.970770395129495e-08
	-1.031650369723077e-11,2.467186206441907e-14
	-1.031650369723077e-11,2.467186206441907e-14
	1.031653319850006e-11,0.0
	-2.197293243985724e+02,0.0
	3.139201163628288e+00,0.0

 43	3.447466065731503e-03,0.000000000000000e+00
	1.000000000000000e+00,0.000000000000000e+00
	6.810425438649813e-11,3.238687279992317e-08
	-1.157530504792927e-11,2.849061870552658e-14
	-1.157530504792927e-11,2.849061870552658e-14
	1.157534011025037e-11,0.0
	-2.187293247909346e+02,0.0
	3.139131330881282e+00,0.0

 44	3.548133892335764e-03,0.000000000000000e+00
	1.000000000000000e+00,0.000000000000000e+00
	7.641422277384806e-11,3.530766030271991e-08
	-1.298770292541309e-11,3.290044937874280e-14
	-1.298770292541309e-11,3.290044937874280e-14
	1.298774459705584e-11,0.0
	-2.177293252065566e+02,0.0
	3.139059458983112e+00,0.0

 45	3.651741272548387e-03,0.000000000000000e+00
	1.000000000000000e+00,0.000000000000000e+00
	8.573815925223177e-11,3.849185658722894e-08
	-1.457243885222756e-11,3.799284153975461e-14
	-1.457243885222756e-11,3.799284153975461e-14
	1.457248837906277e-11,0.0
	-2.167293256467937e+02,0.0
	3.138985488389655e+00,0.0

 46	3.758374042884452e-03,0.000000000000000e+00
	1.000000000000000e+00,0.000000000000000e+00
	9.619978637539816e-11,4.196321689257255e-08
	-1.635054114582883e-11,4.387344321916188e-14
	-1.635054114582883e-11,4.387344321916188e-14
	1.635060000857649e-11,0.0
	-2.157293261131227e+02,0.0
	3.138909357818086e+00,0.0

 47	3.868120546330533e-03,0.000000000000000e+00
	1.000000000000000e+00,0.000000000000000e+00
	1.079379230821459e-10,4.574763878923824e-08
	-1.834560394672788e-11,5.066425481688980e-14
	-1.834560394672788e-11,5.066425481688980e-14
	1.834567390522664e-11,0.0
	-2.147293266070833e+02,0.0
	3.138831004196104e+00,0.0

 48	3.981071705534985e-03,0.000000000000000e+00
	1.000000000000000e+00,0.000000000000000e+00
	1.211083267241405e-10,4.987335538047176e-08
	-2.058410029247840e-11,5.850616014470732e-14
	-2.058410029247840e-11,5.850616014470732e-14
	2.058418343830000e-11,0.0
	-2.137293271303125e+02,0.0
	3.138750362609684e+00,0.0

 49	4.097321098135428e-03,0.000000000000000e+00
	1.000000000000000e+00,0.000000000000000e+00
	1.358857598537067e-10,5.437114592704128e-08
	-2.309573339182269e-11,6.756184922656318e-14
	-2.309573339182269e-11,6.756184922656318e-14
	2.309583221080428e-11,0.0
	-2.127293276845441e+02,0.0
	3.138667366249294e+00,0.0

 50	4.216965034285836e-03,0.000000000000000e+00
	1.000000000000000e+00,0.000000000000000e+00
	1.524663091957215e-10,5.927456546642193e-08
	-2.591383075991771e-11,7.801919349313851e-14
	-2.591383075991771e-11,7.801919349313851e-14
	2.591394820648160e-11,0.0
	-2.117293282716162e+02,0.0
	3.138581946354552e+00,0.0

 51	4.340102636447452e-03,0.000000000000000e+00
	1.000000000000000e+00,0.000000000000000e+00
	1.710699875744391e-10,6.462019513937077e-08
	-2.907578644435407e-11,9.009514339257274e-14
	-2.907578644435407e-11,9.009514339257274e-14
	2.907592602983689e-11,0.0
	-2.107293288934734e+02,0.0
	3.138494032157260e+00,0.0

 52	4.466835921509646e-03,0.000000000000000e+00
	1.000000000000000e+00,0.000000000000000e+00
	1.919436533201415e-10,7.044791509114263e-08
	-3.262355720969088e-11,1.040402292770806e-13
	-3.262355720969088e-11,1.040402292770806e-13
	3.262372310732302e-11,0.0
	-2.097293295521819e+02,0.0
	3.138403550822775e+00,0.0

 53	4.597269885308737e-03,0.000000000000000e+00
	1.000000000000000e+00,0.000000000000000e+00
	2.153642858944290e-10,7.680120198340214e-08
	-3.660421926435684e-11,1.201437589413393e-13
	-3.660421926435684e-11,1.201437589413393e-13
	3.660441643403054e-11,0.0
	-2.087293302499171e+02,0.0
	3.138310427389672e+00,0.0

 54	4.731512589614821e-03,0.000000000000000e+00
	1.000000000000000e+00,0.000000000000000e+00
	2.416426611967205e-10,8.372745333557281e-08
	-4.107059291665681e-11,1.387398196396688e-13
	-4.107059291665681e-11,1.387398196396688e-13
	4.107082725321337e-11,0.0
	-2.077293309890007e+02,0.0
	3.138214584707646e+00,0.0

 55	4.869675251658647e-03,0.000000000000000e+00
	1.000000000000000e+00,0.000000000000000e+00
	2.711274753229801e-10,9.127834111602538e-08
	-4.608194344863456e-11,1.602142091013167e-13
	-4.608194344863456e-11,1.602142091013167e-13
	4.608222195810388e-11,0.0
	-2.067293317718710e+02,0.0
	3.138115943373591e+00,0.0

 56	5.011872336272740e-03,0.000000000000000e+00
	1.000000000000000e+00,0.000000000000000e+00
	3.042099714904821e-10,9.951019721946781e-08
	-5.170476750676867e-11,1.850124393318600e-13
	-5.170476750676867e-11,1.850124393318600e-13
	5.170509851583022e-11,0.0
	-2.057293326011323e+02,0.0
	3.138014421665829e+00,0.0

 57	5.158221650723075e-03,0.000000000000000e+00
	1.000000000000000e+00,0.000000000000000e+00
	3.413291315285654e-10,1.084844337074407e-07
	-5.801367544442435e-11,2.136489792498267e-13
	-5.801367544442435e-11,2.136489792498267e-13
	5.801406884935187e-11,0.0
	-2.047293334795285e+02,0.0
	3.137909935476399e+00,0.0

 58	5.308844442309902e-03,0.000000000000000e+00
	1.000000000000000e+00,0.000000000000000e+00
	3.829775008162012e-10,1.182680009453411e-07
	-6.509238132271587e-11,2.467179279025155e-13
	-6.509238132271587e-11,2.467179279025155e-13
	6.509284888524852e-11,0.0
	-2.037293344099774e+02,0.0
	3.137802398241393e+00,0.0

 59	5.463865498818562e-03,0.000000000000000e+00
	1.000000000000000e+00,0.000000000000000e+00
	4.297077239616574e-10,1.289338870545731e-07
	-7.303481370610360e-11,2.849053396887410e-13
	-7.303481370610360e-11,2.849053396887410e-13
	7.303536940508921e-11,0.0
	-2.027293353955563e+02,0.0
	3.137691720869233e+00,0.0

 60	5.623413251903512e-03,0.000000000000000e+00
	1.000000000000000e+00,0.000000000000000e+00
	4.821398779415770e-10,1.405616624042484e-07
	-8.194636199052134e-11,3.290034572831264e-13
	-8.194636199052134e-11,3.290034572831264e-13
	8.194702243984503e-11,0.0
	-2.017293364395360e+02,0.0
	3.137577811666871e+00,0.0

 61	5.787619883491228e-03,0.000000000000000e+00
	1.000000000000000e+00,0.000000000000000e+00
	5.409697000064116e-10,1.532380732050865e-07
	-9.194527480127652e-11,3.799271475382167e-13
	-9.194527480127652e-11,3.799271475382167e-13
	9.194605974656930e-11,0.0
	-2.007293375453725e+02,0.0
	3.137460576263831e+00,0.0

 62	5.956621435290127e-03,0.000000000000000e+00
	1.000000000000000e+00,0.000000000000000e+00
	6.069778195230993e-10,1.670576886321744e-07
