Title: * sky130 bjt 3-stage load-buffer/filter fallback ac: ideal opamp follower plus two rc poles, r=10k, c=150p
Date: Fri May 22 23:09:15  2026
Command: ngspice-46, Build Mar 29 2026   15:02:07
Plotname: AC Analysis
Flags: complex
No. Variables: 10
No. Points: 721
Variables:
	0	frequency	frequency grid=3
	1	v(vin)	voltage
	2	v(b3_collector)	voltage
	3	v(vout_drv)	voltage
	4	v(vfilt1)	voltage
	5	v(vout_final)	voltage
	6	gain	notype
	7	gain_vv	notype
	8	gain_db	decibel
	9	phase_deg	phase
Values:
 0	1.000000000000000e-03,0.000000000000000e+00
	1.000000000000000e+00,0.000000000000000e+00
	4.861096667836867e-13,7.904423276608954e-10
	-2.483247084808211e-13,2.307293637874788e-16
	-2.483247084763269e-13,2.307342006249738e-16
	-2.483247084740073e-13,2.307366970572293e-16
	-2.483247084740073e-13,2.307366970572293e-16
	2.483248156711771e-13,0.0
	-2.520995975645641e+02,0.0
	3.140663480524124e+00,0.0

 1	1.029200527194428e-03,0.000000000000000e+00
	1.000000000000000e+00,0.000000000000000e+00
	5.454240123269667e-13,8.617279547834594e-10
	-2.786248965660048e-13,2.664421082344090e-16
	-2.786248965606634e-13,2.664476937270306e-16
	-2.786248965579065e-13,2.664505765619320e-16
	-2.786248965579065e-13,2.664505765619320e-16
	2.786250239619799e-13,0.0
	-2.510995976232405e+02,0.0
	3.140636348181953e+00,0.0

 2	1.059253725177289e-03,0.000000000000000e+00
	1.000000000000000e+00,0.000000000000000e+00
	6.119758017609028e-13,9.394424379971301e-10
	-3.126222650683385e-13,3.076825411621372e-16
	-3.126222650619902e-13,3.076889911881713e-16
	-3.126222650587137e-13,3.076923202338663e-16
	-3.126222650587137e-13,3.076923202338663e-16
	3.126224164787365e-13,0.0
	-2.500995976853913e+02,0.0
	3.140608423561195e+00,0.0

 3	1.090184492385128e-03,0.000000000000000e+00
	1.000000000000000e+00,0.000000000000000e+00
	6.866481366374278e-13,1.024165560113937e-09
	-3.507679379072445e-13,3.553062489446639e-16
	-3.507679378996996e-13,3.553136973182586e-16
	-3.507679378958054e-13,3.553175416401140e-16
	-3.507679378958054e-13,3.553175416401140e-16
	3.507681178588370e-13,0.0
	-2.490995977512293e+02,0.0
	3.140579683526907e+00,0.0

 4	1.122018454301964e-03,0.000000000000000e+00
	1.000000000000000e+00,0.000000000000000e+00
	7.704318731654401e-13,1.116529391318429e-09
	-3.935680843858249e-13,4.103012472647885e-16
	-3.935680843768577e-13,4.103098485121004e-16
	-3.935680843722295e-13,4.103142878655517e-16
	-3.935680843722295e-13,4.103142878655517e-16
	3.935682982586900e-13,0.0
	-2.480995978209623e+02,0.0
	3.140550104268595e+00,0.0

 5	1.154781984689459e-03,0.000000000000000e+00
	1.000000000000000e+00,0.000000000000000e+00
	8.644387702581902e-13,1.217223004666012e-09
	-4.415906357306117e-13,4.738084787727037e-16
	-4.415906357199541e-13,4.738184113377411e-16
	-4.415906357144534e-13,4.738235378229216e-16
	-4.415906357144534e-13,4.738235378229216e-16
	4.415908899189838e-13,0.0
	-2.470995978948310e+02,0.0
	3.140519661280487e+00,0.0

 6	1.188502227437019e-03,0.000000000000000e+00
	1.000000000000000e+00,0.000000000000000e+00
	9.699162418907086e-13,1.326997616853322e-09
	-4.954728211738701e-13,5.471454834137623e-16
	-4.954728211612036e-13,5.471569533604347e-16
	-4.954728211546662e-13,5.471628733329107e-16
	-4.954728211546662e-13,5.471628733329107e-16
	4.954731232773113e-13,0.0
	-2.460995979730769e+02,0.0
	3.140488329341230e+00,0.0

 7	1.223207119049932e-03,0.000000000000000e+00
	1.000000000000000e+00,0.000000000000000e+00
	1.088263909510903e-12,1.446672192599208e-09
	-5.559296235724390e-13,6.318337324911590e-16
	-5.559296235573848e-13,6.318469777783367e-16
	-5.559296235496150e-13,6.318538140555895e-16
	-5.559296235496150e-13,6.318538140555895e-16
	5.559299826230448e-13,0.0
	-2.450995980559584e+02,0.0
	3.140456082492995e+00,0.0

 8	1.258925411794168e-03,0.000000000000000e+00
	1.000000000000000e+00,0.000000000000000e+00
	1.221052174151149e-12,1.577139554454867e-09
	-6.237632667659443e-13,7.296301935466115e-16
	-6.237632667480525e-13,7.296454889648864e-16
	-6.237632667388180e-13,7.296533833743184e-16
	-6.237632667388180e-13,7.296533833743184e-16
	6.237636934983806e-13,0.0
	-2.440995981437476e+02,0.0
	3.140422894019973e+00,0.0

 9	1.295686697517020e-03,0.000000000000000e+00
	1.000000000000000e+00,0.000000000000000e+00
	1.370043054674963e-12,1.719373043619459e-09
	-6.998738605630676e-13,8.425637809096596e-16
	-6.998738605418030e-13,8.425814437822265e-16
	-6.998738605308277e-13,8.425905601035513e-16
	-6.998738605308277e-13,8.425905601035513e-16
	6.998743677355075e-13,0.0
	-2.430995982367434e+02,0.0
	3.140388736426240e+00,0.0

 10	1.333521432163325e-03,0.000000000000000e+00
	1.000000000000000e+00,0.000000000000000e+00
	1.537213568679567e-12,1.874433781462887e-09
	-7.852713446110721e-13,9.729774481339254e-16
	-7.852713445857992e-13,9.729978448998565e-16
	-7.852713445727550e-13,9.730083722629176e-16
	-7.852713445727550e-13,9.730083722629176e-16
	7.852719473866331e-13,0.0
	-2.420995983352474e+02,0.0
	3.140353581412979e+00,0.0

 11	1.372460961007563e-03,0.000000000000000e+00
	1.000000000000000e+00,0.000000000000000e+00
	1.724781966288382e-12,2.043478585913826e-09
	-8.810888896290887e-13,1.123576795572432e-15
	-8.810888895990518e-13,1.123600349388921e-15
	-8.810888895835488e-13,1.123612506197431e-15
	-8.810888895835488e-13,1.123612506197431e-15
	8.810896060291684e-13,0.0
	-2.410995984395884e+02,0.0
	3.140317399855033e+00,0.0

 12	1.412537544622755e-03,0.000000000000000e+00
	1.000000000000000e+00,0.000000000000000e+00
	1.935237164951759e-12,2.227768601785907e-09
	-9.885979338352719e-13,1.297486201524324e-15
	-9.885979337995731e-13,1.297513401045619e-15
	-9.885979337811475e-13,1.297527439508223e-15
	-9.885979337811475e-13,1.297527439508223e-15
	9.885987852783405e-13,0.0
	-2.400995985501174e+02,0.0
	3.140280161776777e+00,0.0

 13	1.453784385607663e-03,0.000000000000000e+00
	1.000000000000000e+00,0.000000000000000e+00
	2.171371775838541e-12,2.428678709426294e-09
	-1.109225054090242e-12,1.498313641465318e-15
	-1.109225054047814e-12,1.498345050980475e-15
	-1.109225054025915e-12,1.498361262343137e-15
	-1.109225054025915e-12,1.498361262343137e-15
	1.109226066032199e-12,0.0
	-2.390995986671894e+02,0.0
	3.140241836327284e+00,0.0

 14	1.496235656094435e-03,0.000000000000000e+00
	1.000000000000000e+00,0.000000000000000e+00
	2.436319160038360e-12,2.647707781862501e-09
	-1.244570895617369e-12,1.730225540106390e-15
	-1.244570895566944e-12,1.730261811246164e-15
	-1.244570895540917e-12,1.730280531834433e-15
	-1.244570895540917e-12,1.730280531834433e-15
	1.244572098312604e-12,0.0
	-2.380995987911946e+02,0.0
	3.140202391754766e+00,0.0

 15	1.539926526059493e-03,0.000000000000000e+00
	1.000000000000000e+00,0.000000000000000e+00
	2.733595006307110e-12,2.886489866987844e-09
	-1.396431411491150e-12,1.998033209192192e-15
	-1.396431411431218e-12,1.998075094447934e-15
	-1.396431411400286e-12,1.998096712644446e-15
	-1.396431411400286e-12,1.998096712644446e-15
	1.396432840897072e-12,0.0
	-2.370995989225558e+02,0.0
	3.140161795380269e+00,0.0

 16	1.584893192461115e-03,0.000000000000000e+00
	1.000000000000000e+00,0.000000000000000e+00
	3.067143982070635e-12,3.146806378212105e-09
	-1.566821693728191e-12,2.307292664303690e-15
	-1.566821693656962e-12,2.307341032638737e-15
	-1.566821693620198e-12,2.307365996940696e-15
	-1.566821693620198e-12,2.307365996940696e-15
	1.566823392580258e-12,0.0
	-2.360995990616986e+02,0.0
	3.140120013570597e+00,0.0

 17	1.631172909227840e-03,0.000000000000000e+00
	1.000000000000000e+00,0.000000000000000e+00
	3.441392076683484e-12,3.430599384495833e-09
	-1.758002712188057e-12,2.664419891467244e-15
	-1.758002712103402e-12,2.664475746344649e-15
	-1.758002712059709e-12,2.664504574668470e-15
	-1.758002712059709e-12,2.664504574668470e-15
	1.758004731277456e-12,0.0
	-2.350995992090797e+02,0.0
	3.140077011710451e+00,0.0

 18	1.678804018122562e-03,0.000000000000000e+00
	1.000000000000000e+00,0.000000000000000e+00
	3.861305331523399e-12,3.739986098935241e-09
	-1.972511316096949e-12,3.076823954930643e-15
	-1.972511315996336e-12,3.076888455131278e-15
	-1.972511315944406e-12,3.076921745557411e-15
	-1.972511315944406e-12,3.076921745557411e-15
	1.972513715789110e-12,0.0
	-2.340995993652016e+02,0.0
	3.140032754173750e+00,0.0

 19	1.727825980507865e-03,0.000000000000000e+00
	1.000000000000000e+00,0.000000000000000e+00
	4.332455736260495e-12,4.077274674008245e-09
	-2.213193896302655e-12,3.553060707613140e-15
	-2.213193896183076e-12,3.553135191276055e-15
	-2.213193896121358e-12,3.553173634456914e-15
	-2.213193896121358e-12,3.553173634456914e-15
	2.213196748342025e-12,0.0
	-2.330995995305724e+02,0.0
	3.139987204294115e+00,0.0

 20	1.778279410038925e-03,0.000000000000000e+00
	1.000000000000000e+00,0.000000000000000e+00
	4.861095165639240e-12,4.444981421269587e-09
	-2.483244154907137e-12,4.103010293097192e-15
	-2.483244154765017e-12,4.103096305480977e-15
	-2.483244154691664e-12,4.103140698969381e-15
	-2.483244154691664e-12,4.103140698969381e-15
	2.483247544562143e-12,0.0
	-2.320995997057375e+02,0.0
	3.139940324334494e+00,0.0

 21	1.830206106311058e-03,0.000000000000000e+00
	1.000000000000000e+00,0.000000000000000e+00
	5.454238337903826e-12,4.845849583992883e-09
	-2.786245483466067e-12,4.738082121684561e-15
	-2.786245483297157e-12,4.738181447225660e-15
	-2.786245483209977e-12,4.738232712021066e-15
	-2.786245483209977e-12,4.738232712021066e-15
	2.786249512078420e-12,0.0
	-2.310995998912869e+02,0.0
	3.139892075455896e+00,0.0

 22	1.883649089489803e-03,0.000000000000000e+00
	1.000000000000000e+00,0.000000000000000e+00
	6.119755895697646e-12,5.282869802822192e-09
	-3.126218512088162e-12,5.471451573017039e-15
	-3.126218511887413e-12,5.471566272350096e-15
	-3.126218511783799e-12,5.471625472005867e-15
	-3.126218511783799e-12,5.471625472005867e-15
	3.126223300102700e-12,0.0
	-2.300996000878283e+02,0.0
	3.139842417685215e+00,0.0

 23	1.938652635952210e-03,0.000000000000000e+00
	1.000000000000000e+00,0.000000000000000e+00
	6.866478844476389e-12,5.759302427060950e-09
	-3.507674460342496e-12,6.318333335882301e-15
	-3.507674460103905e-12,6.318465788590578e-15
	-3.507674459980760e-12,6.318534151278719e-15
	-3.507674459980760e-12,6.318534151278719e-15
	3.507680150908166e-12,0.0
	-2.290996002960210e+02,0.0
	3.139791309882115e+00,0.0

 24	1.995262314968882e-03,0.000000000000000e+00
	1.000000000000000e+00,0.000000000000000e+00
	7.704315734372473e-12,6.278701838118083e-09
	-3.935674997936730e-12,7.296297056056150e-15
	-3.935674997653163e-12,7.296450010038903e-15
	-3.935674997506805e-12,7.296528954030000e-15
	-3.935674997506805e-12,7.296528954030000e-15
	3.935681761186359e-12,0.0
	-2.280996005165433e+02,0.0
	3.139738709704945e+00,0.0

 25	2.053525026457149e-03,0.000000000000000e+00
	1.000000000000000e+00,0.000000000000000e+00
	8.644384140306477e-12,6.844942966484818e-09
	-4.415899409415941e-12,8.425631840569372e-15
	-4.415899409078922e-12,8.425808469050406e-15
	-4.415899408904976e-12,8.425899632137387e-15
	-4.415899408904976e-12,8.425899632137387e-15
	4.415907447552759e-12,0.0
	-2.270996007501348e+02,0.0
	3.139684573575661e+00,0.0

 26	2.113489039836650e-03,0.000000000000000e+00
	1.000000000000000e+00,0.000000000000000e+00
	9.699158185136356e-12,7.462250200161009e-09
	-4.954719954157041e-12,9.729767180594597e-15
	-4.954719953756493e-12,9.729971147954669e-15
	-4.954719953549758e-12,9.730076421430832e-15
	-4.954719953549758e-12,9.730076421430832e-15
	4.954729507500009e-12,0.0
	-2.260996009975668e+02,0.0
	3.139628856643722e+00,0.0

 27	2.175204034019526e-03,0.000000000000000e+00
	1.000000000000000e+00,0.000000000000000e+00
	1.088263406326456e-11,8.135228900115258e-09
	-5.559286421571315e-12,1.123575902540237e-14
	-5.559286421095263e-12,1.123599456320123e-14
	-5.559286420849557e-12,1.123611613109741e-14
	-5.559286420849557e-12,1.123611613109741e-14
	5.559297775740025e-12,0.0
	-2.250996012596598e+02,0.0
	3.139571512748935e+00,0.0

 28	2.238721138568343e-03,0.000000000000000e+00
	1.000000000000000e+00,0.000000000000000e+00
	1.221051576114995e-11,8.868899757939371e-09
	-6.237621003516354e-12,1.297485109162199e-14
	-6.237621002950562e-12,1.297512308638720e-14
	-6.237621002658540e-12,1.297526347078215e-14
	-6.237621002658540e-12,1.297526347078215e-14
	6.237634497970289e-12,0.0
	-2.240996015372818e+02,0.0
	3.139512494383211e+00,0.0

 29	2.304092976055850e-03,0.000000000000000e+00
	1.000000000000000e+00,0.000000000000000e+00
	1.370042343908073e-11,9.668736251990014e-09
	-6.998724742773198e-12,1.498312305280121e-14
	-6.998724742100754e-12,1.498343714740511e-14
	-6.998724741753684e-12,1.498359926074906e-14
	-6.998724741753684e-12,1.498359926074906e-14
	6.998740780960671e-12,0.0
	-2.230996018313553e+02,0.0
	3.139451752651209e+00,0.0

 30	2.371373705661660e-03,0.000000000000000e+00
	1.000000000000000e+00,0.000000000000000e+00
	1.537212723931159e-11,1.054070548146625e-08
	-7.852696970073221e-12,1.730223905673781e-14
	-7.852696969274019e-12,1.730260176746562e-14
	-7.852696968861528e-12,1.730278897300255e-14
	-7.852696968861528e-12,1.730278897300255e-14
	7.852716031493388e-12,0.0
	-2.220996021428554e+02,0.0
	3.139389237229825e+00,0.0

 31	2.440619068041985e-03,0.000000000000000e+00
	1.000000000000000e+00,0.000000000000000e+00
	1.724780962303408e-11,1.149131268304678e-08
	-8.810869314486961e-12,1.998031209944135e-14
	-8.810869313537109e-12,1.998073095117932e-14
	-8.810869313046860e-12,1.998094713272149e-14
	-8.810869313046860e-12,1.998094713272149e-14
	8.810891969025564e-12,0.0
	-2.210996024728098e+02,0.0
	3.139324896326504e+00,0.0

 32	2.511886431509585e-03,0.000000000000000e+00
	1.000000000000000e+00,0.000000000000000e+00
	1.935235971714474e-11,1.252764976216156e-08
	-9.885956065341461e-12,2.307290218809409e-14
	-9.885956064212560e-12,2.307338587044219e-14
	-9.885956063629899e-12,2.307363551294444e-14
	-9.885956063629899e-12,2.307363551294444e-14
	9.885982990308882e-12,0.0
	-2.200996028223184e+02,0.0
	3.139258676636331e+00,0.0

 33	2.585234839562196e-03,0.000000000000000e+00
	1.000000000000000e+00,0.000000000000000e+00
	2.171370357672777e-11,1.365744820102509e-08
	-1.109222288087705e-11,2.664416900119330e-14
	-1.109222287953535e-11,2.664472754874125e-14
	-1.109222287884286e-11,2.664501583134664e-14
	-1.109222287884286e-11,2.664501583134664e-14
	1.109225488125807e-11,0.0
	-2.190996031925360e+02,0.0
	3.139190523297870e+00,0.0

 34	2.660725059798815e-03,0.000000000000000e+00
	1.000000000000000e+00,0.000000000000000e+00
	2.436317474543965e-11,1.488913673804427e-08
	-1.244567608216948e-11,3.076820295894513e-14
	-1.244567608057487e-11,3.076884795945172e-14
	-1.244567607975184e-11,3.076918086293898e-14
	-1.244567607975184e-11,3.076918086293898e-14
	1.244571411469017e-11,0.0
	-2.180996035846889e+02,0.0
	3.139120379847712e+00,0.0

 35	2.738419634264367e-03,0.000000000000000e+00
	1.000000000000000e+00,0.000000000000000e+00
	2.733593003094021e-11,1.623190424895146e-08
	-1.396427504409127e-11,3.553056231854176e-14
	-1.396427504219607e-11,3.553130715333638e-14
	-1.396427504121790e-11,3.553169158419812e-14
	-1.396427504121790e-11,3.553169158419812e-14
	1.396432024582249e-11,0.0
	-2.170996040000807e+02,0.0
	3.139048188173701e+00,0.0

 36	2.818382931264460e-03,0.000000000000000e+00
	1.000000000000000e+00,0.000000000000000e+00
	3.067141601249848e-11,1.769576829879036e-08
	-1.566817050153993e-11,4.103004818317494e-14
	-1.566817049928748e-11,4.103090830476880e-14
	-1.566817049812492e-11,4.103135223849464e-14
	-1.566817049812492e-11,4.103135223849464e-14
	1.566822422389272e-11,0.0
	-2.160996044400804e+02,0.0
	3.138973888466792e+00,0.0

 37	2.900681198693160e-03,0.000000000000000e+00
	1.000000000000000e+00,0.000000000000000e+00
	3.441389247070356e-11,1.929164987604051e-08
	-1.757997193289452e-11,4.738075424897017e-14
	-1.757997193021748e-11,4.738174750163630e-14
	-1.757997192883577e-11,4.738226014817364e-14
	-1.757997192883577e-11,4.738226014817364e-14
	1.758003578202361e-11,0.0
	-2.150996049061555e+02,0.0
	3.138897419171495e+00,0.0

 38	2.985382618917966e-03,0.000000000000000e+00
	1.000000000000000e+00,0.000000000000000e+00
	3.861301968521862e-11,2.103145486659438e-08
	-1.972504756874439e-11,5.471443381456539e-14
	-1.972504756556272e-11,5.471558080453844e-14
	-1.972504756392056e-11,5.471617279936321e-14
	-1.972504756392056e-11,5.471617279936321e-14
	1.972512345356789e-11,0.0
	-2.140996053998507e+02,0.0
	3.138818716934887e+00,0.0

 39	3.072557365267454e-03,0.000000000000000e+00
	1.000000000000000e+00,0.000000000000000e+00
	4.332451739327768e-11,2.292816287524177e-08
	-2.213186100653852e-11,6.318323315913721e-14
	-2.213186100275710e-11,6.318455768211300e-14
	-2.213186100080539e-11,6.318524130687468e-14
	-2.213186100080539e-11,6.318524130687468e-14
	2.213195119580941e-11,0.0
	-2.130996059227941e+02,0.0
	3.138737716554122e+00,0.0

 40	3.162277660168387e-03,0.000000000000000e+00
	1.000000000000000e+00,0.000000000000000e+00
	4.861090415273504e-11,2.499592405726243e-08
	-2.483234889761569e-11,7.296284799559098e-14
	-2.483234889312146e-11,7.296437753039485e-14
	-2.483234889080185e-11,7.296516696771292e-14
	-2.483234889080185e-11,7.296516696771292e-14
	2.483245608775133e-11,0.0
	-2.120996064767253e+02,0.0
	3.138654350922419e+00,0.0

 41	3.254617834980467e-03,0.000000000000000e+00
	1.000000000000000e+00,0.000000000000000e+00
	5.454232692081566e-11,2.725016468264297e-08
	-2.786234471820571e-11,8.425616848331663e-14
	-2.786234471286431e-11,8.425793476198200e-14
	-2.786234471010745e-11,8.425884638968020e-14
	-2.786234471010745e-11,8.425884638968020e-14
	2.786247211390345e-11,0.0
	-2.110996070634841e+02,0.0
	3.138568550973462e+00,0.0

 42	3.349654391578285e-03,0.000000000000000e+00
	1.000000000000000e+00,0.000000000000000e+00
	6.119749185625693e-11,2.970770222035174e-08
	-3.126205424725172e-11,9.729748841986296e-14
	-3.126205424090346e-11,9.729952808594707e-14
	-3.126205423762692e-11,9.730058081682915e-14
	-3.126205423762692e-11,9.730058081682915e-14
	3.126220565730056e-11,0.0
	-2.100996076850046e+02,0.0
	3.138480245624189e+00,0.0

 43	3.447466065731503e-03,0.000000000000000e+00
	1.000000000000000e+00,0.000000000000000e+00
	6.866470869548929e-11,3.238687080105599e-08
	-3.507658905988148e-11,1.123573659349324e-13
	-3.507658905233657e-11,1.123597213037266e-13
	-3.507658904844239e-11,1.123609369779429e-13
	-3.507658904844239e-11,1.123609369779429e-13
	3.507676901103446e-11,0.0
	-2.090996083433506e+02,0.0
	3.138389361715897e+00,0.0

 44	3.548133892335764e-03,0.000000000000000e+00
	1.000000000000000e+00,0.000000000000000e+00
	7.704306256146190e-11,3.530765799446936e-08
	-3.935656511551996e-11,1.297482365274380e-13
	-3.935656510655281e-11,1.297509564638436e-13
	-3.935656510192457e-11,1.297523603019884e-13
	-3.935656510192457e-11,1.297523603019884e-13
	3.935677898783170e-11,0.0
	-2.080996090407143e+02,0.0
	3.138295823953642e+00,0.0

 45	3.651741272548387e-03,0.000000000000000e+00
	1.000000000000000e+00,0.000000000000000e+00
	8.644372875421544e-11,3.849185392170350e-08
	-4.415877438313859e-11,1.498308948938616e-13
	-4.415877437248112e-11,1.498340358261438e-13
	-4.415877436698046e-11,1.498356569524829e-13
	-4.415877436698046e-11,1.498356569524829e-13
	4.415902857081420e-11,0.0
	-2.070996097793885e+02,0.0
	3.138199554843855e+00,0.0

 46	3.758374042884452e-03,0.000000000000000e+00
	1.000000000000000e+00,0.000000000000000e+00
	9.699144796794242e-11,4.196321381446718e-08
	-4.954693841457456e-11,1.730219800173677e-13
	-4.954693840190813e-11,1.730256071078184e-13
	-4.954693839537059e-11,1.730274791545025e-13
	-4.954693839537059e-11,1.730274791545025e-13
	4.954724051713870e-11,0.0
	-2.060996105618391e+02,0.0
	3.138100474630149e+00,0.0

 47	3.868120546330533e-03,0.000000000000000e+00
	1.000000000000000e+00,0.000000000000000e+00
	1.088261815119016e-10,4.574763523470079e-08
	-5.559255386576081e-11,1.998026188067562e-13
	-5.559255385070675e-11,1.998068073035525e-13
	-5.559255384293685e-11,1.998089691083504e-13
	-5.559255384293685e-11,1.998089691083504e-13
	5.559291291526258e-11,0.0
	-2.050996113906513e+02,0.0
	3.137998501227243e+00,0.0

 48	3.981071705534985e-03,0.000000000000000e+00
