Title: * sky130 bjt 3-stage low-cutoff sweep ac candidate: ccpl=47n, ch=30p
Date: Fri May 22 20:34:16  2026
Command: ngspice-46, Build Mar 29 2026   15:02:07
Plotname: AC Analysis
Flags: complex
No. Variables: 7
No. Points: 721
Variables:
	0	frequency	frequency grid=3
	1	v(vin)	voltage
	2	v(vout_final)	voltage
	3	gain	notype
	4	gain_vv	notype
	5	gain_db	decibel
	6	phase_deg	phase
Values:
 0	1.000000000000000e-03,0.000000000000000e+00
	1.000000000000000e+00,0.000000000000000e+00
	1.009195606344452e-13,2.333852138544557e-10
	1.009195606344452e-13,2.333852138544557e-10
	2.333852356740840e-10,0.0
	-1.926385324318017e+02,0.0
	1.570363910564761e+00,0.0

 1	1.029200527194428e-03,0.000000000000000e+00
	1.000000000000000e+00,0.000000000000000e+00
	1.132336089631268e-13,2.544329390111893e-10
	1.132336089631268e-13,2.544329390111893e-10
	2.544329642081029e-10,0.0
	-1.918885324480321e+02,0.0
	1.570351283783063e+00,0.0

 2	1.059253725177289e-03,0.000000000000000e+00
	1.000000000000000e+00,0.000000000000000e+00
	1.270501983467520e-13,2.773788422853611e-10
	1.270501983467520e-13,2.773788422853611e-10
	2.773788713823029e-10,0.0
	-1.911385324652221e+02,0.0
	1.570338288292699e+00,0.0

 3	1.090184492385128e-03,0.000000000000000e+00
	1.000000000000000e+00,0.000000000000000e+00
	1.425526665057383e-13,3.023941098618320e-10
	1.425526665057383e-13,3.023941098618320e-10
	3.023941434624560e-10,0.0
	-1.903885324834278e+02,0.0
	1.570324913327184e+00,0.0

 4	1.122018454301964e-03,0.000000000000000e+00
	1.000000000000000e+00,0.000000000000000e+00
	1.599467217424617e-13,3.296653662573930e-10
	1.599467217424617e-13,3.296653662573930e-10
	3.296654050587882e-10,0.0
	-1.896385325027159e+02,0.0
	1.570311147805645e+00,0.0

 5	1.154781984689459e-03,0.000000000000000e+00
	1.000000000000000e+00,0.000000000000000e+00
	1.794631725647862e-13,3.593960666182769e-10
	1.794631725647862e-13,3.593960666182769e-10
	3.593961114254288e-10,0.0
	-1.888885325231505e+02,0.0
	1.570296980323642e+00,0.0

 6	1.188502227437019e-03,0.000000000000000e+00
	1.000000000000000e+00,0.000000000000000e+00
	2.013609903738358e-13,3.918080145810029e-10
	2.013609903738358e-13,3.918080145810029e-10
	3.918080663234945e-10,0.0
	-1.881385325447878e+02,0.0
	1.570282399143720e+00,0.0

 7	1.223207119049932e-03,0.000000000000000e+00
	1.000000000000000e+00,0.000000000000000e+00
	2.259307458548451e-13,4.271430170186170e-10
	2.259307458548451e-13,4.271430170186170e-10
	4.271430767699138e-10,0.0
	-1.873885325677125e+02,0.0
	1.570267392185683e+00,0.0

 8	1.258925411794168e-03,0.000000000000000e+00
	1.000000000000000e+00,0.000000000000000e+00
	2.534984646731460e-13,4.656646880225926e-10
	2.534984646731460e-13,4.656646880225926e-10
	4.656647570223133e-10,0.0
	-1.866385325919967e+02,0.0
	1.570251947016588e+00,0.0

 9	1.295686697517020e-03,0.000000000000000e+00
	1.000000000000000e+00,0.000000000000000e+00
	2.844299536346418e-13,5.076604155734195e-10
	2.844299536346418e-13,5.076604155734195e-10
	5.076604952530534e-10,0.0
	-1.858885326177119e+02,0.0
	1.570236050840444e+00,0.0

 10	1.333521432163325e-03,0.000000000000000e+00
	1.000000000000000e+00,0.000000000000000e+00
	3.191356547164990e-13,5.534435055728836e-10
	3.191356547164990e-13,5.534435055728836e-10
	5.534435975854889e-10,0.0
	-1.851385326449562e+02,0.0
	1.570219690487611e+00,0.0

 11	1.372460961007563e-03,0.000000000000000e+00
	1.000000000000000e+00,0.000000000000000e+00
	3.580760913816911e-13,6.033555192382998e-10
	3.580760913816911e-13,6.033555192382998e-10
	6.033556254927980e-10,0.0
	-1.843885326738164e+02,0.0
	1.570202852403887e+00,0.0

 12	1.412537544622755e-03,0.000000000000000e+00
	1.000000000000000e+00,0.000000000000000e+00
	4.017679794418690e-13,6.577688212899442e-10
	4.017679794418690e-13,6.577688212899442e-10
	6.577689439907238e-10,0.0
	-1.836385327043842e+02,0.0
	1.570185522639282e+00,0.0

 13	1.453784385607663e-03,0.000000000000000e+00
	1.000000000000000e+00,0.000000000000000e+00
	4.507910835579540e-13,7.170893579451598e-10
	4.507910835579540e-13,7.170893579451598e-10
	7.170894996378085e-10,0.0
	-1.828885327367665e+02,0.0
	1.570167686836458e+00,0.0

 14	1.496235656094435e-03,0.000000000000000e+00
	1.000000000000000e+00,0.000000000000000e+00
	5.057959103616226e-13,7.817596854461846e-10
	5.057959103616226e-13,7.817596854461846e-10
	7.817598490703014e-10,0.0
	-1.821385327710658e+02,0.0
	1.570149330218837e+00,0.0

 15	1.539926526059493e-03,0.000000000000000e+00
	1.000000000000000e+00,0.000000000000000e+00
	5.675123402769470e-13,8.522622717108293e-10
	5.675123402769470e-13,8.522622717108293e-10
	8.522624606610102e-10,0.0
	-1.813885328073964e+02,0.0
	1.570130437578356e+00,0.0

 16	1.584893192461115e-03,0.000000000000000e+00
	1.000000000000000e+00,0.000000000000000e+00
	6.367593125843866e-13,9.291230957420263e-10
	6.367593125843866e-13,9.291230957420263e-10
	9.291233139382893e-10,0.0
	-1.806385328458778e+02,0.0
	1.570110993262869e+00,0.0

 17	1.631172909227840e-03,0.000000000000000e+00
	1.000000000000000e+00,0.000000000000000e+00
	7.144556922395478e-13,1.012915571646327e-09
	7.144556922395478e-13,1.012915571646327e-09
	1.012915823615438e-09,0.0
	-1.798885328866402e+02,0.0
	1.570090981163182e+00,0.0

 18	1.678804018122562e-03,0.000000000000000e+00
	1.000000000000000e+00,0.000000000000000e+00
	8.016324626446070e-13,1.104264826538203e-09
	8.016324626446070e-13,1.104264826538203e-09
	1.104265117507591e-09,0.0
	-1.791385329298191e+02,0.0
	1.570070384699702e+00,0.0

 19	1.727825980507865e-03,0.000000000000000e+00
	1.000000000000000e+00,0.000000000000000e+00
	8.994464061612053e-13,1.203852364243263e-09
	8.994464061612053e-13,1.203852364243263e-09
	1.203852700249466e-09,0.0
	-1.783885329755566e+02,0.0
	1.570049186808704e+00,0.0

 20	1.778279410038925e-03,0.000000000000000e+00
	1.000000000000000e+00,0.000000000000000e+00
	1.009195453896728e-12,1.312421149593597e-09
	1.009195453896728e-12,1.312421149593597e-09
	1.312421537607503e-09,0.0
	-1.776385330240047e+02,0.0
	1.570027369928194e+00,0.0

 21	1.830206106311058e-03,0.000000000000000e+00
	1.000000000000000e+00,0.000000000000000e+00
	1.132335908447082e-12,1.430781151246974e-09
	1.132335908447082e-12,1.430781151246974e-09
	1.430781599318438e-09,0.0
	-1.768885330753237e+02,0.0
	1.570004915983359e+00,0.0

 22	1.883649089489803e-03,0.000000000000000e+00
	1.000000000000000e+00,0.000000000000000e+00
	1.270501768130125e-12,1.559815384380635e-09
	1.270501768130125e-12,1.559815384380635e-09
	1.559815901805483e-09,0.0
	-1.761385331296808e+02,0.0
	1.569981806371593e+00,0.0

 23	1.938652635952210e-03,0.000000000000000e+00
	1.000000000000000e+00,0.000000000000000e+00
	1.425526409127017e-12,1.700486498337628e-09
	1.425526409127017e-12,1.700486498337628e-09
	1.700487095850513e-09,0.0
	-1.753885331872647e+02,0.0
	1.569958021947085e+00,0.0

 24	1.995262314968882e-03,0.000000000000000e+00
	1.000000000000000e+00,0.000000000000000e+00
	1.599466913251853e-12,1.853843958383201e-09
	1.599466913251853e-12,1.853843958383201e-09
	1.853844648380306e-09,0.0
	-1.746385332482535e+02,0.0
	1.569933543004956e+00,0.0

 25	2.053525026457149e-03,0.000000000000000e+00
	1.000000000000000e+00,0.000000000000000e+00
	1.794631364138922e-12,2.021031875126544e-09
	1.794631364138922e-12,2.021031875126544e-09
	2.021032671922759e-09,0.0
	-1.738885333128599e+02,0.0
	1.569908349264935e+00,0.0

 26	2.113489039836650e-03,0.000000000000000e+00
	1.000000000000000e+00,0.000000000000000e+00
	2.013609474082754e-12,2.203297540048361e-09
	2.013609474082754e-12,2.203297540048361e-09
	2.203298460174262e-09,0.0
	-1.731385333812953e+02,0.0
	1.569882419854560e+00,0.0

 27	2.175204034019526e-03,0.000000000000000e+00
	1.000000000000000e+00,0.000000000000000e+00
	2.259306947902198e-12,2.402000730786904e-09
	2.259306947902198e-12,2.402000730786904e-09
	2.402001793331700e-09,0.0
	-1.723885334537849e+02,0.0
	1.569855733291880e+00,0.0

 28	2.238721138568343e-03,0.000000000000000e+00
	1.000000000000000e+00,0.000000000000000e+00
	2.534984039827855e-12,2.618623855614495e-09
	2.534984039827855e-12,2.618623855614495e-09
	2.618625082622063e-09,0.0
	-1.716385335305708e+02,0.0
	1.569828267467660e+00,0.0

 29	2.304092976055850e-03,0.000000000000000e+00
	1.000000000000000e+00,0.000000000000000e+00
	2.844298815038238e-12,2.854783012787223e-09
	2.844298815038238e-12,2.854783012787223e-09
	2.854784429713432e-09,0.0
	-1.708885336119044e+02,0.0
	1.569799999627070e+00,0.0

 30	2.371373705661660e-03,0.000000000000000e+00
	1.000000000000000e+00,0.000000000000000e+00
	3.191355689889688e-12,3.112240047266266e-09
	3.191355689889688e-12,3.112240047266266e-09
	3.112241683507094e-09,0.0
	-1.701385336980561e+02,0.0
	1.569770906350823e+00,0.0

 31	2.440619068041985e-03,0.000000000000000e+00
	1.000000000000000e+00,0.000000000000000e+00
	3.580759894944812e-12,3.392915694765233e-09
	3.580759894944812e-12,3.392915694765233e-09
	3.392917584266625e-09,0.0
	-1.693885337893136e+02,0.0
	1.569740963535779e+00,0.0

 32	2.511886431509585e-03,0.000000000000000e+00
	1.000000000000000e+00,0.000000000000000e+00
	4.017678583485431e-12,3.698903911179959e-09
	4.017678583485431e-12,3.698903911179959e-09
	3.698906093142080e-09,0.0
	-1.686385338859814e+02,0.0
	1.569710146374979e+00,0.0

 33	2.585234839562196e-03,0.000000000000000e+00
	1.000000000000000e+00,0.000000000000000e+00
	4.507909396384163e-12,4.032487494304626e-09
	4.507909396384163e-12,4.032487494304626e-09
	4.032490013995115e-09,0.0
	-1.678885339883755e+02,0.0
	1.569678429337083e+00,0.0

 34	2.660725059798815e-03,0.000000000000000e+00
	1.000000000000000e+00,0.000000000000000e+00
	5.057957393131225e-12,4.396155114368249e-09
	5.057957393131225e-12,4.396155114368249e-09
	4.396158024061362e-09,0.0
	-1.671385340968345e+02,0.0
	1.569645786145231e+00,0.0

 35	2.738419634264367e-03,0.000000000000000e+00
	1.000000000000000e+00,0.000000000000000e+00
	5.675121369851962e-12,4.792619880451948e-09
	5.675121369851962e-12,4.792619880451948e-09
	4.792623240513049e-09,0.0
	-1.663885342117247e+02,0.0
	1.569612189755261e+00,0.0

 36	2.818382931264460e-03,0.000000000000000e+00
	1.000000000000000e+00,0.000000000000000e+00
	6.367590709717331e-12,5.224839581311853e-09
	6.367590709717331e-12,5.224839581311853e-09
	5.224843461449775e-09,0.0
	-1.656385343334175e+02,0.0
	1.569577612333313e+00,0.0

 37	2.900681198693160e-03,0.000000000000000e+00
	1.000000000000000e+00,0.000000000000000e+00
	7.144554050818917e-12,5.696038751562877e-09
	7.144554050818917e-12,5.696038751562877e-09
	5.696043232276118e-09,0.0
	-1.648885344623267e+02,0.0
	1.569542025232766e+00,0.0

 38	2.985382618917966e-03,0.000000000000000e+00
	1.000000000000000e+00,0.000000000000000e+00
	8.016321213571936e-12,6.209732727917897e-09
	8.016321213571936e-12,6.209732727917897e-09
	6.209737902164668e-09,0.0
	-1.641385345988702e+02,0.0
	1.569505398970503e+00,0.0

 39	3.072557365267454e-03,0.000000000000000e+00
	1.000000000000000e+00,0.000000000000000e+00
	8.994460005405353e-12,6.769753874862201e-09
	8.994460005405353e-12,6.769753874862201e-09
	6.769759849988962e-09,0.0
	-1.633885347435039e+02,0.0
	1.569467703202488e+00,0.0

 40	3.162277660168387e-03,0.000000000000000e+00
	1.000000000000000e+00,0.000000000000000e+00
	1.009194971815431e-11,7.380280175482712e-09
	1.009194971815431e-11,7.380280175482712e-09
	7.380287075451215e-09,0.0
	-1.626385348967112e+02,0.0
	1.569428906698628e+00,0.0

 41	3.254617834980467e-03,0.000000000000000e+00
	1.000000000000000e+00,0.000000000000000e+00
	1.132335335492677e-11,8.045866400723732e-09
	1.132335335492677e-11,8.045866400723732e-09
	8.045874368682763e-09,0.0
	-1.618885350589934e+02,0.0
	1.569388977316896e+00,0.0

 42	3.349654391578285e-03,0.000000000000000e+00
	1.000000000000000e+00,0.000000000000000e+00
	1.270501087172742e-11,8.771478089571970e-09
	1.270501087172742e-11,8.771478089571970e-09
	8.771487290827160e-09,0.0
	-1.611385352308891e+02,0.0
	1.569347881976705e+00,0.0

 43	3.447466065731503e-03,0.000000000000000e+00
	1.000000000000000e+00,0.000000000000000e+00
	1.425525599808023e-11,9.562528593705261e-09
	1.425525599808023e-11,9.562528593705261e-09
	9.562539219148558e-09,0.0
	-1.603885354129760e+02,0.0
	1.569305586631504e+00,0.0

 44	3.548133892335764e-03,0.000000000000000e+00
	1.000000000000000e+00,0.000000000000000e+00
	1.599465951373942e-11,1.042491946298178e-08
	1.599465951373942e-11,1.042491946298178e-08
	1.042493173305175e-08,0.0
	-1.596385356058486e+02,0.0
	1.569262056240565e+00,0.0

 45	3.651741272548387e-03,0.000000000000000e+00
	1.000000000000000e+00,0.000000000000000e+00
	1.794630220945020e-11,1.136508447297078e-08
	1.794630220945020e-11,1.136508447297078e-08
	1.136509864222588e-08,0.0
	-1.588885358101512e+02,0.0
	1.569217254739959e+00,0.0

 46	3.758374042884452e-03,0.000000000000000e+00
	1.000000000000000e+00,0.000000000000000e+00
	2.013608115394851e-11,1.239003762308633e-08
	2.013608115394851e-11,1.239003762308633e-08
	1.239005398548606e-08,0.0
	-1.581385360265584e+02,0.0
	1.569171145012679e+00,0.0

 47	3.868120546330533e-03,0.000000000000000e+00
	1.000000000000000e+00,0.000000000000000e+00
	2.259305333099030e-11,1.350742546331172e-08
	2.259305333099030e-11,1.350742546331172e-08
	1.350744435831519e-08,0.0
	-1.573885362557886e+02,0.0
	1.569123688857883e+00,0.0

 48	3.981071705534985e-03,0.000000000000000e+00
	1.000000000000000e+00,0.000000000000000e+00
	2.534982120630762e-11,1.472558413992584e-08
	2.534982120630762e-11,1.472558413992584e-08
	1.472560595953425e-08,0.0
	-1.566385364986036e+02,0.0
	1.569074846959252e+00,0.0

 49	4.097321098135428e-03,0.000000000000000e+00
	1.000000000000000e+00,0.000000000000000e+00
	2.844296534067448e-11,1.605360158579612e-08
	2.844296534067448e-11,1.605360158579612e-08
	1.605362678268538e-08,0.0
	-1.558885367558063e+02,0.0
	1.569024578852419e+00,0.0

 50	4.216965034285836e-03,0.000000000000000e+00
	1.000000000000000e+00,0.000000000000000e+00
	3.191352978949735e-11,1.750138531915916e-08
	3.191352978949735e-11,1.750138531915916e-08
	1.750141441607116e-08,0.0
	-1.551385370282487e+02,0.0
	1.568972842891441e+00,0.0

 51	4.340102636447452e-03,0.000000000000000e+00
	1.000000000000000e+00,0.000000000000000e+00
	3.580756672986083e-11,1.907973635670109e-08
	3.580756672986083e-11,1.907973635670109e-08
	1.907976995728870e-08,0.0
	-1.543885373168339e+02,0.0
	1.568919596214299e+00,0.0

 52	4.466835921509646e-03,0.000000000000000e+00
	1.000000000000000e+00,0.000000000000000e+00
	4.017674754181771e-11,2.080042979232587e-08
	4.017674754181771e-11,2.080042979232587e-08
	2.080046859367645e-08,0.0
	-1.536385376225182e+02,0.0
	1.568864794707391e+00,0.0

 53	4.597269885308737e-03,0.000000000000000e+00
	1.000000000000000e+00,0.000000000000000e+00
	4.507904845249296e-11,2.267630264273361e-08
	4.507904845249296e-11,2.267630264273361e-08
	2.267634744983099e-08,0.0
	-1.528885379463147e+02,0.0
	1.568808392968984e+00,0.0

 54	4.731512589614821e-03,0.000000000000000e+00
	1.000000000000000e+00,0.000000000000000e+00
	5.057951984099487e-11,2.472134961514477e-08
	5.057951984099487e-11,2.472134961514477e-08
	2.472140135756963e-08,0.0
	-1.521385382892941e+02,0.0
	1.568750344271598e+00,0.0

 55	4.869675251658647e-03,0.000000000000000e+00
	1.000000000000000e+00,0.000000000000000e+00
	5.675114941203964e-11,2.695082751153919e-08
	5.675114941203964e-11,2.695082751153919e-08
	2.695088726275440e-08,0.0
	-1.513885386526059e+02,0.0
	1.568690600523303e+00,0.0

 56	5.011872336272740e-03,0.000000000000000e+00
	1.000000000000000e+00,0.000000000000000e+00
	6.367583069255520e-11,2.938136904850042e-08
	6.367583069255520e-11,2.938136904850042e-08
	2.938143804812135e-08,0.0
	-1.506385390374368e+02,0.0
	1.568629112227865e+00,0.0

 57	5.158221650723075e-03,0.000000000000000e+00
	1.000000000000000e+00,0.000000000000000e+00
	7.144544970116328e-11,3.203110694126760e-08
	7.144544970116328e-11,3.203110694126760e-08
	3.203118662077951e-08,0.0
	-1.498885394450746e+02,0.0
	1.568565828443752e+00,0.0

 58	5.308844442309902e-03,0.000000000000000e+00
	1.000000000000000e+00,0.000000000000000e+00
	8.016310421137304e-11,3.491980917828484e-08
	8.016310421137304e-11,3.491980917828484e-08
	3.491990119074084e-08,0.0
	-1.491385398768647e+02,0.0
	1.568500696741926e+00,0.0

 59	5.463865498818562e-03,0.000000000000000e+00
	1.000000000000000e+00,0.000000000000000e+00
	8.994447178569216e-11,3.806902649482200e-08
	8.994447178569216e-11,3.806902649482200e-08
	3.806913274913765e-08,0.0
	-1.483885403342427e+02,0.0
	1.568433663162408e+00,0.0

 60	5.623413251903512e-03,0.000000000000000e+00
	1.000000000000000e+00,0.000000000000000e+00
	1.009193447343936e-10,4.150225314621858e-08
	1.009193447343936e-10,4.150225314621858e-08
	4.150237584677474e-08,0.0
	-1.476385408187172e+02,0.0
	1.568364672169578e+00,0.0

 61	5.787619883491228e-03,0.000000000000000e+00
	1.000000000000000e+00,0.000000000000000e+00
	1.132333523654549e-10,4.524510217970327e-08
	1.132333523654549e-10,4.524510217970327e-08
	4.524524387207873e-08,0.0
	-1.468885413319036e+02,0.0
	1.568293666606165e+00,0.0

 62	5.956621435290127e-03,0.000000000000000e+00
	1.000000000000000e+00,0.000000000000000e+00
	1.270498933798861e-10,4.932549651277873e-08
	1.270498933798861e-10,4.932549651277873e-08
	4.932566013656132e-08,0.0
	-1.461385418754952e+02,0.0
	1.568220587645897e+00,0.0

 63	6.130557921498231e-03,0.000000000000000e+00
	1.000000000000000e+00,0.000000000000000e+00
	1.425523040518748e-10,5.377387724298376e-08
	1.425523040518748e-10,5.377387724298376e-08
	5.377406619275574e-08,0.0
	-1.453885424512989e+02,0.0
	1.568145374744767e+00,0.0

 64	6.309573444801957e-03,0.000000000000000e+00
	1.000000000000000e+00,0.000000000000000e+00
	1.599462909652823e-10,5.862343074352833e-08
	1.599462909652823e-10,5.862343074352833e-08
	5.862364893929118e-08,0.0
	-1.446385430612206e+02,0.0
	1.568067965590873e+00,0.0

 65	6.493816315762139e-03,0.000000000000000e+00
	1.000000000000000e+00,0.000000000000000e+00
	1.794626605853247e-10,6.391033623844743e-08
	1.794626605853247e-10,6.391033623844743e-08
	6.391058820694698e-08,0.0
	-1.438885437072809e+02,0.0
	1.567988296052802e+00,0.0

 66	6.683439175686173e-03,0.000000000000000e+00
	1.000000000000000e+00,0.000000000000000e+00
	2.013603818851801e-10,6.967403570433055e-08
	2.013603818851801e-10,6.967403570433055e-08
	6.967432667296988e-08,0.0
	-1.431385443916191e+02,0.0
	1.567906300126497e+00,0.0

 67	6.878599123088104e-03,0.000000000000000e+00
	1.000000000000000e+00,0.000000000000000e+00
	2.259300226648170e-10,7.595752811178980e-08
	2.259300226648170e-10,7.595752811178980e-08
	7.595786411707796e-08,0.0
	-1.423885451165121e+02,0.0
	1.567821909880585e+00,0.0

 68	7.079457843841408e-03,0.000000000000000e+00
	1.000000000000000e+00,0.000000000000000e+00
	2.534976051603840e-10,8.280769020199877e-08
	2.534976051603840e-10,8.280769020199877e-08
	8.280807821478545e-08,0.0
	-1.416385458843568e+02,0.0
	1.567735055400088e+00,0.0

 69	7.286181745132307e-03,0.000000000000000e+00
	1.000000000000000e+00,0.000000000000000e+00
	2.844289321017735e-10,9.027562619049251e-08
	2.844289321017735e-10,9.027562619049251e-08
	9.027607426058664e-08,0.0
	-1.408885466976973e+02,0.0
	1.567645664728518e+00,0.0

 70	7.498942093324590e-03,0.000000000000000e+00
	1.000000000000000e+00,0.000000000000000e+00
	3.191344406225707e-10,9.841704900728858e-08
	3.191344406225707e-10,9.841704900728858e-08
	9.841756643046115e-08,0.0
	-1.401385475592330e+02,0.0
	1.567553663808258e+00,0.0

 71	7.717915155850157e-03,0.000000000000000e+00
	1.000000000000000e+00,0.000000000000000e+00
	3.580746484288305e-10,1.072926959171906e-07
	3.580746484288305e-10,1.072926959171906e-07
	1.072932934280264e-07,0.0
	-1.393885484718139e+02,0.0
	1.567458976419215e+00,0.0

 72	7.943282347242850e-03,0.000000000000000e+00
	1.000000000000000e+00,0.000000000000000e+00
	4.017662644892210e-10,1.169687816199087e-07
	4.017662644892210e-10,1.169687816199087e-07
	1.169694716145079e-07,0.0
	-1.386385494384755e+02,0.0
	1.567361524115681e+00,0.0

 73	8.175230379436536e-03,0.000000000000000e+00
	1.000000000000000e+00,0.000000000000000e+00
	4.507890453335249e-10,1.275174922109941e-07
	4.507890453335249e-10,1.275174922109941e-07
