Title: * sky130 bjt 3-stage cout pole-alignment ac sweep: cout=4.7n, rout=10meg/10meg
Date: Fri May 22 21:26:16  2026
Command: ngspice-46, Build Mar 29 2026   15:02:07
Plotname: AC Analysis
Flags: complex
No. Variables: 8
No. Points: 721
Variables:
	0	frequency	frequency grid=3
	1	v(vin)	voltage
	2	v(b3_collector)	voltage
	3	v(vout_final)	voltage
	4	gain	notype
	5	gain_vv	notype
	6	gain_db	decibel
	7	phase_deg	phase
Values:
 0	1.000000000000000e-03,0.000000000000000e+00
	1.000000000000000e+00,0.000000000000000e+00
	4.829710062202342e-13,7.904423310493517e-10
	-1.167126344470991e-13,8.858286719542437e-17
	-1.167126344470991e-13,8.858286719542437e-17
	1.167126680635249e-13,0.0
	-2.586576400562139e+02,0.0
	3.140833671063132e+00,0.0

 1	1.029200527194428e-03,0.000000000000000e+00
	1.000000000000000e+00,0.000000000000000e+00
	5.419023774006891e-13,8.617279586963500e-10
	-1.309537268925969e-13,1.022938980824271e-16
	-1.309537268925969e-13,1.022938980824271e-16
	1.309537668457935e-13,0.0
	-2.576576400941734e+02,0.0
	3.140811508373818e+00,0.0

 2	1.059253725177289e-03,0.000000000000000e+00
	1.000000000000000e+00,0.000000000000000e+00
	6.080244625598539e-13,9.394424425156266e-10
	-1.469324948967331e-13,1.181271492952095e-16
	-1.469324948967331e-13,1.181271492952095e-16
	1.469325423811958e-13,0.0
	-2.566576401343798e+02,0.0
	3.140788698522345e+00,0.0

 3	1.090184492385128e-03,0.000000000000000e+00
	1.000000000000000e+00,0.000000000000000e+00
	6.822146613433401e-13,1.024165565331852e-09
	-1.648609668453963e-13,1.364111022524938e-16
	-1.648609668453963e-13,1.364111022524938e-16
	1.648610232807855e-13,0.0
	-2.556576401769724e+02,0.0
	3.140765222611243e+00,0.0

 4	1.122018454301964e-03,0.000000000000000e+00
	1.000000000000000e+00,0.000000000000000e+00
	7.654574323166551e-13,1.116529397343793e-09
	-1.849770424818417e-13,1.575250813668612e-16
	-1.849770424818417e-13,1.575250813668612e-16
	1.849771095554267e-13,0.0
	-2.546576402220846e+02,0.0
	3.140741061191224e+00,0.0

 5	1.154781984689459e-03,0.000000000000000e+00
	1.000000000000000e+00,0.000000000000000e+00
	8.588573561208358e-13,1.217223011624090e-09
	-2.075476496856671e-13,1.819071236209913e-16
	-2.075476496856671e-13,1.819071236209913e-16
	2.075477294027714e-13,0.0
	-2.536576402698712e+02,0.0
	3.140716194245073e+00,0.0

 6	1.188502227437019e-03,0.000000000000000e+00
	1.000000000000000e+00,0.000000000000000e+00
	9.636537925778756e-13,1.326997624888477e-09
	-2.328722864373212e-13,2.100630662128425e-16
	-2.328722864373212e-13,2.100630662128425e-16
	2.328723811812761e-13,0.0
	-2.526576403204897e+02,0.0
	3.140690601171059e+00,0.0

 7	1.223207119049932e-03,0.000000000000000e+00
	1.000000000000000e+00,0.000000000000000e+00
	1.081237326229029e-12,1.446672201877934e-09
	-2.612869949662943e-13,2.425770408032218e-16
	-2.612869949662943e-13,2.425770408032218e-16
	2.612871075696944e-13,0.0
	-2.516576403741082e+02,0.0
	3.140664260765875e+00,0.0

 8	1.258925411794168e-03,0.000000000000000e+00
	1.000000000000000e+00,0.000000000000000e+00
	1.213168218533125e-12,1.577139565169906e-09
	-2.931688208181706e-13,2.801235920833816e-16
	-2.931688208181706e-13,2.801235920833816e-16
	2.931689546475606e-13,0.0
	-2.506576404308989e+02,0.0
	3.140637151207063e+00,0.0

 9	1.295686697517020e-03,0.000000000000000e+00
	1.000000000000000e+00,0.000000000000000e+00
	1.361197111566699e-12,1.719373055992924e-09
	-3.289408160080885e-13,3.234816720763214e-16
	-3.289408160080885e-13,3.234816720763214e-16
	3.289409750646144e-13,0.0
	-2.496576404910605e+02,0.0
	3.140609250034941e+00,0.0

 10	1.333521432163325e-03,0.000000000000000e+00
	1.000000000000000e+00,0.000000000000000e+00
	1.527288257965318e-12,1.874433795751494e-09
	-3.690776526518034e-13,3.735508005046260e-16
	-3.690776526518034e-13,3.735508005046260e-16
	3.690778416908359e-13,0.0
	-2.486576405547846e+02,0.0
	3.140580534133989e+00,0.0

 11	1.372460961007563e-03,0.000000000000000e+00
	1.000000000000000e+00,0.000000000000000e+00
	1.713645585333123e-12,2.043478602414155e-09
	-4.141119215596029e-13,4.313697264880122e-16
	-4.141119215596029e-13,4.313697264880122e-16
	4.141121462329108e-13,0.0
	-2.476576406222844e+02,0.0
	3.140550979713709e+00,0.0

 12	1.412537544622755e-03,0.000000000000000e+00
	1.000000000000000e+00,0.000000000000000e+00
	1.922741940993190e-12,2.227768620840237e-09
	-4.646411993741282e-13,4.981379787344791e-16
	-4.646411993741282e-13,4.981379787344791e-16
	4.646414663988507e-13,0.0
	-2.466576406937892e+02,0.0
	3.140520562288902e+00,0.0

 13	1.453784385607663e-03,0.000000000000000e+00
	1.000000000000000e+00,0.000000000000000e+00
	2.157351905139781e-12,2.428678731429842e-09
	-5.213359780282126e-13,5.752407513118611e-16
	-5.213359780282126e-13,5.752407513118611e-16
	5.213362953876844e-13,0.0
	-2.456576407695252e+02,0.0
	3.140489256659394e+00,0.0

 14	1.496235656094435e-03,0.000000000000000e+00
	1.000000000000000e+00,0.000000000000000e+00
	2.420588607781867e-12,2.647707807271611e-09
	-5.849485617375547e-13,6.642776412818233e-16
	-5.849485617375547e-13,6.642776412818233e-16
	5.849489389199868e-13,0.0
	-2.446576408497455e+02,0.0
	3.140457036889152e+00,0.0

 15	1.539926526059493e-03,0.000000000000000e+00
	1.000000000000000e+00,0.000000000000000e+00
	2.715945038036223e-12,2.886489896329558e-09
	-6.563230495890024e-13,7.670958343999842e-16
	-6.563230495890024e-13,7.670958343999842e-16
	6.563234978711544e-13,0.0
	-2.436576409347276e+02,0.0
	3.140423876284797e+00,0.0

 16	1.584893192461115e-03,0.000000000000000e+00
	1.000000000000000e+00,0.000000000000000e+00
	3.047340393923416e-12,3.146806412096029e-09
	-7.364065361876517e-13,8.858284273635454e-16
	-7.364065361876517e-13,8.858284273635454e-16
	7.364070689719768e-13,0.0
	-2.426576410247405e+02,0.0
	3.140389747373494e+00,0.0

 17	1.631172909227840e-03,0.000000000000000e+00
	1.000000000000000e+00,0.000000000000000e+00
	3.419172087661929e-12,3.430599423624099e-09
	-8.262616789799831e-13,1.022938681640034e-15
	-8.262616789799831e-13,1.022938681640034e-15
	8.262623121953264e-13,0.0
	-2.416576411200831e+02,0.0
	3.140354621880183e+00,0.0

 18	1.678804018122562e-03,0.000000000000000e+00
	1.000000000000000e+00,0.000000000000000e+00
	3.836374096569281e-12,3.739986144119674e-09
	-9.270807990194176e-13,1.181271126987116e-15
	-9.270807990194176e-13,1.181271126987116e-15
	9.270815515972460e-13,0.0
	-2.406576412210827e+02,0.0
	3.140318470704164e+00,0.0

 19	1.727825980507865e-03,0.000000000000000e+00
	1.000000000000000e+00,0.000000000000000e+00
	4.304482433860318e-12,4.077274726186151e-09
	-1.040201702282622e-12,1.364110574874193e-15
	-1.040201702282622e-12,1.364110574874193e-15
	1.040202596723025e-12,0.0
	-2.396576413280652e+02,0.0
	3.140281263894980e+00,0.0

 20	1.778279410038925e-03,0.000000000000000e+00
	1.000000000000000e+00,0.000000000000000e+00
	4.829708608049752e-12,4.444981481524375e-09
	-1.167125431465480e-12,1.575250266099833e-15
	-1.167125431465480e-12,1.575250266099833e-15
	1.167126494509864e-12,0.0
	-2.386576414413803e+02,0.0
	3.140242970627606e+00,0.0

 21	1.830206106311058e-03,0.000000000000000e+00
	1.000000000000000e+00,0.000000000000000e+00
	5.419022045742639e-12,4.845849653573775e-09
	-1.309536183816816e-12,1.819070566419391e-15
	-1.309536183816816e-12,1.819070566419391e-15
	1.309537447247399e-12,0.0
	-2.376576415614168e+02,0.0
	3.140203559176914e+00,0.0

 22	1.883649089489803e-03,0.000000000000000e+00
	1.000000000000000e+00,0.000000000000000e+00
	6.080242571552438e-12,5.282869883172658e-09
	-1.469323659312646e-12,2.100629842836203e-15
	-1.469323659312646e-12,2.100629842836203e-15
	1.469325160902665e-12,0.0
	-2.366576416885633e+02,0.0
	3.140162996891386e+00,0.0

 23	1.938652635952210e-03,0.000000000000000e+00
	1.000000000000000e+00,0.000000000000000e+00
	6.822144172193473e-12,5.759302519848349e-09
	-1.648608135696259e-12,2.425769405867045e-15
	-1.648608135696259e-12,2.425769405867045e-15
	1.648609920339285e-12,0.0
	-2.356576418232486e+02,0.0
	3.140121250166067e+00,0.0

 24	1.995262314968882e-03,0.000000000000000e+00
	1.000000000000000e+00,0.000000000000000e+00
	7.654571421747633e-12,6.278701945266918e-09
	-1.849768603132575e-12,2.801234694977386e-15
	-1.849768603132575e-12,2.801234694977386e-15
	1.849770724184717e-12,0.0
	-2.346576419659086e+02,0.0
	3.140078284414717e+00,0.0

 25	2.053525026457149e-03,0.000000000000000e+00
	1.000000000000000e+00,0.000000000000000e+00
	8.588570112866395e-12,6.844943090218949e-09
	-2.075474331779158e-12,3.234815221287959e-15
	-2.075474331779158e-12,3.234815221287959e-15
	2.075476852654266e-12,0.0
	-2.336576421170230e+02,0.0
	3.140034064041169e+00,0.0

 26	2.113489039836650e-03,0.000000000000000e+00
	1.000000000000000e+00,0.000000000000000e+00
	9.636533827416663e-12,7.462250343046297e-09
	-2.328720291173862e-12,3.735506170877267e-15
	-2.328720291173862e-12,3.735506170877267e-15
	2.328723287239433e-12,0.0
	-2.326576422770921e+02,0.0
	3.139988552409827e+00,0.0

 27	2.175204034019526e-03,0.000000000000000e+00
	1.000000000000000e+00,0.000000000000000e+00
	1.081236839138132e-11,8.135229065117415e-09
	-2.612866891410621e-12,4.313695021311977e-15
	-2.612866891410621e-12,4.313695021311977e-15
	2.612870452241086e-12,0.0
	-2.316576424466442e+02,0.0
	3.139941711815322e+00,0.0

 28	2.238721138568343e-03,0.000000000000000e+00
	1.000000000000000e+00,0.000000000000000e+00
	1.213167639624082e-11,8.868899948480838e-09
	-2.931684573441374e-12,4.981377043000771e-15
	-2.931684573441374e-12,4.981377043000771e-15
	2.931688805496139e-12,0.0
	-2.306576426262428e+02,0.0
	3.139893503451270e+00,0.0

 29	2.304092976055850e-03,0.000000000000000e+00
	1.000000000000000e+00,0.000000000000000e+00
	1.361196423532619e-11,9.668736472024862e-09
	-3.289403840185300e-12,5.752404156217719e-15
	-3.289403840185300e-12,5.752404156217719e-15
	3.289408869991593e-12,0.0
	-2.296576428164835e+02,0.0
	3.139843887378125e+00,0.0

 30	2.371373705661660e-03,0.000000000000000e+00
	1.000000000000000e+00,0.000000000000000e+00
	1.527287440234786e-11,1.054070573555742e-08
	-3.690771392311613e-12,6.642772306627269e-15
	-3.690771392311613e-12,6.642772306627269e-15
	3.690777370247319e-12,0.0
	-2.286576430180004e+02,0.0
	3.139792822490090e+00,0.0

 31	2.440619068041985e-03,0.000000000000000e+00
	1.000000000000000e+00,0.000000000000000e+00
	1.713644613458918e-11,1.149131297646704e-08
	-4.141113113581300e-12,7.670953321284552e-15
	-4.141113113581300e-12,7.670953321284552e-15
	4.141120218370854e-12,0.0
	-2.276576432314533e+02,0.0
	3.139740266481060e+00,0.0

 32	2.511886431509585e-03,0.000000000000000e+00
	1.000000000000000e+00,0.000000000000000e+00
	1.922740785919424e-11,1.252765010099697e-08
	-4.646404741485112e-12,8.858278129812087e-15
	-4.646404741485112e-12,8.858278129812087e-15
	4.646413185542883e-12,0.0
	-2.266576434575584e+02,0.0
	3.139686175809576e+00,0.0

 33	2.585234839562196e-03,0.000000000000000e+00
	1.000000000000000e+00,0.000000000000000e+00
	2.157350532331660e-11,1.365744859230717e-08
	-5.213351160959473e-12,1.022937930122534e-14
	-5.213351160959473e-12,1.022937930122534e-14
	5.213361196740389e-12,0.0
	-2.256576436970589e+02,0.0
	3.139630505662748e+00,0.0

 34	2.660725059798815e-03,0.000000000000000e+00
	1.000000000000000e+00,0.000000000000000e+00
	2.420586976195292e-11,1.488913718988961e-08
	-5.849475373289681e-12,1.181270207726306e-14
	-5.849475373289681e-12,1.181270207726306e-14
	5.849487300836956e-12,0.0
	-2.246576439507500e+02,0.0
	3.139573209919136e+00,0.0

 35	2.738419634264367e-03,0.000000000000000e+00
	1.000000000000000e+00,0.000000000000000e+00
	2.715943098892817e-11,1.623190477073351e-08
	-6.563218320773598e-12,1.364109450427784e-14
	-6.563218320773598e-12,1.364109450427784e-14
	6.563232496689226e-12,0.0
	-2.236576442194761e+02,0.0
	3.139514241110532e+00,0.0

 36	2.818382931264460e-03,0.000000000000000e+00
	1.000000000000000e+00,0.000000000000000e+00
	3.047338089249026e-11,1.769576890133527e-08
	-7.364050891727767e-12,1.575248890668844e-14
	-7.364050891727767e-12,1.575248890668844e-14
	7.364067739833962e-12,0.0
	-2.226576445041188e+02,0.0
	3.139453550382640e+00,0.0

 37	2.900681198693160e-03,0.000000000000000e+00
	1.000000000000000e+00,0.000000000000000e+00
	3.419169348548991e-11,1.929165057184702e-08
	-8.262599591992503e-12,1.819068883982993e-14
	-8.262599591992503e-12,1.819068883982993e-14
	8.262619616002853e-12,0.0
	-2.216576448056324e+02,0.0
	3.139391087454602e+00,0.0

 38	2.985382618917966e-03,0.000000000000000e+00
	1.000000000000000e+00,0.000000000000000e+00
	3.836370841127624e-11,2.103145567009923e-08
	-9.270787550563709e-12,2.100627784867016e-14
	-9.270787550563709e-12,2.100627784867016e-14
	9.270811349142862e-12,0.0
	-2.206576451250144e+02,0.0
	3.139326800577337e+00,0.0

 39	3.072557365267454e-03,0.000000000000000e+00
	1.000000000000000e+00,0.000000000000000e+00
	4.304478564763171e-11,2.292816380311547e-08
	-1.040199273028633e-11,2.425766888546828e-14
	-1.040199273028633e-11,2.425766888546828e-14
	1.040202101494846e-11,0.0
	-2.196576454633158e+02,0.0
	3.139260636490675e+00,0.0

 40	3.162277660168387e-03,0.000000000000000e+00
	1.000000000000000e+00,0.000000000000000e+00
	4.829704009616224e-11,2.499592512875458e-08
	-1.167122544291369e-11,2.801231615773182e-14
	-1.167122544291369e-11,2.801231615773182e-14
	1.167125905929486e-11,0.0
	-2.186576458216643e+02,0.0
	3.139192540379231e+00,0.0

 41	3.254617834980467e-03,0.000000000000000e+00
	1.000000000000000e+00,0.000000000000000e+00
	5.419016580492448e-11,2.725016591998275e-08
	-1.309532752403873e-11,3.234811454781401e-14
	-1.309532752403873e-11,3.234811454781401e-14
	1.309536747717914e-11,0.0
	-2.176576462012517e+02,0.0
	3.139122455826991e+00,0.0

 42	3.349654391578285e-03,0.000000000000000e+00
	1.000000000000000e+00,0.000000000000000e+00
	6.080236076090108e-11,2.970770364920438e-08
	-1.469319581071023e-11,3.735501563660157e-14
	-1.469319581071023e-11,3.735501563660157e-14
	1.469324329510220e-11,0.0
	-2.166576466033264e+02,0.0
	3.139050324770575e+00,0.0

 43	3.447466065731503e-03,0.000000000000000e+00
	1.000000000000000e+00,0.000000000000000e+00
	6.822136452330786e-11,3.238687245107367e-08
	-1.648603288699166e-11,4.313689385733429e-14
	-1.648603288699166e-11,4.313689385733429e-14
	1.648608932229175e-11,0.0
	-2.156576470292211e+02,0.0
	3.138976087451137e+00,0.0

 44	3.548133892335764e-03,0.000000000000000e+00
	1.000000000000000e+00,0.000000000000000e+00
	7.654562246666908e-11,3.530765989987990e-08
	-1.849762842464965e-11,4.981370149517138e-14
	-1.849762842464965e-11,4.981370149517138e-14
	1.849769549812255e-11,0.0
	-2.146576474803611e+02,0.0
	3.138899682364853e+00,0.0

 45	3.651741272548387e-03,0.000000000000000e+00
	1.000000000000000e+00,0.000000000000000e+00
	8.588559208269763e-11,3.849185612203674e-08
	-2.075467485214988e-11,5.752395724063857e-14
	-2.075467485214988e-11,5.752395724063857e-14
	2.075475456911306e-11,0.0
	-2.136576479582220e+02,0.0
	3.138821046211969e+00,0.0

 46	3.758374042884452e-03,0.000000000000000e+00
	1.000000000000000e+00,0.000000000000000e+00
	9.636520867279025e-11,4.196321635537285e-08
	-2.328712154017866e-11,6.642761992358643e-14
	-2.328712154017866e-11,6.642761992358643e-14
	2.328721628395592e-11,0.0
	-2.126576484644050e+02,0.0
	3.138740113844363e+00,0.0

 47	3.868120546330533e-03,0.000000000000000e+00
	1.000000000000000e+00,0.000000000000000e+00
	1.081235298822752e-10,4.574763816889146e-08
	-2.612857220383461e-11,7.670940704796572e-14
	-2.612857220383461e-11,7.670940704796572e-14
	2.612868480701102e-11,0.0
	-2.116576490005800e+02,0.0
	3.138656818211573e+00,0.0

 48	3.981071705534985e-03,0.000000000000000e+00
	1.000000000000000e+00,0.000000000000000e+00
	1.213165808955891e-10,4.987335466411189e-08
	-2.931673079405549e-11,8.858262697239451e-14
	-2.931673079405549e-11,8.858262697239451e-14
	2.931686462316397e-11,0.0
	-2.106576495685242e+02,0.0
	3.138571090305243e+00,0.0

 49	4.097321098135428e-03,0.000000000000000e+00
	1.000000000000000e+00,0.000000000000000e+00
	1.361194247779369e-10,5.437114509979473e-08
	-3.289390179499668e-11,1.022936042399530e-13
	-3.289390179499668e-11,1.022936042399530e-13
	3.289406085116817e-11,0.0
	-2.096576501701225e+02,0.0
	3.138482859101962e+00,0.0

 50	4.216965034285836e-03,0.000000000000000e+00
	1.000000000000000e+00,0.000000000000000e+00
	1.527284854348093e-10,5.927456451113304e-08
	-3.690755156560261e-11,1.181267898650327e-13
	-3.690755156560261e-11,1.181267898650327e-13
	3.690774060418898e-11,0.0
	-2.086576508073668e+02,0.0
	3.138392051504419e+00,0.0

 51	4.340102636447452e-03,0.000000000000000e+00
	1.000000000000000e+00,0.000000000000000e+00
	1.713641540126925e-10,6.462019403621578e-08
	-4.141093817357518e-11,1.364106625950603e-13
	-4.141093817357518e-11,1.364106625950603e-13
	4.141116284632123e-11,0.0
	-2.076576514823697e+02,0.0
	3.138298592280850e+00,0.0

 52	4.466835921509646e-03,0.000000000000000e+00
	1.000000000000000e+00,0.000000000000000e+00
	1.922737133257989e-10,7.044791381724392e-08
	-4.646381807884642e-11,1.575245435747506e-13
	-4.646381807884642e-11,1.575245435747506e-13
	4.646408510286158e-11,0.0
	-2.066576521973718e+02,0.0
	3.138202404002709e+00,0.0

 53	4.597269885308737e-03,0.000000000000000e+00
	1.000000000000000e+00,0.000000000000000e+00
	2.157346191136510e-10,7.680120051232142e-08
	-5.213323904330349e-11,1.819064657899744e-13
	-5.213323904330349e-11,1.819064657899744e-13
	5.213355640188495e-11,0.0
	-2.056576529547374e+02,0.0
	3.138103406980528e+00,0.0

 54	4.731512589614821e-03,0.000000000000000e+00
	1.000000000000000e+00,0.000000000000000e+00
	2.420581816674711e-10,8.372745163680574e-08
	-5.849442978730129e-11,2.100622615493079e-13
	-5.849442978730129e-11,2.100622615493079e-13
	5.849480696861259e-11,0.0
	-2.046576537569831e+02,0.0
	3.138001519197895e+00,0.0

 55	4.869675251658647e-03,0.000000000000000e+00
	1.000000000000000e+00,0.000000000000000e+00
	2.715936966794248e-10,9.127833915431895e-08
	-6.563179819780223e-11,2.425760565333496e-13
	-6.563179819780223e-11,2.425760565333496e-13
	6.563224647854314e-11,0.0
	-2.036576546067593e+02,0.0
	3.137896656243513e+00,0.0

 56	5.011872336272740e-03,0.000000000000000e+00
	1.000000000000000e+00,0.000000000000000e+00
	3.047330801235908e-10,9.951019495413147e-08
	-7.364005133219524e-11,2.801223881175284e-13
	-7.364005133219524e-11,2.801223881175284e-13
	7.364058411474393e-11,0.0
	-2.026576555068901e+02,0.0
	3.137788731241271e+00,0.0

 57	5.158221650723075e-03,0.000000000000000e+00
	1.000000000000000e+00,0.000000000000000e+00
	3.419160686731272e-10,1.084844310914531e-07
	-8.262545207918484e-11,3.234801993770822e-13
	-8.262545207918484e-11,3.234801993770822e-13
	8.262608529229167e-11,0.0
	-2.016576564603571e+02,0.0
	3.137677654778267e+00,0.0

 58	5.308844442309902e-03,0.000000000000000e+00
	1.000000000000000e+00,0.000000000000000e+00
	3.836360546541189e-10,1.182679979244651e-07
	-9.270722914990352e-11,3.735489990886943e-13
	-9.270722914990352e-11,3.735489990886943e-13
	9.270798172491644e-11,0.0
	-2.006576574703222e+02,0.0
	3.137563334830748e+00,0.0

 59	5.463865498818562e-03,0.000000000000000e+00
	1.000000000000000e+00,0.000000000000000e+00
	4.304466329624856e-10,1.289338835661074e-07
	-1.040191591078182e-10,4.313675229835421e-13
	-1.040191591078182e-10,4.313675229835421e-13
	1.040200535446771e-10,0.0
	-1.996576585401313e+02,0.0
	3.137445676687864e+00,0.0

 60	5.623413251903512e-03,0.000000000000000e+00
	1.000000000000000e+00,0.000000000000000e+00
	4.829689468128199e-10,1.405616583758183e-07
	-1.167113414278521e-10,4.981352833928398e-13
	-1.167113414278521e-10,4.981352833928398e-13
	1.167124044677738e-10,0.0
	-1.986576596733320e+02,0.0
	3.137324582873215e+00,0.0

 61	5.787619883491228e-03,0.000000000000000e+00
	1.000000000000000e+00,0.000000000000000e+00
	5.418999297911261e-10,1.532380685531548e-07
	-1.309521901367865e-10,5.752374543515986e-13
	-1.309521901367865e-10,5.752374543515986e-13
	1.309534535617521e-10,0.0
	-1.976576608736739e+02,0.0
	3.137199953064101e+00,0.0

 62	5.956621435290127e-03,0.000000000000000e+00
	1.000000000000000e+00,0.000000000000000e+00
	6.080215535708445e-10,1.670576832602188e-07
