Title: * sky130 bjt 3-stage high-cutoff sweep ac candidate: ch=30p
Date: Fri May 22 19:59:28  2026
Command: ngspice-46, Build Mar 29 2026   15:02:07
Plotname: AC Analysis
Flags: complex
No. Variables: 7
No. Points: 721
Variables:
	0	frequency	frequency grid=3
	1	v(vin)	voltage
	2	v(vout_final)	voltage
	3	gain	notype
	4	gain_vv	notype
	5	gain_db	decibel
	6	phase_deg	phase
Values:
 0	1.000000000000000e-03,0.000000000000000e+00
	1.000000000000000e+00,0.000000000000000e+00
	2.067749710276244e-08,2.247787463604438e-06
	2.067749710276244e-08,2.247787463604438e-06
	2.247882568201397e-06,0.0
	-1.129645276104070e+02,0.0
	1.561597541675212e+00,0.0

 1	1.029200527194428e-03,0.000000000000000e+00
	1.000000000000000e+00,0.000000000000000e+00
	2.320048986933190e-08,2.450494819081250e-06
	2.320048986933190e-08,2.450494819081250e-06
	2.450604643975488e-06,0.0
	-1.122145349564300e+02,0.0
	1.561328934119976e+00,0.0

 2	1.059253725177289e-03,0.000000000000000e+00
	1.000000000000000e+00,0.000000000000000e+00
	2.603132611967824e-08,2.671481962867133e-06
	2.603132611967824e-08,2.671481962867133e-06
	2.671608786455078e-06,0.0
	-1.114645427377238e+02,0.0
	1.561052483246634e+00,0.0

 3	1.090184492385128e-03,0.000000000000000e+00
	1.000000000000000e+00,0.000000000000000e+00
	2.920756689530424e-08,2.912397251566730e-06
	2.920756689530424e-08,2.912397251566730e-06
	2.912543704890518e-06,0.0
	-1.107145509800885e+02,0.0
	1.560767960040966e+00,0.0

 4	1.122018454301964e-03,0.000000000000000e+00
	1.000000000000000e+00,0.000000000000000e+00
	3.277135608688942e-08,3.175037667532467e-06
	3.277135608688942e-08,3.175037667532467e-06
	3.175206788861126e-06,0.0
	-1.099645597108301e+02,0.0
	1.560475128802745e+00,0.0

 5	1.154781984689459e-03,0.000000000000000e+00
	1.000000000000000e+00,0.000000000000000e+00
	3.676997957138043e-08,3.461362217870791e-06
	3.676997957138043e-08,3.461362217870791e-06
	3.461557515729167e-06,0.0
	-1.092145689588999e+02,0.0
	1.560173746950632e+00,0.0

 6	1.188502227437019e-03,0.000000000000000e+00
	1.000000000000000e+00,0.000000000000000e+00
	4.125649256420552e-08,3.773506541135149e-06
	4.125649256420552e-08,3.773506541135149e-06
	3.773732067088025e-06,0.0
	-1.084645787549422e+02,0.0
	1.559863564821371e+00,0.0

 7	1.223207119049932e-03,0.000000000000000e+00
	1.000000000000000e+00,0.000000000000000e+00
	4.629042350735553e-08,4.113798830443112e-06
	4.629042350735553e-08,4.113798830443112e-06
	4.114059263144323e-06,0.0
	-1.077145891314298e+02,0.0
	1.559544325463135e+00,0.0

 8	1.258925411794168e-03,0.000000000000000e+00
	1.000000000000000e+00,0.000000000000000e+00
	5.193856383045763e-08,4.484777191659738e-06
	5.193856383045763e-08,4.484777191659738e-06
	4.485077933909753e-06,0.0
	-1.069646001227528e+02,0.0
	1.559215764422855e+00,0.0

 9	1.295686697517020e-03,0.000000000000000e+00
	1.000000000000000e+00,0.000000000000000e+00
	5.827585405976047e-08,4.889208565884582e-06
	5.827585405976047e-08,4.889208565884582e-06
	4.889555856709847e-06,0.0
	-1.062146117653410e+02,0.0
	1.558877609527348e+00,0.0

 10	1.333521432163325e-03,0.000000000000000e+00
	1.000000000000000e+00,0.000000000000000e+00
	6.538637802815987e-08,5.330109357158252e-06
	6.538637802815987e-08,5.330109357158252e-06
	5.330510401237165e-06,0.0
	-1.054646240977866e+02,0.0
	1.558529580658071e+00,0.0

 11	1.372460961007563e-03,0.000000000000000e+00
	1.000000000000000e+00,0.000000000000000e+00
	7.336447837278099e-08,5.810767918978615e-06
	7.336447837278099e-08,5.810767918978615e-06
	5.811231036098803e-06,0.0
	-1.047146371609604e+02,0.0
	1.558171389519314e+00,0.0

 12	1.412537544622755e-03,0.000000000000000e+00
	1.000000000000000e+00,0.000000000000000e+00
	8.231600811449535e-08,6.334769067006424e-06
	8.231600811449535e-08,6.334769067006424e-06
	6.335303864653482e-06,0.0
	-1.039646509981605e+02,0.0
	1.557802739399645e+00,0.0

 13	1.453784385607663e-03,0.000000000000000e+00
	1.000000000000000e+00,0.000000000000000e+00
	9.235973491867043e-08,6.906020800446651e-06
	9.235973491867043e-08,6.906020800446651e-06
	6.906638373104245e-06,0.0
	-1.032146656552552e+02,0.0
	1.557423324926405e+00,0.0

 14	1.496235656094435e-03,0.000000000000000e+00
	1.000000000000000e+00,0.000000000000000e+00
	1.036289166608280e-07,7.528783430996517e-06
	1.036289166608280e-07,7.528783430996517e-06
	7.529496590291810e-06,0.0
	-1.024646811808115e+02,0.0
	1.557032831813054e+00,0.0

 15	1.539926526059493e-03,0.000000000000000e+00
	1.000000000000000e+00,0.000000000000000e+00
	1.162730691905791e-07,8.207701336057444e-06
	1.162730691905791e-07,8.207701336057444e-06
	8.208524876525511e-06,0.0
	-1.017146976262957e+02,0.0
	1.556630936599174e+00,0.0

 16	1.584893192461115e-03,0.000000000000000e+00
	1.000000000000000e+00,0.000000000000000e+00
	1.304599497381683e-07,8.947837572574137e-06
	1.304599497381683e-07,8.947837572574137e-06
	8.948788578553810e-06,0.0
	-1.009647150462146e+02,0.0
	1.556217306382893e+00,0.0

 17	1.631172909227840e-03,0.000000000000000e+00
	1.000000000000000e+00,0.000000000000000e+00
	1.463777822636434e-07,9.754711608924822e-06
	1.463777822636434e-07,9.754711608924822e-06
	9.755809808951439e-06,0.0
	-1.002147334983019e+02,0.0
	1.555791598545527e+00,0.0

 18	1.678804018122562e-03,0.000000000000000e+00
	1.000000000000000e+00,0.000000000000000e+00
	1.642377542575520e-07,1.063434045554341e-05
	1.642377542575520e-07,1.063434045554341e-05
	1.063560863158902e-05,0.0
	-9.946475304371145e+01,0.0
	1.555353460468218e+00,0.0

 19	1.727825980507865e-03,0.000000000000000e+00
	1.000000000000000e+00,0.000000000000000e+00
	1.842768180996895e-07,1.159328350014187e-05
	1.842768180996895e-07,1.159328350014187e-05
	1.159474796019088e-05,0.0
	-9.871477374722622e+01,0.0
	1.554902529240327e+00,0.0

 20	1.778279410038925e-03,0.000000000000000e+00
	1.000000000000000e+00,0.000000000000000e+00
	2.067608341194407e-07,1.263869138091683e-05
	2.067608341194407e-07,1.263869138091683e-05
	1.264038250467869e-05,0.0
	-9.796479567746857e+01,0.0
	1.554438431359345e+00,0.0

 21	1.830206106311058e-03,0.000000000000000e+00
	1.000000000000000e+00,0.000000000000000e+00
	2.319880970300015e-07,1.377835926106308e-05
	2.319880970300015e-07,1.377835926106308e-05
	1.378031213014010e-05,0.0
	-9.721481890711318e+01,0.0
	1.553960782422082e+00,0.0

 22	1.883649089489803e-03,0.000000000000000e+00
	1.000000000000000e+00,0.000000000000000e+00
	2.602932924875303e-07,1.502078490046831e-05
	2.602932924875303e-07,1.502078490046831e-05
	1.502304002604835e-05,0.0
	-9.646484351315411e+01,0.0
	1.553469186806891e+00,0.0

 23	1.938652635952210e-03,0.000000000000000e+00
	1.000000000000000e+00,0.000000000000000e+00
	2.920519362299366e-07,1.637523195621169e-05
	2.920519362299366e-07,1.637523195621169e-05
	1.637783611937768e-05,0.0
	-9.571486957714430e+01,0.0
	1.552963237346649e+00,0.0

 24	1.995262314968882e-03,0.000000000000000e+00
	1.000000000000000e+00,0.000000000000000e+00
	3.276853546410223e-07,1.785179898205224e-05
	3.276853546410223e-07,1.785179898205224e-05
	1.785480620413584e-05,0.0
	-9.496489718546003e+01,0.0
	1.552442514992237e+00,0.0

 25	2.053525026457149e-03,0.000000000000000e+00
	1.000000000000000e+00,0.000000000000000e+00
	3.676662727587252e-07,1.946149463931443e-05
	3.676662727587252e-07,1.946149463931443e-05
	1.946496730241766e-05,0.0
	-9.421492642960892e+01,0.0
	1.551906588466272e+00,0.0

 26	2.113489039836650e-03,0.000000000000000e+00
	1.000000000000000e+00,0.000000000000000e+00
	4.125250837991920e-07,2.121631967776432e-05
	4.125250837991920e-07,2.121631967776432e-05
	2.122032981868692e-05,0.0
	-9.346495740650448e+01,0.0
	1.551355013906751e+00,0.0

 27	2.175204034019526e-03,0.000000000000000e+00
	1.000000000000000e+00,0.000000000000000e+00
	4.628568832868102e-07,2.312935629479802e-05
	4.628568832868102e-07,2.312935629479802e-05
	2.313398709920360e-05,0.0
	-9.271499021881374e+01,0.0
	1.550787334500403e+00,0.0

 28	2.238721138568343e-03,0.000000000000000e+00
	1.000000000000000e+00,0.000000000000000e+00
	5.193293610188117e-07,2.521486553624933e-05
	5.193293610188117e-07,2.521486553624933e-05
	2.522021306405539e-05,0.0
	-9.196502497528041e+01,0.0
	1.550203080105358e+00,0.0

 29	2.304092976055850e-03,0.000000000000000e+00
	1.000000000000000e+00,0.000000000000000e+00
	5.826916554444050e-07,2.748839346121499e-05
	5.826916554444050e-07,2.748839346121499e-05
	2.749456863898562e-05,0.0
	-9.121506179109345e+01,0.0
	1.549601766862922e+00,0.0

 30	2.371373705661660e-03,0.000000000000000e+00
	1.000000000000000e+00,0.000000000000000e+00
	6.537842877910372e-07,2.996688685829250e-05
	6.537842877910372e-07,2.996688685829250e-05
	2.997401777994845e-05,0.0
	-9.046510078826034e+01,0.0
	1.548982896798059e+00,0.0

 31	2.440619068041985e-03,0.000000000000000e+00
	1.000000000000000e+00,0.000000000000000e+00
	7.335503075602577e-07,3.266881937095165e-05
	7.335503075602577e-07,3.266881937095165e-05
	3.267705395450434e-05,0.0
	-8.971514209602122e+01,0.0
	1.548345957408339e+00,0.0

 32	2.511886431509585e-03,0.000000000000000e+00
	1.000000000000000e+00,0.000000000000000e+00
	8.230477970594620e-07,3.561432896675085e-05
	8.230477970594620e-07,3.561432896675085e-05
	3.562383802214737e-05,0.0
	-8.896518585127545e+01,0.0
	1.547690421240969e+00,0.0

 33	2.585234839562196e-03,0.000000000000000e+00
	1.000000000000000e+00,0.000000000000000e+00
	9.234639006242523e-07,3.882536776871017e-05
	9.234639006242523e-07,3.882536776871017e-05
	3.883634854039905e-05,0.0
	-8.821523219902085e+01,0.0
	1.547015745457567e+00,0.0

 34	2.660725059798815e-03,0.000000000000000e+00
	1.000000000000000e+00,0.000000000000000e+00
	1.036130564359097e-06,4.232586535801631e-05
	1.036130564359097e-06,4.232586535801631e-05
	4.233854561568364e-05,0.0
	-8.746528129285633e+01,0.0
	1.546321371386385e+00,0.0

 35	2.738419634264367e-03,0.000000000000000e+00
	1.000000000000000e+00,0.000000000000000e+00
	1.162542194874960e-06,4.614190675692770e-05
	1.162542194874960e-06,4.614190675692770e-05
	4.615654951921639e-05,0.0
	-8.671533329547574e+01,0.0
	1.545606724061565e+00,0.0

 36	2.818382931264460e-03,0.000000000000000e+00
	1.000000000000000e+00,0.000000000000000e+00
	1.304375470879768e-06,5.030192640828971e-05
	1.304375470879768e-06,5.030192640828971e-05
	5.031883539743370e-05,0.0
	-8.596538837920532e+01,0.0
	1.544871211749083e+00,0.0

 37	2.900681198693160e-03,0.000000000000000e+00
	1.000000000000000e+00,0.000000000000000e+00
	1.463511569962446e-06,5.483691958583002e-05
	1.463511569962446e-06,5.483691958583002e-05
	5.485644552628435e-05,0.0
	-8.521544672658459e+01,0.0
	1.544114225459030e+00,0.0

 38	2.985382618917966e-03,0.000000000000000e+00
	1.000000000000000e+00,0.000000000000000e+00
	1.642061104860559e-06,5.978067279758377e-05
	1.642061104860559e-06,5.978067279758377e-05
	5.980322068922264e-05,0.0
	-8.446550853097006e+01,0.0
	1.543335138443804e+00,0.0

 39	3.072557365267454e-03,0.000000000000000e+00
	1.000000000000000e+00,0.000000000000000e+00
	1.842392099331353e-06,6.517001488410045e-05
	1.842392099331353e-06,6.517001488410045e-05
	6.519605240075163e-05,0.0
	-8.371557399716316e+01,0.0
	1.542533305681836e+00,0.0

 40	3.162277660168387e-03,0.000000000000000e+00
	1.000000000000000e+00,0.000000000000000e+00
	2.067161373925374e-06,7.104509066456166e-05
	2.067161373925374e-06,7.104509066456166e-05
	7.107515785196424e-05,0.0
	-8.296564334209661e+01,0.0
	1.541708063346454e+00,0.0

 41	3.254617834980467e-03,0.000000000000000e+00
	1.000000000000000e+00,0.000000000000000e+00
	2.319349757047521e-06,7.744965914940002e-05
	2.319349757047521e-06,7.744965914940002e-05
	7.748437962359741e-05,0.0
	-8.221571679555679e+01,0.0
	1.540858728259464e+00,0.0

 42	3.349654391578285e-03,0.000000000000000e+00
	1.000000000000000e+00,0.000000000000000e+00
	2.602301587244547e-06,8.443141851769648e-05
	2.602301587244547e-06,8.443141851769648e-05
	8.447151239596339e-05,0.0
	-8.146579460093540e+01,0.0
	1.539984597328999e+00,0.0

 43	3.447466065731503e-03,0.000000000000000e+00
	1.000000000000000e+00,0.000000000000000e+00
	2.919769029343366e-06,9.204236025286276e-05
	2.919769029343366e-06,9.204236025286276e-05
	9.208865908515817e-05,0.0
	-8.071587701604207e+01,0.0
	1.539084946971237e+00,0.0

 44	3.548133892335764e-03,0.000000000000000e+00
	1.000000000000000e+00,0.000000000000000e+00
	3.275961790665589e-06,1.003391550432722e-04
	3.275961790665589e-06,1.003391550432722e-04
	1.003926190536522e-04,0.0
	-7.996596431396000e+01,0.0
	1.538159032515517e+00,0.0

 45	3.651741272548387e-03,0.000000000000000e+00
	1.000000000000000e+00,0.000000000000000e+00
	3.675602894853654e-06,1.093835732859468e-04
	3.675602894853654e-06,1.093835732859468e-04
	1.094453112812182e-04,0.0
	-7.921605678394228e+01,0.0
	1.537206087592384e+00,0.0

 46	3.758374042884452e-03,0.000000000000000e+00
	1.000000000000000e+00,0.000000000000000e+00
	4.123991250809455e-06,1.192429432830698e-04
	4.123991250809455e-06,1.192429432830698e-04
	1.193142356412099e-04,0.0
	-7.846615473236218e+01,0.0
	1.536225323504115e+00,0.0

 47	3.868120546330533e-03,0.000000000000000e+00
	1.000000000000000e+00,0.000000000000000e+00
	4.627071843903379e-06,1.299906504944531e-04
	4.627071843903379e-06,1.299906504944531e-04
	1.300729757090984e-04,0.0
	-7.771625848376198e+01,0.0
	1.535215928577272e+00,0.0

 48	3.981071705534985e-03,0.000000000000000e+00
	1.000000000000000e+00,0.000000000000000e+00
	5.191514477278401e-06,1.417066815093172e-04
	5.191514477278401e-06,1.417066815093172e-04
	1.418017468402659e-04,0.0
	-7.696636838187212e+01,0.0
	1.534177067496673e+00,0.0

 49	4.097321098135428e-03,0.000000000000000e+00
	1.000000000000000e+00,0.000000000000000e+00
	5.824802103647818e-06,1.544782167201139e-04
	5.824802103647818e-06,1.544782167201139e-04
	1.545879935847967e-04,0.0
	-7.621648479080611e+01,0.0
	1.533107880620469e+00,0.0

 50	4.216965034285836e-03,0.000000000000000e+00
	1.000000000000000e+00,0.000000000000000e+00
	6.535329914686178e-06,1.684002760390889e-04
	6.535329914686178e-06,1.684002760390889e-04
	1.685270408781188e-04,0.0
	-7.546660809621619e+01,0.0
	1.532007483275590e+00,0.0

 51	4.340102636447452e-03,0.000000000000000e+00
	1.000000000000000e+00,0.000000000000000e+00
	7.332516496621255e-06,1.835764223750119e-04
	7.332516496621255e-06,1.835764223750119e-04
	1.837228038382334e-04,0.0
	-7.471673870660405e+01,0.0
	1.530874965033247e+00,0.0

 52	4.466835921509646e-03,0.000000000000000e+00
	1.000000000000000e+00,0.000000000000000e+00
	8.226928519823219e-06,2.001195280084011e-04
	8.226928519823219e-06,2.001195280084011e-04
	2.002885614386790e-04,0.0
	-7.396687705465905e+01,0.0
	1.529709388963784e+00,0.0

 53	4.597269885308737e-03,0.000000000000000e+00
	1.000000000000000e+00,0.000000000000000e+00
	9.230420608277843e-06,2.181526094528136e-04
	9.230420608277843e-06,2.181526094528136e-04
	2.183477997958247e-04,0.0
	-7.321702359867666e+01,0.0
	1.528509790870416e+00,0.0

 54	4.731512589614821e-03,0.000000000000000e+00
	1.000000000000000e+00,0.000000000000000e+00
	1.035629223461504e-05,2.378097368803695e-04
	1.035629223461504e-05,2.378097368803695e-04
	2.380351313230031e-04,0.0
	-7.246717882409997e+01,0.0
	1.527275178501303e+00,0.0

 55	4.869675251658647e-03,0.000000000000000e+00
	1.000000000000000e+00,0.000000000000000e+00
	1.161946371049609e-05,2.592370247258939e-04
	1.161946371049609e-05,2.592370247258939e-04
	2.594972965671382e-04,0.0
	-7.171734324510352e+01,0.0
	1.526004530739316e+00,0.0

 56	5.011872336272740e-03,0.000000000000000e+00
	1.000000000000000e+00,0.000000000000000e+00
	1.303667359306320e-05,2.825937106592708e-04
	1.303667359306320e-05,2.825937106592708e-04
	2.828942561497984e-04,0.0
	-7.096751740630532e+01,0.0
	1.524696796768990e+00,0.0

 57	5.158221650723075e-03,0.000000000000000e+00
	1.000000000000000e+00,0.000000000000000e+00
	1.462670010976177e-05,3.080533307473637e-04
	1.462670010976177e-05,3.080533307473637e-04
	3.084003809022382e-04,0.0
	-7.021770188455923e+01,0.0
	1.523350895220015e+00,0.0

 58	5.308844442309902e-03,0.000000000000000e+00
	1.000000000000000e+00,0.000000000000000e+00
	1.641060951920458e-05,3.358049993067500e-04
	1.641060951920458e-05,3.358049993067500e-04
	3.362057490052753e-04,0.0
	-6.946789729086846e+01,0.0
	1.521965713286692e+00,0.0

 59	5.463865498818562e-03,0.000000000000000e+00
	1.000000000000000e+00,0.000000000000000e+00
	1.841203467942742e-05,3.660548026908258e-04
	1.841203467942742e-05,3.660548026908258e-04
	3.665175597349407e-04,0.0
	-6.871810427239139e+01,0.0
	1.520540105822714e+00,0.0

 60	5.623413251903512e-03,0.000000000000000e+00
	1.000000000000000e+00,0.000000000000000e+00
	2.065748749097187e-05,3.990273170543400e-04
	2.065748749097187e-05,3.990273170543400e-04
	3.995616742694729e-04,0.0
	-6.796832351460330e+01,0.0
	1.519072894410697e+00,0.0

 61	5.787619883491228e-03,0.000000000000000e+00
	1.000000000000000e+00,0.000000000000000e+00
	2.317670932658485e-05,4.349672610141086e-04
	2.317670932658485e-05,4.349672610141086e-04
	4.355842949525668e-04,0.0
	-6.721855574354086e+01,0.0
	1.517562866405727e+00,0.0

 62	5.956621435290127e-03,0.000000000000000e+00
	1.000000000000000e+00,0.000000000000000e+00
	2.600306405664057e-05,4.741412950631075e-04
	2.600306405664057e-05,4.741412950631075e-04
	4.748537954196581e-04,0.0
	-6.646880172819569e+01,0.0
	1.516008773952381e+00,0.0

 63	6.130557921498231e-03,0.000000000000000e+00
	1.000000000000000e+00,0.000000000000000e+00
	2.917397883696209e-05,5.168399806181745e-04
	2.917397883696209e-05,5.168399806181745e-04
	5.176627151018069e-04,0.0
	-6.571906228308146e+01,0.0
	1.514409332974551e+00,0.0

 64	6.309573444801957e-03,0.000000000000000e+00
	1.000000000000000e+00,0.000000000000000e+00
	3.273143845084168e-05,5.633799126954698e-04
	3.273143845084168e-05,5.633799126954698e-04
	5.643299328334590e-04,0.0
	-6.496933827088367e+01,0.0
	1.512763222137293e+00,0.0

 65	6.493816315762139e-03,0.000000000000000e+00
	1.000000000000000e+00,0.000000000000000e+00
	3.672253969597451e-05,6.141060413936091e-04
	3.672253969597451e-05,6.141060413936091e-04
	6.152030355889440e-04,0.0
	-6.421963060534593e+01,0.0
	1.511069081780247e+00,0.0

 66	6.683439175686173e-03,0.000000000000000e+00
	1.000000000000000e+00,0.000000000000000e+00
	4.120011309204369e-05,6.693941986776866e-04
	4.120011309204369e-05,6.693941986776866e-04
	6.706608998160989e-04,0.0
	-6.346994025425464e+01,0.0
	1.509325512821724e+00,0.0

 67	6.878599123088104e-03,0.000000000000000e+00
	1.000000000000000e+00,0.000000000000000e+00
	4.622342006172462e-05,7.296538483459636e-04
	4.622342006172462e-05,7.296538483459636e-04
	7.311165043741504e-04,0.0
	-6.272026824264221e+01,0.0
	1.507531075632938e+00,0.0

 68	7.079457843841408e-03,0.000000000000000e+00
	1.000000000000000e+00,0.000000000000000e+00
	5.185893472173799e-05,7.953310785858981e-04
	5.185893472173799e-05,7.953310785858981e-04
	7.970199957812110e-04,0.0
	-6.197061565618047e+01,0.0
	1.505684288881663e+00,0.0

 69	7.286181745132307e-03,0.000000000000000e+00
	1.000000000000000e+00,0.000000000000000e+00
	5.818122052212740e-05,8.669118581683435e-04
	5.818122052212740e-05,8.669118581683435e-04
	8.688620283188433e-04,0.0
	-6.122098364472251e+01,0.0
	1.503783628344511e+00,0.0

 70	7.498942093324590e-03,0.000000000000000e+00
	1.000000000000000e+00,0.000000000000000e+00
	6.527391320355547e-05,9.449255790818959e-04
	6.527391320355547e-05,9.449255790818959e-04
	9.471774035248949e-04,0.0
	-6.047137342613735e+01,0.0
	1.501827525687387e+00,0.0

 71	7.717915155850157e-03,0.000000000000000e+00
	1.000000000000000e+00,0.000000000000000e+00
	7.323082292485493e-05,1.029948910344111e-03
	7.323082292485493e-05,1.029948910344111e-03
	1.032549035806665e-03,0.0
	-5.972178629029188e+01,0.0
	1.499814367213136e+00,0.0

 72	7.943282347242850e-03,0.000000000000000e+00
	1.000000000000000e+00,0.000000000000000e+00
	8.215716995633884e-05,1.122609989761201e-03
	8.215716995633884e-05,1.122609989761201e-03
	1.125612273248155e-03,0.0
	-5.897222360331253e+01,0.0
	1.497742492575936e+00,0.0

 73	8.175230379436536e-03,0.000000000000000e+00
	1.000000000000000e+00,0.000000000000000e+00
	9.217097006539327e-05,1.223592982644934e-03
	9.217097006539327e-05,1.223592982644934e-03
	1.227059605276256e-03,0.0
