Title: * sky130 bjt 3-stage gain/headroom sweep target-band noise candidate: re=18.5k
Date: Fri May 22 20:44:45  2026
Command: ngspice-46, Build Mar 29 2026   15:02:07
Plotname: Noise Spectral Density Curves
Flags: real
No. Variables: 3
No. Points: 265
Variables:
	0	frequency	frequency grid=3
	1	onoise_spectrum	voltage-density
	2	inoise_spectrum	voltage-density
Values:
 0	1.000000000000000e+01
	4.089769737144196e-04
	5.903104038289689e-06

 1	1.029200527194428e+01
	3.984684195003055e-04
	5.654677981168313e-06

 2	1.059253725177289e+01
	3.879529597760716e-04
	5.416977767004358e-06

 3	1.090184492385128e+01
	3.774558092264220e-04
	5.189532462724882e-06

 4	1.122018454301964e+01
	3.670006081543976e-04
	4.971892807342774e-06

 5	1.154781984689458e+01
	3.566093864249227e-04
	4.763630121289387e-06

 6	1.188502227437019e+01
	3.463025451479772e-04
	4.564335279120580e-06

 7	1.223207119049932e+01
	3.360988545289730e-04
	4.373617741165302e-06

 8	1.258925411794168e+01
	3.260154662395239e-04
	4.191104640053218e-06

 9	1.295686697517020e+01
	3.160679386364169e-04
	4.016439918391452e-06

 10	1.333521432163325e+01
	3.062702731606033e-04
	3.849283514162219e-06

 11	1.372460961007563e+01
	2.966349602846932e-04
	3.689310590687231e-06

 12	1.412537544622755e+01
	2.871730334402638e-04
	3.536210808253905e-06

 13	1.453784385607663e+01
	2.778941294362531e-04
	3.389687634724702e-06

 14	1.496235656094434e+01
	2.688065539770785e-04
	3.249457692656582e-06

 15	1.539926526059493e+01
	2.599173509965330e-04
	3.115250140646206e-06

 16	1.584893192461115e+01
	2.512323746379003e-04
	2.986806086786649e-06

 17	1.631172909227840e+01
	2.427563628274522e-04
	2.863878032279044e-06

 18	1.678804018122562e+01
	2.344930115083211e-04
	2.746229343383664e-06

 19	1.727825980507865e+01
	2.264450487150448e-04
	2.633633750027884e-06

 20	1.778279410038925e+01
	2.186143077843946e-04
	2.525874869506368e-06

 21	1.830206106311058e+01
	2.110017991012212e-04
	2.422745753819641e-06

 22	1.883649089489803e+01
	2.036077798808484e-04
	2.324048459297886e-06

 23	1.938652635952210e+01
	1.964318215794152e-04
	2.229593637249222e-06

 24	1.995262314968882e+01
	1.894728746097344e-04
	2.139200144457213e-06

 25	2.053525026457149e+01
	1.827293301155281e-04
	2.052694672431095e-06

 26	2.113489039836650e+01
	1.761990786259213e-04
	1.969911394383854e-06

 27	2.175204034019526e+01
	1.698795654705314e-04
	1.890691628981826e-06

 28	2.238721138568343e+01
	1.637678428908905e-04
	1.814883519969249e-06

 29	2.304092976055849e+01
	1.578606188260188e-04
	1.742341730830530e-06

 30	2.371373705661659e+01
	1.521543023910492e-04
	1.672927153704730e-06

 31	2.440619068041984e+01
	1.466450460983064e-04
	1.606506631816884e-06

 32	2.511886431509584e+01
	1.413287848986262e-04
	1.542952694735927e-06

 33	2.585234839562195e+01
	1.362012721397931e-04
	1.482143305812374e-06

 34	2.660725059798814e+01
	1.312581125586275e-04
	1.423961621187952e-06

 35	2.738419634264367e+01
	1.264947924337362e-04
	1.368295759806960e-06

 36	2.818382931264459e+01
	1.219067070367406e-04
	1.315038583893169e-06

 37	2.900681198693160e+01
	1.174891855253220e-04
	1.264087489388987e-06

 38	2.985382618917966e+01
	1.132375134251640e-04
	1.215344205883161e-06

 39	3.072557365267453e+01
	1.091469528496454e-04
	1.168714605582142e-06

 40	3.162277660168386e+01
	1.052127606048541e-04
	1.124108520906126e-06

 41	3.254617834980466e+01
	1.014302043262489e-04
	1.081439570315820e-06

 42	3.349654391578284e+01
	9.779457678958961e-05
	1.040624991999029e-06

 43	3.447466065731501e+01
	9.430120853449580e-05
	1.001585485067604e-06

 44	3.548133892335763e+01
	9.094547893428858e-05
	9.642450579354940e-07

 45	3.651741272548386e+01
	8.772282583951618e-05
	9.285308835675609e-07

 46	3.758374042884451e+01
	8.462875391725903e-05
	8.943731613057747e-07

 47	3.868120546330531e+01
	8.165884180140916e-05
	8.617049849960128e-07

 48	3.981071705534983e+01
	7.880874816287319e-05
	8.304622171532785e-07

 49	4.097321098135426e+01
	7.607421680212507e-05
	8.005833689167396e-07

 50	4.216965034285834e+01
	7.345108085994577e-05
	7.720094855585874e-07

 51	4.340102636447450e+01
	7.093526623555285e-05
	7.446840373219837e-07

 52	4.466835921509644e+01
	6.852279429544992e-05
	7.185528153733442e-07

 53	4.597269885308735e+01
	6.620978394952825e-05
	6.935638326634629e-07

 54	4.731512589614819e+01
	6.399245316560024e-05
	6.696672294998401e-07

 55	4.869675251658646e+01
	6.186711998719840e-05
	6.468151836395887e-07

 56	5.011872336272738e+01
	5.983020311453939e-05
	6.249618247183692e-07

 57	5.158221650723073e+01
	5.787822210272096e-05
	6.040631528358224e-07

 58	5.308844442309900e+01
	5.600779722661822e-05
	5.840769611223255e-07

 59	5.463865498818559e+01
	5.421564905686763e-05
	5.649627621155510e-07

 60	5.623413251903509e+01
	5.249859778714656e-05
	5.466817177780902e-07

 61	5.787619883491225e+01
	5.085356234831429e-05
	5.291965729899433e-07

 62	5.956621435290124e+01
	4.927755934136099e-05
	5.124715923516915e-07

 63	6.130557921498227e+01
	4.776770181719501e-05
	4.964725001358051e-07

 64	6.309573444801953e+01
	4.632119792789825e-05
	4.811664232252738e-07

 65	6.493816315762135e+01
	4.493534947087669e-05
	4.665218368802161e-07

 66	6.683439175686169e+01
	4.360755034442898e-05
	4.525085131748216e-07

 67	6.878599123088100e+01
	4.233528493055712e-05
	4.390974719490481e-07

 68	7.079457843841404e+01
	4.111612641842059e-05
	4.262609341216080e-07

 69	7.286181745132302e+01
	3.994773507977133e-05
	4.139722772136785e-07

 70	7.498942093324584e+01
	3.882785650554173e-05
	4.022059929360531e-07

 71	7.717915155850152e+01
	3.775431981146779e-05
	3.909376466963140e-07

 72	7.943282347242844e+01
	3.672503581875088e-05
	3.801438388873325e-07

 73	8.175230379436530e+01
	3.573799521493989e-05
	3.698021678234755e-07

 74	8.413951416451982e+01
	3.479126669892691e-05
	3.598911941970371e-07

 75	8.659643233600687e+01
	3.388299511321799e-05
	3.503904069338523e-07

 76	8.912509381337490e+01
	3.301139956611336e-05
	3.412801903343203e-07

 77	9.172759353897833e+01
	3.217477154578599e-05
	3.325417923936671e-07

 78	9.440608762859272e+01
	3.137147302802338e-05
	3.241572942035027e-07

 79	9.716279515771102e+01
	3.059993457925967e-05
	3.161095803450380e-07

 80	1.000000000000004e+02
	2.985865345625256e-05
	3.083823101930518e-07

 81	1.029200527194432e+02
	2.914619170400285e-05
	3.009598900583326e-07

 82	1.059253725177293e+02
	2.846117425331995e-05
	2.938274461050280e-07

 83	1.090184492385132e+02
	2.780228701980790e-05
	2.869707979877468e-07

 84	1.122018454301968e+02
	2.716827500606746e-05
	2.803764331614138e-07

 85	1.154781984689463e+02
	2.655794040899413e-05
	2.740314818248177e-07

 86	1.188502227437024e+02
	2.597014073454161e-05
	2.679236924657976e-07

 87	1.223207119049937e+02
	2.540378692206389e-05
	2.620414079830173e-07

 88	1.258925411794173e+02
	2.485784148092006e-05
	2.563735423651173e-07

 89	1.295686697517025e+02
	2.433131664178365e-05
	2.509095579136159e-07

 90	1.333521432163330e+02
	2.382327252551676e-05
	2.456394430004885e-07

 91	1.372460961007568e+02
	2.333281533223239e-05
	2.405536903554633e-07

 92	1.412537544622761e+02
	2.285909555344254e-05
	2.356432758812883e-07

 93	1.453784385607669e+02
	2.240130620997504e-05
	2.308996379978467e-07

 94	1.496235656094440e+02
	2.195868111838815e-05
	2.263146575179922e-07

 95	1.539926526059499e+02
	2.153049318849244e-05
	2.218806380592808e-07

 96	1.584893192461121e+02
	2.111605275445810e-05
	2.175902869966269e-07

 97	1.631172909227846e+02
	2.071470594182018e-05
	2.134366969611802e-07

 98	1.678804018122568e+02
	2.032583307253563e-05
	2.094133278906447e-07

 99	1.727825980507872e+02
	1.994884711004196e-05
	2.055139896357078e-07

 100	1.778279410038932e+02
	1.958319214599076e-05
	2.017328251265097e-07

 101	1.830206106311065e+02
	1.922834193020610e-05
	1.980642941019875e-07

 102	1.883649089489810e+02
	1.888379844508084e-05
	1.945031574036997e-07

 103	1.938652635952217e+02
	1.854909052544982e-05
	1.910444618343657e-07

 104	1.995262314968890e+02
	1.822377252470925e-05
	1.876835255799137e-07

 105	2.053525026457157e+02
	1.790742302774097e-05
	1.844159241922616e-07

 106	2.113489039836658e+02
	1.759964361094476e-05
	1.812374771286408e-07

 107	2.175204034019534e+02
	1.730005764950515e-05
	1.781442348416814e-07

 108	2.238721138568351e+02
	1.700830917179267e-05
	1.751324664131589e-07

 109	2.304092976055858e+02
	1.672406176061728e-05
	1.721986477228806e-07

 110	2.371373705661668e+02
	1.644699750086023e-05
	1.693394501429748e-07

 111	2.440619068041993e+02
	1.617681597290981e-05
	1.665517297466978e-07

 112	2.511886431509594e+02
	1.591323329108962e-05
	1.638325170198508e-07

 113	2.585234839562205e+02
	1.565598118624445e-05
	1.611790070620033e-07

 114	2.660725059798825e+02
	1.540480613146115e-05
	1.585885502639338e-07

 115	2.738419634264377e+02
	1.515946850983683e-05
	1.560586434470735e-07

 116	2.818382931264470e+02
	1.491974182315154e-05
	1.535869214501842e-07

 117	2.900681198693171e+02
	1.468541194016605e-05
	1.511711491481242e-07

 118	2.985382618917977e+02
	1.445627638332797e-05
	1.488092138872219e-07

 119	3.072557365267465e+02
	1.423214365246777e-05
	1.464991183216420e-07

 120	3.162277660168398e+02
	1.401283258423545e-05
	1.442389736349737e-07

 121	3.254617834980479e+02
	1.379817174582024e-05
	1.420269931313050e-07

 122	3.349654391578297e+02
	1.358799886162906e-05
	1.398614861801314e-07

 123	3.447466065731516e+02
	1.338216027152106e-05
	1.377408524995619e-07

 124	3.548133892335777e+02
	1.318051041923524e-05
	1.356635767625362e-07

 125	3.651741272548400e+02
	1.298291136967963e-05
	1.336282235109926e-07

 126	3.758374042884466e+02
	1.278923235368059e-05
	1.316334323633291e-07

 127	3.868120546330547e+02
	1.259934933898274e-05
	1.296779135007266e-07

 128	3.981071705534999e+02
	1.241314462613429e-05
	1.277604434184424e-07

 129	4.097321098135442e+02
	1.223050646806345e-05
	1.258798609284896e-07

 130	4.216965034285851e+02
	1.205132871211729e-05
	1.240350634006224e-07

 131	4.340102636447468e+02
	1.187551046340041e-05
	1.222250032289861e-07

 132	4.466835921509662e+02
	1.170295576829057e-05
	1.204486845122518e-07

 133	4.597269885308754e+02
	1.153357331701352e-05
	1.187051599355597e-07

 134	4.731512589614838e+02
	1.136727616428049e-05
	1.169935278430526e-07

 135	4.869675251658666e+02
	1.120398146693461e-05
	1.153129294902535e-07

 136	5.011872336272759e+02
	1.104361023767277e-05
	1.136625464660694e-07

 137	5.158221650723094e+02
	1.088608711392694e-05
	1.120415982745923e-07

 138	5.308844442309922e+02
	1.073134014101553e-05
	1.104493400674204e-07

 139	5.463865498818583e+02
	1.057930056873757e-05
	1.088850605175983e-07

 140	5.623413251903534e+02
	1.042990266060670e-05
	1.073480798267970e-07

 141	5.787619883491251e+02
	1.028308351499760e-05
	1.058377478576844e-07

 142	5.956621435290151e+02
	1.013878289744167e-05
	1.043534423839764e-07

 143	6.130557921498255e+02
	9.996943083439345e-06
	1.028945674509453e-07

 144	6.309573444801982e+02
	9.857508711114809e-06
	1.014605518396294e-07

 145	6.493816315762165e+02
	9.720426643129366e-06
	1.000508476283281e-07

 146	6.683439175686200e+02
	9.585645837253511e-06
	9.866492884533071e-08

 147	6.878599123088131e+02
	9.453117225072977e-06
	9.730229020716607e-08

 148	7.079457843841436e+02
	9.322793598311616e-06
	9.596244593700510e-08

 149	7.286181745132336e+02
	9.194629502289909e-06
	9.464492865813162e-08

 150	7.498942093324620e+02
	9.068581136056688e-06
	9.334928835771918e-08

 151	7.717915155850188e+02
	8.944606258768850e-06
	9.207509141643845e-08

 152	7.943282347242881e+02
	8.822664101933381e-06
	9.082191969964964e-08

 153	8.175230379436568e+02
	8.702715287103262e-06
	8.958936970623517e-08

 154	8.413951416452022e+02
	8.584721748681155e-06
	8.837705177135692e-08

 155	8.659643233600727e+02
	8.468646661524412e-06
	8.718458931962031e-08

 156	8.912509381337532e+02
	8.354454372979735e-06
	8.601161816539361e-08

 157	9.172759353897875e+02
	8.242110339117314e-06
	8.485778585720283e-08

 158	9.440608762859316e+02
	8.131581064825562e-06
	8.372275106327583e-08

 159	9.716279515771147e+02
	8.022834047561234e-06
	8.260618299566733e-08

 160	1.000000000000009e+03
	7.915837724468611e-06
	8.150776087025988e-08

 161	1.029200527194437e+03
	7.810561422665159e-06
	8.042717340041337e-08

 162	1.059253725177299e+03
	7.706975312471863e-06
	7.936411832197805e-08

 163	1.090184492385138e+03
	7.605050363373065e-06
	7.831830194764392e-08

 164	1.122018454301974e+03
	7.504758302555351e-06
	7.728943874863439e-08

 165	1.154781984689469e+03
	7.406071575791159e-06
	7.627725096199235e-08

 166	1.188502227437030e+03
	7.308963310567204e-06
	7.528146822171459e-08

 167	1.223207119049943e+03
	7.213407281244818e-06
	7.430182721218439e-08

 168	1.258925411794179e+03
	7.119377876150214e-06
	7.333807134240262e-08

 169	1.295686697517032e+03
	7.026850066429638e-06
	7.238995043964919e-08

 170	1.333521432163337e+03
	6.935799376553214e-06
	7.145722046129305e-08

 171	1.372460961007575e+03
	6.846201856352155e-06
	7.053964322347666e-08

 172	1.412537544622768e+03
	6.758034054469504e-06
	6.963698614570758e-08

 173	1.453784385607676e+03
	6.671272993122599e-06
	6.874902201011007e-08

 174	1.496235656094448e+03
	6.585896144075101e-06
	6.787552873450679e-08

 175	1.539926526059507e+03
	6.501881405730254e-06
	6.701628915835475e-08

 176	1.584893192461129e+03
	6.419207081256421e-06
	6.617109084069505e-08

 177	1.631172909227855e+03
	6.337851857667534e-06
	6.533972586932149e-08

 178	1.678804018122577e+03
	6.257794785764965e-06
	6.452199068044739e-08

 179	1.727825980507881e+03
	6.179015260895226e-06
	6.371768588811492e-08

 180	1.778279410038941e+03
	6.101493004436452e-06
	6.292661612283712e-08

 181	1.830206106311075e+03
	6.025208045944786e-06
	6.214858987871566e-08

 182	1.883649089489820e+03
	5.950140705932134e-06
	6.138341936858755e-08

 183	1.938652635952227e+03
	5.876271579171657e-06
	6.063092038665524e-08

 184	1.995262314968900e+03
	5.803581518520944e-06
	5.989091217807329e-08

 185	2.053525026457167e+03
	5.732051619183719e-06
	5.916321731515622e-08

 186	2.113489039836669e+03
	5.661663203380755e-06
	5.844766157963981e-08

 187	2.175204034019545e+03
	5.592397805368537e-06
	5.774407385073453e-08

 188	2.238721138568363e+03
	5.524237156775671e-06
	5.705228599852465e-08

 189	2.304092976055870e+03
	5.457163172215282e-06
	5.637213278247996e-08

 190	2.371373705661681e+03
	5.391157935129650e-06
	5.570345175464830e-08

 191	2.440619068042006e+03
	5.326203683831433e-06
	5.504608316731110e-08

 192	2.511886431509607e+03
	5.262282797719085e-06
	5.439986988487834e-08

 193	2.585234839562218e+03
	5.199377783618667e-06
	5.376465729967067e-08

 194	2.660725059798838e+03
	5.137471262231500e-06
	5.314029325141990e-08

 195	2.738419634264391e+03
	5.076545954664425e-06
	5.252662795033464e-08

 196	2.818382931264484e+03
	5.016584668992932e-06
	5.192351390338480e-08

 197	2.900681198693185e+03
	4.957570286868062e-06
	5.133080584381811e-08

 198	2.985382618917992e+03
	4.899485750108831e-06
	5.074836066354422e-08

 199	3.072557365267480e+03
	4.842314047287247e-06
	5.017603734843474e-08

 200	3.162277660168414e+03
	4.786038200264010e-06
	4.961369691620054e-08

 201	3.254617834980495e+03
	4.730641250678237e-06
	4.906120235691485e-08

 202	3.349654391578314e+03
	4.676106246355528e-06
	4.851841857588211e-08

 203	3.447466065731532e+03
	4.622416227639595e-06
	4.798521233888586e-08

 204	3.548133892335794e+03
	4.569554213623421e-06
	4.746145221966750e-08

 205	3.651741272548418e+03
	4.517503188279980e-06
	4.694700854949110e-08

 206	3.758374042884484e+03
	4.466246086479074e-06
	4.644175336882388e-08

 207	3.868120546330566e+03
	4.415765779894262e-06
	4.594556038097260e-08

 208	3.981071705535018e+03
	4.366045062796954e-06
	4.545830490764087e-08

 209	4.097321098135462e+03
	4.317066637741785e-06
	4.497986384637199e-08

 210	4.216965034285871e+03
	4.268813101150152e-06
	4.451011562974893e-08

 211	4.340102636447489e+03
	4.221266928803689e-06
	4.404894018638409e-08

 212	4.466835921509683e+03
	4.174410461265693e-06
	4.359621890364519e-08

 213	4.597269885308776e+03
	4.128225889253660e-06
	4.315183459201806e-08

 214	4.731512589614861e+03
	4.082695238979659e-06
	4.271567145113816e-08

 215	4.869675251658689e+03
	4.037800357506414e-06
	4.228761503743462e-08

 216	5.011872336272783e+03
	3.993522898151717e-06
	4.186755223334768e-08

 217	5.158221650723120e+03
	3.949844305980951e-06
	4.145537121816069e-08

 218	5.308844442309948e+03
	3.906745803464198e-06
	4.105096144031850e-08

 219	5.463865498818609e+03
	3.864208376336297e-06
	4.065421359132303e-08

 220	5.623413251903560e+03
	3.822212759759974e-06
	4.026501958115073e-08

 221	5.787619883491278e+03
	3.780739424855621e-06
	3.988327251513479e-08

 222	5.956621435290179e+03
	3.739768565705847e-06
	3.950886667239223e-08

 223	6.130557921498284e+03
	3.699280086943866e-06
	3.914169748572511e-08

 224	6.309573444802011e+03
	3.659253592040804e-06
	3.878166152298624e-08

 225	6.493816315762195e+03
	3.619668372437912e-06
	3.842865646997318e-08

 226	6.683439175686231e+03
	3.580503397666269e-06
	3.808258111475855e-08

 227	6.878599123088164e+03
	3.541737306627482e-06
	3.774333533350304e-08

 228	7.079457843841470e+03
	3.503348400224360e-06
	3.741082007776116e-08

 229	7.286181745132371e+03
	3.465314635533305e-06
	3.708493736325181e-08

 230	7.498942093324656e+03
	3.427613621758634e-06
	3.676559026010023e-08

 231	7.717915155850224e+03
	3.390222618188846e-06
	3.645268288457198e-08

 232	7.943282347242919e+03
	3.353118534440230e-06
	3.614612039226257e-08

 233	8.175230379436608e+03
	3.316277933251700e-06
	3.584580897279955e-08

 234	8.413951416452062e+03
	3.279677036143877e-06
	3.555165584601516e-08

 235	8.659643233600769e+03
	3.243291732258936e-06
	3.526356925961476e-08

 236	8.912509381337575e+03
	3.207097590733260e-06
	3.498145848834472e-08

 237	9.172759353897920e+03
	3.171069876951030e-06
	3.470523383465279e-08

 238	9.440608762859361e+03
	3.135183573067780e-06
	3.443480663087669e-08

 239	9.716279515771193e+03
	3.099413403189370e-06
	3.417008924294210e-08

 240	1.000000000000014e+04
	3.063733863615054e-06
	3.391099507558132e-08

 241	1.029200527194442e+04
	3.028119258553032e-06
	3.365743857910509e-08

 242	1.059253725177303e+04
	2.992543741732428e-06
	3.340933525772152e-08

 243	1.090184492385143e+04
	2.956981364319098e-06
	3.316660167940022e-08

 244	1.122018454301979e+04
	2.921406129547403e-06
	3.292915548734946e-08

 245	1.154781984689474e+04
	2.885792054461659e-06
	3.269691541306756e-08

 246	1.188502227437035e+04
	2.850113239130056e-06
	3.246980129101834e-08

 247	1.223207119049949e+04
	2.814343943680728e-06
	3.224773407494446e-08

 248	1.258925411794185e+04
	2.778458673436283e-06
	3.203063585586559e-08

 249	1.295686697517038e+04
	2.742432272395090e-06
	3.181842988176364e-08

 250	1.333521432163343e+04
	2.706240025227327e-06
	3.161104057898795e-08

 251	1.372460961007581e+04
	2.669857767867578e-06
	3.140839357546625e-08

 252	1.412537544622774e+04
	2.633262006701286e-06
	3.121041572568190e-08

 253	1.453784385607682e+04
	2.596430046217953e-06
	3.101703513756489e-08

 254	1.496235656094455e+04
	2.559340124887010e-06
	3.082818120127569e-08

 255	1.539926526059514e+04
	2.521971558864836e-06
	3.064378461996167e-08

 256	1.584893192461136e+04
	2.484304892988112e-06
	3.046377744257962e-08

 257	1.631172909227862e+04
	2.446322058327125e-06
	3.028809309883517e-08

 258	1.678804018122584e+04
	2.408006535409545e-06
	3.011666643633369e-08

 259	1.727825980507888e+04
	2.369343522012038e-06
	2.994943376003828e-08

 260	1.778279410038948e+04
	2.330320104224421e-06
	2.978633287413091e-08

 261	1.830206106311082e+04
	2.290925429288291e-06
	2.962730312641910e-08

 262	1.883649089489827e+04
	2.251150878501104e-06
	2.947228545536036e-08

 263	1.938652635952235e+04
	2.210990238276576e-06
	2.932122243992226e-08

 264	1.995262314968908e+04
	2.170439867268206e-06
	2.917405835235380e-08

