Title: * sky130 bjt 3-stage load-buffer/filter fallback ac: ideal opamp follower plus two rc poles, r=15k, c=220p
Date: Fri May 22 23:02:42  2026
Command: ngspice-46, Build Mar 29 2026   15:02:07
Plotname: AC Analysis
Flags: complex
No. Variables: 10
No. Points: 721
Variables:
	0	frequency	frequency grid=3
	1	v(vin)	voltage
	2	v(b3_collector)	voltage
	3	v(vout_drv)	voltage
	4	v(vfilt1)	voltage
	5	v(vout_final)	voltage
	6	gain	notype
	7	gain_vv	notype
	8	gain_db	decibel
	9	phase_deg	phase
Values:
 0	1.000000000000000e-03,0.000000000000000e+00
	1.000000000000000e+00,0.000000000000000e+00
	4.861096667836867e-13,7.904423276608954e-10
	-2.483247084808211e-13,2.307293637874788e-16
	-2.483247084710350e-13,2.307398956110565e-16
	-2.483247084660332e-13,2.307452785431073e-16
	-2.483247084660332e-13,2.307452785431073e-16
	2.483248156711769e-13,0.0
	-2.520995975645641e+02,0.0
	3.140663445966605e+00,0.0

 1	1.029200527194428e-03,0.000000000000000e+00
	1.000000000000000e+00,0.000000000000000e+00
	5.454240123269667e-13,8.617279547834594e-10
	-2.786248965660048e-13,2.664421082344090e-16
	-2.786248965543739e-13,2.664542701941492e-16
	-2.786248965484292e-13,2.664604863069052e-16
	-2.786248965484292e-13,2.664604863069052e-16
	2.786250239619795e-13,0.0
	-2.510995976232405e+02,0.0
	3.140636312615336e+00,0.0

 2	1.059253725177289e-03,0.000000000000000e+00
	1.000000000000000e+00,0.000000000000000e+00
	6.119758017609028e-13,9.394424379971301e-10
	-3.126222650683385e-13,3.076825411621372e-16
	-3.126222650545151e-13,3.076965855736626e-16
	-3.126222650474497e-13,3.077037638284421e-16
	-3.126222650474497e-13,3.077037638284421e-16
	3.126224164787359e-13,0.0
	-2.500995976853913e+02,0.0
	3.140608386956014e+00,0.0

 3	1.090184492385128e-03,0.000000000000000e+00
	1.000000000000000e+00,0.000000000000000e+00
	6.866481366374278e-13,1.024165560113937e-09
	-3.507679379072445e-13,3.553062489446639e-16
	-3.507679378908155e-13,3.553224671774906e-16
	-3.507679378824184e-13,3.553307564964908e-16
	-3.507679378824184e-13,3.553307564964908e-16
	3.507681178588365e-13,0.0
	-2.490995977512293e+02,0.0
	3.140579645852836e+00,0.0

 4	1.122018454301964e-03,0.000000000000000e+00
	1.000000000000000e+00,0.000000000000000e+00
	7.704318731654401e-13,1.116529391318429e-09
	-3.935680843858249e-13,4.103012472647885e-16
	-3.935680843662989e-13,4.103199757871605e-16
	-3.935680843563189e-13,4.103295481430394e-16
	-3.935680843563189e-13,4.103295481430394e-16
	3.935682982586894e-13,0.0
	-2.480995978209624e+02,0.0
	3.140550065494421e+00,0.0

 5	1.154781984689459e-03,0.000000000000000e+00
	1.000000000000000e+00,0.000000000000000e+00
	8.644387702581902e-13,1.217223004666012e-09
	-4.415906357306117e-13,4.738084787727037e-16
	-4.415906357074051e-13,4.738301061320584e-16
	-4.415906356955438e-13,4.738411601157285e-16
	-4.415906356955438e-13,4.738411601157285e-16
	4.415908899189831e-13,0.0
	-2.470995978948310e+02,0.0
	3.140519621374086e+00,0.0

 6	1.188502227437019e-03,0.000000000000000e+00
	1.000000000000000e+00,0.000000000000000e+00
	9.699162418907086e-13,1.326997616853322e-09
	-4.954728211738701e-13,5.471454834137623e-16
	-4.954728211462890e-13,5.471704582976447e-16
	-4.954728211321918e-13,5.471832232382954e-16
	-4.954728211321918e-13,5.471832232382954e-16
	4.954731232773103e-13,0.0
	-2.460995979730770e+02,0.0
	3.140488288269541e+00,0.0

 7	1.223207119049932e-03,0.000000000000000e+00
	1.000000000000000e+00,0.000000000000000e+00
	1.088263909510903e-12,1.446672192599208e-09
	-5.559296235724390e-13,6.318337324911590e-16
	-5.559296235396588e-13,6.318625730358187e-16
	-5.559296235229042e-13,6.318773137586445e-16
	-5.559296235229042e-13,6.318773137586445e-16
	5.559299826230437e-13,0.0
	-2.450995980559584e+02,0.0
	3.140456040221991e+00,0.0

 8	1.258925411794168e-03,0.000000000000000e+00
	1.000000000000000e+00,0.000000000000000e+00
	1.221052174151149e-12,1.577139554454867e-09
	-6.237632667659443e-13,7.296301935466115e-16
	-6.237632667269848e-13,7.296634980864018e-16
	-6.237632667070720e-13,7.296805204067387e-16
	-6.237632667070720e-13,7.296805204067387e-16
	6.237636934983790e-13,0.0
	-2.440995981437476e+02,0.0
	3.140422850514633e+00,0.0

 9	1.295686697517020e-03,0.000000000000000e+00
	1.000000000000000e+00,0.000000000000000e+00
	1.370043054674963e-12,1.719373043619459e-09
	-6.998738605630676e-13,8.425637809096596e-16
	-6.998738605167642e-13,8.426022403902468e-16
	-6.998738604930979e-13,8.426218974581022e-16
	-6.998738604930979e-13,8.426218974581022e-16
	6.998743677355060e-13,0.0
	-2.430995982367434e+02,0.0
	3.140388691650522e+00,0.0

 10	1.333521432163325e-03,0.000000000000000e+00
	1.000000000000000e+00,0.000000000000000e+00
	1.537213568679567e-12,1.874433781462887e-09
	-7.852713446110721e-13,9.729774481339254e-16
	-7.852713445560405e-13,9.730218604468373e-16
	-7.852713445279131e-13,9.730445600734363e-16
	-7.852713445279131e-13,9.730445600734363e-16
	7.852719473866314e-13,0.0
	-2.420995983352474e+02,0.0
	3.140353535329786e+00,0.0

 11	1.372460961007563e-03,0.000000000000000e+00
	1.000000000000000e+00,0.000000000000000e+00
	1.724781966288382e-12,2.043478585913826e-09
	-8.810888896290887e-13,1.123576795572432e-15
	-8.810888895636837e-13,1.123628082108332e-15
	-8.810888895302540e-13,1.123654295226681e-15
	-8.810888895302540e-13,1.123654295226681e-15
	8.810896060291662e-13,0.0
	-2.410995984395885e+02,0.0
	3.140317352426186e+00,0.0

 12	1.412537544622755e-03,0.000000000000000e+00
	1.000000000000000e+00,0.000000000000000e+00
	1.935237164951759e-12,2.227768601785907e-09
	-9.885979338352719e-13,1.297486201524324e-15
	-9.885979337575381e-13,1.297545426288431e-15
	-9.885979337178068e-13,1.297575696723418e-15
	-9.885979337178068e-13,1.297575696723418e-15
	9.885987852783382e-13,0.0
	-2.400995985501174e+02,0.0
	3.140280112962983e+00,0.0

 13	1.453784385607663e-03,0.000000000000000e+00
	1.000000000000000e+00,0.000000000000000e+00
	2.171371775838541e-12,2.428678709426294e-09
	-1.109225054090242e-12,1.498313641465318e-15
	-1.109225053997855e-12,1.498382033151544e-15
	-1.109225053950634e-12,1.498416988902281e-15
	-1.109225053950634e-12,1.498416988902281e-15
	1.109226066032196e-12,0.0
	-2.390995986671894e+02,0.0
	3.140241786088102e+00,0.0

 14	1.496235656094435e-03,0.000000000000000e+00
	1.000000000000000e+00,0.000000000000000e+00
	2.436319160038360e-12,2.647707781862501e-09
	-1.244570895617369e-12,1.730225540106390e-15
	-1.244570895507567e-12,1.730304517588149e-15
	-1.244570895451446e-12,1.730344883856603e-15
	-1.244570895451446e-12,1.730344883856603e-15
	1.244572098312601e-12,0.0
	-2.380995987911946e+02,0.0
	3.140202340048574e+00,0.0

 15	1.539926526059493e-03,0.000000000000000e+00
	1.000000000000000e+00,0.000000000000000e+00
	2.733595006307110e-12,2.886489866987844e-09
	-1.396431411491150e-12,1.998033209192192e-15
	-1.396431411360650e-12,1.998124410958721e-15
	-1.396431411293949e-12,1.998171025194947e-15
	-1.396431411293949e-12,1.998171025194947e-15
	1.396432840897068e-12,0.0
	-2.370995989225559e+02,0.0
	3.140161742164228e+00,0.0

 16	1.584893192461115e-03,0.000000000000000e+00
	1.000000000000000e+00,0.000000000000000e+00
	3.067143982070635e-12,3.146806378212105e-09
	-1.566821693728191e-12,2.307292664303690e-15
	-1.566821693573091e-12,2.307397982452574e-15
	-1.566821693493817e-12,2.307451811728669e-15
	-1.566821693493817e-12,2.307451811728669e-15
	1.566823392580253e-12,0.0
	-2.360995990616986e+02,0.0
	3.140119958800620e+00,0.0

 17	1.631172909227840e-03,0.000000000000000e+00
	1.000000000000000e+00,0.000000000000000e+00
	3.441392076683484e-12,3.430599384495833e-09
	-1.758002712188057e-12,2.664419891467244e-15
	-1.758002712003721e-12,2.664541510958358e-15
	-1.758002711909503e-12,2.664603672031593e-15
	-1.758002711909503e-12,2.664603672031593e-15
	1.758004731277450e-12,0.0
	-2.350995992090797e+02,0.0
	3.140076955341162e+00,0.0

 18	1.678804018122562e-03,0.000000000000000e+00
	1.000000000000000e+00,0.000000000000000e+00
	3.861305331523399e-12,3.739986098935241e-09
	-1.972511316096949e-12,3.076823954930643e-15
	-1.972511315877865e-12,3.076964398915886e-15
	-1.972511315765887e-12,3.077036181397230e-15
	-1.972511315765887e-12,3.077036181397230e-15
	1.972513715789103e-12,0.0
	-2.340995993652016e+02,0.0
	3.140032696158448e+00,0.0

 19	1.727825980507865e-03,0.000000000000000e+00
	1.000000000000000e+00,0.000000000000000e+00
	4.332455736260495e-12,4.077274674008245e-09
	-2.213193896302655e-12,3.553060707613140e-15
	-2.213193896042273e-12,3.553222889782376e-15
	-2.213193895909188e-12,3.553305782891094e-15
	-2.213193895909188e-12,3.553305782891094e-15
	2.213196748342017e-12,0.0
	-2.330995995305724e+02,0.0
	3.139987144584736e+00,0.0

 20	1.778279410038925e-03,0.000000000000000e+00
	1.000000000000000e+00,0.000000000000000e+00
	4.861095165639240e-12,4.444981421269587e-09
	-2.483244154907137e-12,4.103010293097192e-15
	-2.483244154597672e-12,4.103197578126383e-15
	-2.483244154439498e-12,4.103293301585745e-15
	-2.483244154439498e-12,4.103293301585745e-15
	2.483247544562132e-12,0.0
	-2.320995997057375e+02,0.0
	3.139940262881569e+00,0.0

 21	1.830206106311058e-03,0.000000000000000e+00
	1.000000000000000e+00,0.000000000000000e+00
	5.454238337903826e-12,4.845849583992883e-09
	-2.786245483466067e-12,4.738082121684561e-15
	-2.786245483098266e-12,4.738298395040160e-15
	-2.786245482910278e-12,4.738408934755239e-15
	-2.786245482910278e-12,4.738408934755239e-15
	2.786249512078407e-12,0.0
	-2.310995998912870e+02,0.0
	3.139892012208513e+00,0.0

 22	1.883649089489803e-03,0.000000000000000e+00
	1.000000000000000e+00,0.000000000000000e+00
	6.119755895697646e-12,5.282869802822192e-09
	-3.126218512088162e-12,5.471451573017039e-15
	-3.126218511651031e-12,5.471701321564799e-15
	-3.126218511427606e-12,5.471828970822541e-15
	-3.126218511427606e-12,5.471828970822541e-15
	3.126223300102685e-12,0.0
	-2.300996000878283e+02,0.0
	3.139842352590975e+00,0.0

 23	1.938652635952210e-03,0.000000000000000e+00
	1.000000000000000e+00,0.000000000000000e+00
	6.866478844476389e-12,5.759302427060950e-09
	-3.507674460342496e-12,6.318333335882301e-15
	-3.507674459822965e-12,6.318621740972870e-15
	-3.507674459557424e-12,6.318769148019156e-15
	-3.507674459557424e-12,6.318769148019156e-15
	3.507680150908149e-12,0.0
	-2.290996002960211e+02,0.0
	3.139791242887090e+00,0.0

 24	1.995262314968882e-03,0.000000000000000e+00
	1.000000000000000e+00,0.000000000000000e+00
	7.704315734372473e-12,6.278701838118083e-09
	-3.935674997936730e-12,7.296297056056150e-15
	-3.935674997319267e-12,7.296630101018557e-15
	-3.935674997003671e-12,7.296800323999338e-15
	-3.935674997003671e-12,7.296800323999338e-15
	3.935681761186340e-12,0.0
	-2.280996005165433e+02,0.0
	3.139738640753630e+00,0.0

 25	2.053525026457149e-03,0.000000000000000e+00
	1.000000000000000e+00,0.000000000000000e+00
	8.644384140306477e-12,6.844942966484818e-09
	-4.415899409415941e-12,8.425631840569372e-15
	-4.415899408682085e-12,8.426016434842545e-15
	-4.415899408306998e-12,8.426213005248825e-15
	-4.415899408306998e-12,8.426213005248825e-15
	4.415907447552735e-12,0.0
	-2.270996007501349e+02,0.0
	3.139684502610931e+00,0.0

 26	2.113489039836650e-03,0.000000000000000e+00
	1.000000000000000e+00,0.000000000000000e+00
	9.699158185136356e-12,7.462250200161009e-09
	-4.954719954157041e-12,9.729767180594597e-15
	-4.954719953284853e-12,9.730211303072113e-15
	-4.954719952839060e-12,9.730438299005054e-15
	-4.954719952839060e-12,9.730438299005054e-15
	4.954729507499980e-12,0.0
	-2.260996009975668e+02,0.0
	3.139628783606784e+00,0.0

 27	2.175204034019526e-03,0.000000000000000e+00
	1.000000000000000e+00,0.000000000000000e+00
	1.088263406326456e-11,8.135228900115258e-09
	-5.559286421571315e-12,1.123575902540237e-14
	-5.559286420534715e-12,1.123627188996433e-14
	-5.559286420004893e-12,1.123653402074042e-14
	-5.559286420004893e-12,1.123653402074042e-14
	5.559297775739991e-12,0.0
	-2.250996012596599e+02,0.0
	3.139571437579280e+00,0.0

 28	2.238721138568343e-03,0.000000000000000e+00
	1.000000000000000e+00,0.000000000000000e+00
	1.221051576114995e-11,8.868899757939371e-09
	-6.237621003516354e-12,1.297485109162199e-14
	-6.237621002284354e-12,1.297544333828811e-14
	-6.237621001654658e-12,1.297574604213966e-14
	-6.237621001654658e-12,1.297574604213966e-14
	6.237634497970253e-12,0.0
	-2.240996015372819e+02,0.0
	3.139512417018562e+00,0.0

 29	2.304092976055850e-03,0.000000000000000e+00
	1.000000000000000e+00,0.000000000000000e+00
	1.370042343908073e-11,9.668736251990014e-09
	-6.998724742773198e-12,1.498312305280121e-14
	-6.998724741308960e-12,1.498380696847090e-14
	-6.998724740560564e-12,1.498415652536872e-14
	-6.998724740560564e-12,1.498415652536872e-14
	6.998740780960623e-12,0.0
	-2.230996018313553e+02,0.0
	3.139451673027471e+00,0.0

 30	2.371373705661660e-03,0.000000000000000e+00
	1.000000000000000e+00,0.000000000000000e+00
	1.537212723931159e-11,1.054070548146625e-08
	-7.852696970073221e-12,1.730223905673781e-14
	-7.852696968332974e-12,1.730302883009664e-14
	-7.852696967443502e-12,1.730343249203557e-14
	-7.852696967443502e-12,1.730343249203557e-14
	7.852716031493331e-12,0.0
	-2.220996021428555e+02,0.0
	3.139389155281033e+00,0.0

 31	2.440619068041985e-03,0.000000000000000e+00
	1.000000000000000e+00,0.000000000000000e+00
	1.724780962303408e-11,1.149131268304678e-08
	-8.810869314486961e-12,1.998031209944135e-14
	-8.810869312418673e-12,1.998122411532227e-14
	-8.810869311361537e-12,1.998169025677250e-14
	-8.810869311361537e-12,1.998169025677250e-14
	8.810891969025499e-12,0.0
	-2.210996024728099e+02,0.0
	3.139324811984764e+00,0.0

 32	2.511886431509585e-03,0.000000000000000e+00
	1.000000000000000e+00,0.000000000000000e+00
	1.935235971714474e-11,1.252764976216156e-08
	-9.885956065341461e-12,2.307290218809409e-14
	-9.885956062883297e-12,2.307395536740028e-14
	-9.885956061626887e-12,2.307449365904563e-14
	-9.885956061626887e-12,2.307449365904563e-14
	9.885982990308804e-12,0.0
	-2.200996028223185e+02,0.0
	3.139258589831768e+00,0.0

 33	2.585234839562196e-03,0.000000000000000e+00
	1.000000000000000e+00,0.000000000000000e+00
	2.171370357672777e-11,1.365744820102509e-08
	-1.109222288087705e-11,2.664416900119330e-14
	-1.109222287795552e-11,2.664538519343461e-14
	-1.109222287646228e-11,2.664600680280235e-14
	-1.109222287646228e-11,2.664600680280235e-14
	1.109225488125799e-11,0.0
	-2.190996031925361e+02,0.0
	3.139190433958567e+00,0.0

 34	2.660725059798815e-03,0.000000000000000e+00
	1.000000000000000e+00,0.000000000000000e+00
	2.436317474543965e-11,1.488913673804427e-08
	-1.244567608216948e-11,3.076820295894513e-14
	-1.244567607869723e-11,3.076960739553181e-14
	-1.244567607692251e-11,3.077032521867606e-14
	-1.244567607692251e-11,3.077032521867606e-14
	1.244571411469006e-11,0.0
	-2.180996035846889e+02,0.0
	3.139120287899654e+00,0.0

 35	2.738419634264367e-03,0.000000000000000e+00
	1.000000000000000e+00,0.000000000000000e+00
	2.733593003094021e-11,1.623190424895146e-08
	-1.396427504409127e-11,3.553056231854176e-14
	-1.396427503996450e-11,3.553218413623941e-14
	-1.396427503785523e-11,3.553301306528483e-14
	-1.396427503785523e-11,3.553301306528483e-14
	1.396432024582236e-11,0.0
	-2.170996040000808e+02,0.0
	3.139048093540712e+00,0.0

 36	2.818382931264460e-03,0.000000000000000e+00
	1.000000000000000e+00,0.000000000000000e+00
	3.067141601249848e-11,1.769576829879036e-08
	-1.566817050153993e-11,4.103004818317494e-14
	-1.566817049663525e-11,4.103192102858052e-14
	-1.566817049412838e-11,4.103287826067664e-14
	-1.566817049412838e-11,4.103287826067664e-14
	1.566822422389256e-11,0.0
	-2.160996044400805e+02,0.0
	3.138973791070470e+00,0.0

 37	2.900681198693160e-03,0.000000000000000e+00
	1.000000000000000e+00,0.000000000000000e+00
	3.441389247070356e-11,1.929164987604051e-08
	-1.757997193289452e-11,4.738075424897017e-14
	-1.757997192706530e-11,4.738291697654917e-14
	-1.757997192408589e-11,4.738402237064501e-14
	-1.757997192408589e-11,4.738402237064501e-14
	1.758003578202343e-11,0.0
	-2.150996049061556e+02,0.0
	3.138897318931149e+00,0.0

 38	2.985382618917966e-03,0.000000000000000e+00
	1.000000000000000e+00,0.000000000000000e+00
	3.861301968521862e-11,2.103145486659438e-08
	-1.972504756874439e-11,5.471443381456539e-14
	-1.972504756181635e-11,5.471693129273191e-14
	-1.972504755827531e-11,5.471820778157247e-14
	-1.972504755827531e-11,5.471820778157247e-14
	1.972512345356768e-11,0.0
	-2.140996053998508e+02,0.0
	3.138818613767470e+00,0.0

 39	3.072557365267454e-03,0.000000000000000e+00
	1.000000000000000e+00,0.000000000000000e+00
	4.332451739327768e-11,2.292816287524177e-08
	-2.213186100653852e-11,6.318323315913721e-14
	-2.213186099830452e-11,6.318611720109991e-14
	-2.213186099409599e-11,6.318759126699181e-14
	-2.213186099409599e-11,6.318759126699181e-14
	2.213195119580914e-11,0.0
	-2.130996059227942e+02,0.0
	3.138737610374162e+00,0.0

 40	3.162277660168387e-03,0.000000000000000e+00
	1.000000000000000e+00,0.000000000000000e+00
	4.861090415273504e-11,2.499592405726243e-08
	-2.483234889761569e-11,7.296284799559098e-14
	-2.483234888782957e-11,7.296617843427592e-14
	-2.483234888282772e-11,7.296788065849250e-14
	-2.483234888282772e-11,7.296788065849250e-14
	2.483245608775102e-11,0.0
	-2.120996064767254e+02,0.0
	3.138654241641948e+00,0.0

 41	3.254617834980467e-03,0.000000000000000e+00
	1.000000000000000e+00,0.000000000000000e+00
	5.454232692081566e-11,2.725016468264297e-08
	-2.786234471820571e-11,8.425616848331663e-14
	-2.786234470657489e-11,8.426001441266752e-14
	-2.786234470063018e-11,8.426198010989110e-14
	-2.786234470063018e-11,8.426198010989110e-14
	2.786247211390307e-11,0.0
	-2.110996070634843e+02,0.0
	3.138568438501944e+00,0.0

 42	3.349654391578285e-03,0.000000000000000e+00
	1.000000000000000e+00,0.000000000000000e+00
	6.119749185625693e-11,2.970770222035174e-08
	-3.126205424725172e-11,9.729748841986296e-14
	-3.126205423342847e-11,9.730192962827061e-14
	-3.126205422636317e-11,9.730419957923424e-14
	-3.126205422636317e-11,9.730419957923424e-14
	3.126220565730012e-11,0.0
	-2.100996076850047e+02,0.0
	3.138480129868443e+00,0.0

 43	3.447466065731503e-03,0.000000000000000e+00
	1.000000000000000e+00,0.000000000000000e+00
	6.866470869548929e-11,3.238687080105599e-08
	-3.507658905988148e-11,1.123573659349324e-13
	-3.507658904345253e-11,1.123624945605311e-13
	-3.507658903505541e-11,1.123651158580590e-13
	-3.507658903505541e-11,1.123651158580590e-13
	3.507676901103394e-11,0.0
	-2.090996083433507e+02,0.0
	3.138389242580022e+00,0.0

 44	3.548133892335764e-03,0.000000000000000e+00
	1.000000000000000e+00,0.000000000000000e+00
	7.704306256146190e-11,3.530765799446936e-08
	-3.935656511551996e-11,1.297482365274380e-13
	-3.935656509599410e-11,1.297541589696095e-13
	-3.935656508601411e-11,1.297571859956079e-13
	-3.935656508601411e-11,1.297571859956079e-13
	3.935677898783108e-11,0.0
	-2.080996090407144e+02,0.0
	3.138295701338937e+00,0.0

 45	3.651741272548387e-03,0.000000000000000e+00
	1.000000000000000e+00,0.000000000000000e+00
	8.644372875421544e-11,3.849185392170350e-08
	-4.415877438313859e-11,1.498308948938616e-13
	-4.415877435993207e-11,1.498377340206026e-13
	-4.415877434807083e-11,1.498412295742698e-13
	-4.415877434807083e-11,1.498412295742698e-13
	4.415902857081345e-11,0.0
	-2.070996097793886e+02,0.0
	3.138199428648735e+00,0.0

 46	3.758374042884452e-03,0.000000000000000e+00
	1.000000000000000e+00,0.000000000000000e+00
	9.699144796794242e-11,4.196321381446718e-08
	-4.954693841457456e-11,1.730219800173677e-13
	-4.954693838699358e-11,1.730298777143138e-13
	-4.954693837289646e-11,1.730339143149745e-13
	-4.954693837289646e-11,1.730339143149745e-13
	4.954724051713781e-11,0.0
	-2.060996105618393e+02,0.0
	3.138100344750065e+00,0.0

 47	3.868120546330533e-03,0.000000000000000e+00
	1.000000000000000e+00,0.000000000000000e+00
	1.088261815119016e-10,4.574763523470079e-08
	-5.559255386576081e-11,1.998026188067562e-13
	-5.559255383298074e-11,1.998117389207444e-13
	-5.559255381622630e-11,1.998164003123377e-13
	-5.559255381622630e-11,1.998164003123377e-13
	5.559291291526152e-11,0.0
	-2.050996113906514e+02,0.0
	3.137998367554593e+00,0.0

 48	3.981071705534985e-03,0.000000000000000e+00
