Title: * sky130 bjt 3-stage final candidate dc operating point: ch=30p
Date: Fri May 22 20:10:52  2026
Command: ngspice-46, Build Mar 29 2026   15:02:07
Plotname: Operating Point
Flags: real
No. Variables: 47
No. Points: 1
Variables:
	0	v(vdd)	voltage
	1	i(@c12[i])	current
	2	i(@c23[i])	current
	3	i(@ch1[i])	current
	4	i(@ch2[i])	current
	5	i(@ch3[i])	current
	6	i(@cin[i])	current
	7	i(@cload_10p[i])	current
	8	i(@q.xq1.qsky130_fd_pr__npn_05v5_w1p00l1p00[ib])	current
	9	i(@q.xq1.qsky130_fd_pr__npn_05v5_w1p00l1p00[ic])	current
	10	i(@q.xq1.qsky130_fd_pr__npn_05v5_w1p00l1p00[ie])	current
	11	i(@q.xq1.qsky130_fd_pr__npn_05v5_w1p00l1p00[is])	current
	12	i(@q.xq2.qsky130_fd_pr__npn_05v5_w1p00l1p00[ib])	current
	13	i(@q.xq2.qsky130_fd_pr__npn_05v5_w1p00l1p00[ic])	current
	14	i(@q.xq2.qsky130_fd_pr__npn_05v5_w1p00l1p00[ie])	current
	15	i(@q.xq2.qsky130_fd_pr__npn_05v5_w1p00l1p00[is])	current
	16	i(@q.xq3.qsky130_fd_pr__npn_05v5_w1p00l1p00[ib])	current
	17	i(@q.xq3.qsky130_fd_pr__npn_05v5_w1p00l1p00[ic])	current
	18	i(@q.xq3.qsky130_fd_pr__npn_05v5_w1p00l1p00[ie])	current
	19	i(@q.xq3.qsky130_fd_pr__npn_05v5_w1p00l1p00[is])	current
	20	i(@rb1_bot[i])	current
	21	i(@rb1_top[i])	current
	22	i(@rb2_bot[i])	current
	23	i(@rb2_top[i])	current
	24	i(@rb3_bot[i])	current
	25	i(@rb3_top[i])	current
	26	i(@rc1[i])	current
	27	i(@rc2[i])	current
	28	i(@rc3[i])	current
	29	i(@re1[i])	current
	30	i(@re2[i])	current
	31	i(@re3[i])	current
	32	i(@rload_sweep[i])	current
	33	v(b1_base)	voltage
	34	v(b1_collector)	voltage
	35	v(b1_emitter)	voltage
	36	v(b2_base)	voltage
	37	v(b2_collector)	voltage
	38	v(b2_emitter)	voltage
	39	v(b3_base)	voltage
	40	v(b3_collector)	voltage
	41	v(b3_emitter)	voltage
	42	i(vdd)	current
	43	v(vin)	voltage
	44	i(vin)	current
	45	i(vout_alias)	current
	46	v(vout_final)	voltage
Values:
 0	5.000000000000000e+00
	0.000000000000000e+00
	0.000000000000000e+00
	0.000000000000000e+00
	0.000000000000000e+00
	0.000000000000000e+00
	0.000000000000000e+00
	0.000000000000000e+00
	2.494788844854525e-07
	9.409823966446118e-06
	-9.659306718737463e-06
	3.856892675312833e-12
	2.494788844853269e-07
	9.409823966441447e-06
	-9.659306718732667e-06
	3.856892675313394e-12
	2.494793966643096e-07
	9.409801039720206e-06
	-9.659284303728726e-06
	3.856430430969771e-12
	9.713301829126358e-07
	1.220809035481020e-06
	9.713301829125454e-07
	1.220809035481047e-06
	9.713297898495424e-07
	1.220809154591048e-06
	9.409826650973952e-06
	9.409826650969289e-06
	9.413674082686970e-06
	9.659301635735979e-06
	9.659301635732142e-06
	9.659279220972544e-06
	3.870359110077564e-09
	9.713301829126358e-01
	3.870820801883126e+00
	1.931860327147196e-01
	9.713301829125455e-01
	3.870820801883685e+00
	1.931860327146428e-01
	9.713297898495423e-01
	3.870359110077564e+00
	1.931855844194509e-01
	-3.189575461018331e-05
	2.500000000000000e+00
	0.000000000000000e+00
	-3.870359110080216e-09
	3.870359110077564e+00

