Title: * sky130 bjt 3-stage target-band noise candidate: ch=30p, 10 hz to 20 khz
Date: Fri May 22 20:10:04  2026
Command: ngspice-46, Build Mar 29 2026   15:02:07
Plotname: Noise Spectral Density Curves
Flags: real
No. Variables: 3
No. Points: 265
Variables:
	0	frequency	frequency grid=3
	1	onoise_spectrum	voltage-density
	2	inoise_spectrum	voltage-density
Values:
 0	1.000000000000000e+01
	7.227834960746815e-05
	9.105670782250919e-07

 1	1.029200527194428e+01
	7.089277708730458e-05
	8.930285789575055e-07

 2	1.059253725177289e+01
	6.954984812735233e-05
	8.760350052814074e-07

 3	1.090184492385128e+01
	6.824755571599998e-05
	8.595604238654514e-07

 4	1.122018454301964e+01
	6.698399907771930e-05
	8.435802961696056e-07

 5	1.154781984689458e+01
	6.575737866123124e-05
	8.280714101615209e-07

 6	1.188502227437019e+01
	6.456599127837315e-05
	8.130118144186567e-07

 7	1.223207119049932e+01
	6.340822539746439e-05
	7.983807546152214e-07

 8	1.258925411794168e+01
	6.228255659378199e-05
	7.841586123872115e-07

 9	1.295686697517020e+01
	6.118754315925260e-05
	7.703268465623319e-07

 10	1.333521432163325e+01
	6.012182187265227e-05
	7.568679367352792e-07

 11	1.372460961007563e+01
	5.908410393048321e-05
	7.437653291630612e-07

 12	1.412537544622755e+01
	5.807317103867220e-05
	7.310033849486033e-07

 13	1.453784385607663e+01
	5.708787166376077e-05
	7.185673304759889e-07

 14	1.496235656094434e+01
	5.612711744246675e-05
	7.064432100549164e-07

 15	1.539926526059493e+01
	5.518987974718475e-05
	6.946178407278062e-07

 16	1.584893192461115e+01
	5.427518640521241e-05
	6.830787691883731e-07

 17	1.631172909227840e+01
	5.338211856837590e-05
	6.718142307571710e-07

 18	1.678804018122562e+01
	5.250980773001350e-05
	6.608131103561921e-07

 19	1.727825980507865e+01
	5.165743288531974e-05
	6.500649054221543e-07

 20	1.778279410038925e+01
	5.082421783128904e-05
	6.395596906959589e-07

 21	1.830206106311058e+01
	5.000942860187656e-05
	6.292880848241329e-07

 22	1.883649089489803e+01
	4.921237103424380e-05
	6.192412187068955e-07

 23	1.938652635952210e+01
	4.843238846124824e-05
	6.094107055269346e-07

 24	1.995262314968882e+01
	4.766885952586359e-05
	5.997886123923884e-07

 25	2.053525026457149e+01
	4.692119611268073e-05
	5.903674335278145e-07

 26	2.113489039836650e+01
	4.618884139186451e-05
	5.811400649471760e-07

 27	2.175204034019526e+01
	4.547126797080775e-05
	5.720997805435850e-07

 28	2.238721138568343e+01
	4.476797614889307e-05
	5.632402095315361e-07

 29	2.304092976055849e+01
	4.407849227067028e-05
	5.545553151784267e-07

 30	2.371373705661659e+01
	4.340236717297766e-05
	5.460393747636621e-07

 31	2.440619068041984e+01
	4.273917472144625e-05
	5.376869607050501e-07

 32	2.511886431509584e+01
	4.208851043213969e-05
	5.294929227940377e-07

 33	2.585234839562195e+01
	4.144999017400261e-05
	5.214523714828446e-07

 34	2.660725059798814e+01
	4.082324894802714e-05
	5.135606621688389e-07

 35	2.738419634264367e+01
	4.020793973921007e-05
	5.058133804229343e-07

 36	2.818382931264459e+01
	3.960373243727989e-05
	4.982063281113210e-07

 37	2.900681198693160e+01
	3.901031282275072e-05
	4.907355103612786e-07

 38	2.985382618917966e+01
	3.842738161441640e-05
	4.833971233244346e-07

 39	3.072557365267453e+01
	3.785465357517844e-05
	4.761875426923048e-07

 40	3.162277660168386e+01
	3.729185667270830e-05
	4.691033129213770e-07

 41	3.254617834980466e+01
	3.673873129191786e-05
	4.621411371267082e-07

 42	3.349654391578284e+01
	3.619502949622408e-05
	4.552978676051578e-07

 43	3.447466065731501e+01
	3.566051433478397e-05
	4.485704969510627e-07

 44	3.548133892335763e+01
	3.513495919297841e-05
	4.419561497292241e-07

 45	3.651741272548386e+01
	3.461814718358762e-05
	4.354520746717854e-07

 46	3.758374042884451e+01
	3.410987057617665e-05
	4.290556373672998e-07

 47	3.868120546330531e+01
	3.360993026243389e-05
	4.227643134120694e-07

 48	3.981071705534983e+01
	3.311813525530814e-05
	4.165756819952922e-07

 49	4.097321098135426e+01
	3.263430221970958e-05
	4.104874198914087e-07

 50	4.216965034285834e+01
	3.215825503301916e-05
	4.044972958342147e-07

 51	4.340102636447450e+01
	3.168982437345248e-05
	3.986031652489111e-07

 52	4.466835921509644e+01
	3.122884733451991e-05
	3.928029653197166e-07

 53	4.597269885308735e+01
	3.077516706404854e-05
	3.870947103716696e-07

 54	4.731512589614819e+01
	3.032863242606008e-05
	3.814764875469671e-07

 55	4.869675251658646e+01
	2.988909768421789e-05
	3.759464527567800e-07

 56	5.011872336272738e+01
	2.945642220537026e-05
	3.705028268911963e-07

 57	5.158221650723073e+01
	2.903047018191227e-05
	3.651438922705681e-07

 58	5.308844442309900e+01
	2.861111037179706e-05
	3.598679893228022e-07

 59	5.463865498818559e+01
	2.819821585503339e-05
	3.546735134719652e-07

 60	5.623413251903509e+01
	2.779166380561626e-05
	3.495589122245193e-07

 61	5.787619883491225e+01
	2.739133527788326e-05
	3.445226824403889e-07

 62	5.956621435290124e+01
	2.699711500637249e-05
	3.395633677767722e-07

 63	6.130557921498227e+01
	2.660889121827483e-05
	3.346795562934873e-07

 64	6.309573444801953e+01
	2.622655545771490e-05
	3.298698782092511e-07

 65	6.493816315762135e+01
	2.585000242101425e-05
	3.251330037990411e-07

 66	6.683439175686169e+01
	2.547912980228719e-05
	3.204676414232525e-07

 67	6.878599123088100e+01
	2.511383814866392e-05
	3.158725356800376e-07

 68	7.079457843841404e+01
	2.475403072446198e-05
	3.113464656727123e-07

 69	7.286181745132302e+01
	2.439961338383908e-05
	3.068882433846260e-07

 70	7.498942093324584e+01
	2.405049445122132e-05
	3.024967121544913e-07

 71	7.717915155850152e+01
	2.370658460912283e-05
	2.981707452454712e-07

 72	7.943282347242844e+01
	2.336779679278770e-05
	2.939092445018965e-07

 73	8.175230379436530e+01
	2.303404609124339e-05
	2.897111390878251e-07

 74	8.413951416451982e+01
	2.270524965433347e-05
	2.855753843020222e-07

 75	8.659643233600687e+01
	2.238132660532877e-05
	2.815009604643450e-07

 76	8.912509381337490e+01
	2.206219795876144e-05
	2.774868718688297e-07

 77	9.172759353897833e+01
	2.174778654314513e-05
	2.735321457990366e-07

 78	9.440608762859272e+01
	2.143801692823176e-05
	2.696358316016094e-07

 79	9.716279515771102e+01
	2.113281535652018e-05
	2.657969998141939e-07

 80	1.000000000000004e+02
	2.083210967875999e-05
	2.620147413441121e-07

 81	1.029200527194432e+02
	2.053582929315758e-05
	2.582881666945075e-07

 82	1.059253725177293e+02
	2.024390508802467e-05
	2.546164052348151e-07

 83	1.090184492385132e+02
	1.995626938773778e-05
	2.509986045126317e-07

 84	1.122018454301968e+02
	1.967285590165913e-05
	2.474339296043365e-07

 85	1.154781984689463e+02
	1.939359967592301e-05
	2.439215625018574e-07

 86	1.188502227437024e+02
	1.911843704787104e-05
	2.404607015333016e-07

 87	1.223207119049937e+02
	1.884730560294847e-05
	2.370505608151726e-07

 88	1.258925411794173e+02
	1.858014413394114e-05
	2.336903697341775e-07

 89	1.295686697517025e+02
	1.831689260234686e-05
	2.303793724566774e-07

 90	1.333521432163330e+02
	1.805749210180086e-05
	2.271168274640168e-07

 91	1.372460961007568e+02
	1.780188482336500e-05
	2.239020071120490e-07

 92	1.412537544622761e+02
	1.755001402262230e-05
	2.207341972133057e-07

 93	1.453784385607669e+02
	1.730182398842173e-05
	2.176126966403630e-07

 94	1.496235656094440e+02
	1.705726001315624e-05
	2.145368169490621e-07

 95	1.539926526059499e+02
	1.681626836452646e-05
	2.115058820203049e-07

 96	1.584893192461121e+02
	1.657879625864627e-05
	2.085192277192632e-07

 97	1.631172909227846e+02
	1.634479183442925e-05
	2.055762015708965e-07

 98	1.678804018122568e+02
	1.611420412918507e-05
	2.026761624507503e-07

 99	1.727825980507872e+02
	1.588698305531815e-05
	1.998184802900977e-07

 100	1.778279410038932e+02
	1.566307937809008e-05
	1.970025357945190e-07

 101	1.830206106311065e+02
	1.544244469436741e-05
	1.942277201750862e-07

 102	1.883649089489810e+02
	1.522503141229672e-05
	1.914934348913800e-07

 103	1.938652635952217e+02
	1.501079273183841e-05
	1.887990914056341e-07

 104	1.995262314968890e+02
	1.479968262612657e-05
	1.861441109473017e-07

 105	2.053525026457157e+02
	1.459165582360808e-05
	1.835279242874179e-07

 106	2.113489039836658e+02
	1.438666779086432e-05
	1.809499715222138e-07

 107	2.175204034019534e+02
	1.418467471614846e-05
	1.784097018653639e-07

 108	2.238721138568351e+02
	1.398563349353843e-05
	1.759065734484068e-07

 109	2.304092976055858e+02
	1.378950170770704e-05
	1.734400531288350e-07

 110	2.371373705661668e+02
	1.359623761921879e-05
	1.710096163054356e-07

 111	2.440619068041993e+02
	1.340580015041247e-05
	1.686147467404043e-07

 112	2.511886431509594e+02
	1.321814887173805e-05
	1.662549363879221e-07

 113	2.585234839562205e+02
	1.303324398858044e-05
	1.639296852287771e-07

 114	2.660725059798825e+02
	1.285104632854387e-05
	1.616385011106786e-07

 115	2.738419634264377e+02
	1.267151732912751e-05
	1.593808995940145e-07

 116	2.818382931264470e+02
	1.249461902581734e-05
	1.571564038026792e-07

 117	2.900681198693171e+02
	1.232031404054418e-05
	1.549645442797280e-07

 118	2.985382618917977e+02
	1.214856557050482e-05
	1.528048588476023e-07

 119	3.072557365267465e+02
	1.197933737728546e-05
	1.506768924726783e-07

 120	3.162277660168398e+02
	1.181259377635730e-05
	1.485801971338831e-07

 121	3.254617834980479e+02
	1.164829962679847e-05
	1.465143316952221e-07

 122	3.349654391578297e+02
	1.148642032137480e-05
	1.444788617819417e-07

 123	3.447466065731516e+02
	1.132692177682308e-05
	1.424733596602198e-07

 124	3.548133892335777e+02
	1.116977042442555e-05
	1.404974041201548e-07

 125	3.651741272548400e+02
	1.101493320081469e-05
	1.385505803618967e-07

 126	3.758374042884466e+02
	1.086237753900529e-05
	1.366324798847770e-07

 127	3.868120546330547e+02
	1.071207135962801e-05
	1.347427003793065e-07

 128	3.981071705534999e+02
	1.056398306240048e-05
	1.328808456218538e-07

 129	4.097321098135442e+02
	1.041808151776100e-05
	1.310465253719333e-07

 130	4.216965034285851e+02
	1.027433605869990e-05
	1.292393552719477e-07

 131	4.340102636447468e+02
	1.013271647276591e-05
	1.274589567492926e-07

 132	4.466835921509662e+02
	9.993192994235784e-06
	1.257049569206973e-07

 133	4.597269885308754e+02
	9.855736296437609e-06
	1.239769884987125e-07

 134	4.731512589614838e+02
	9.720317484231598e-06
	1.222746897002619e-07

 135	4.869675251658666e+02
	9.586908086633120e-06
	1.205977041571279e-07

 136	5.011872336272759e+02
	9.455480049553004e-06
	1.189456808283614e-07

 137	5.158221650723094e+02
	9.326005728692814e-06
	1.173182739144372e-07

 138	5.308844442309922e+02
	9.198457882536036e-06
	1.157151427731863e-07

 139	5.463865498818583e+02
	9.072809665469882e-06
	1.141359518373443e-07

 140	5.623413251903534e+02
	8.949034621001502e-06
	1.125803705337176e-07

 141	5.787619883491251e+02
	8.827106675103686e-06
	1.110480732038400e-07

 142	5.956621435290151e+02
	8.707000129617567e-06
	1.095387390261371e-07

 143	6.130557921498255e+02
	8.588689655784036e-06
	1.080520519394658e-07

 144	6.309573444801982e+02
	8.472150287842112e-06
	1.065877005680187e-07

 145	6.493816315762165e+02
	8.357357416709108e-06
	1.051453781475487e-07

 146	6.683439175686200e+02
	8.244286783752109e-06
	1.037247824528172e-07

 147	6.878599123088131e+02
	8.132914474604166e-06
	1.023256157262934e-07

 148	7.079457843841436e+02
	8.023216913080463e-06
	1.009475846079753e-07

 149	7.286181745132336e+02
	7.915170855128415e-06
	9.959040006638256e-08

 150	7.498942093324620e+02
	7.808753382853842e-06
	9.825377733059346e-08

 151	7.717915155850188e+02
	7.703941898585635e-06
	9.693743582336401e-08

 152	7.943282347242881e+02
	7.600714119012772e-06
	9.564109909522756e-08

 153	8.175230379436568e+02
	7.499048069336585e-06
	9.436449475960663e-08

 154	8.413951416452022e+02
	7.398922077487196e-06
	9.310735442884365e-08

 155	8.659643233600727e+02
	7.300314768363692e-06
	9.186941365116293e-08

 156	8.912509381337532e+02
	7.203205058109526e-06
	9.065041184850873e-08

 157	9.172759353897875e+02
	7.107572148424471e-06
	8.945009225524504e-08

 158	9.440608762859316e+02
	7.013395520882302e-06
	8.826820185768801e-08

 159	9.716279515771147e+02
	6.920654931280463e-06
	8.710449133445586e-08

 160	1.000000000000009e+03
	6.829330404011283e-06
	8.595871499752664e-08

 161	1.029200527194437e+03
	6.739402226427577e-06
	8.483063073419309e-08

 162	1.059253725177299e+03
	6.650850943222603e-06
	8.371999994962236e-08

 163	1.090184492385138e+03
	6.563657350815482e-06
	8.262658751019017e-08

 164	1.122018454301974e+03
	6.477802491736929e-06
	8.155016168749338e-08

 165	1.154781984689469e+03
	6.393267648994537e-06
	8.049049410305545e-08

 166	1.188502227437030e+03
	6.310034340444504e-06
	7.944735967366668e-08

 167	1.223207119049943e+03
	6.228084313136919e-06
	7.842053655737974e-08

 168	1.258925411794179e+03
	6.147399537644823e-06
	7.740980610012913e-08

 169	1.295686697517032e+03
	6.067962202365041e-06
	7.641495278295366e-08

 170	1.333521432163337e+03
	5.989754707796963e-06
	7.543576416982242e-08

 171	1.372460961007575e+03
	5.912759660780399e-06
	7.447203085603829e-08

 172	1.412537544622768e+03
	5.836959868693853e-06
	7.352354641718996e-08

 173	1.453784385607676e+03
	5.762338333610503e-06
	7.259010735873188e-08

 174	1.496235656094448e+03
	5.688878246401206e-06
	7.167151306603531e-08

 175	1.539926526059507e+03
	5.616562980790094e-06
	7.076756575501478e-08

 176	1.584893192461129e+03
	5.545376087341563e-06
	6.987807042328103e-08

 177	1.631172909227855e+03
	5.475301287380460e-06
	6.900283480182522e-08

 178	1.678804018122577e+03
	5.406322466842177e-06
	6.814166930720878e-08

 179	1.727825980507881e+03
	5.338423670054190e-06
	6.729438699427113e-08

 180	1.778279410038941e+03
	5.271589093415141e-06
	6.646080350931801e-08

 181	1.830206106311075e+03
	5.205803078999447e-06
	6.564073704388023e-08

 182	1.883649089489820e+03
	5.141050108060319e-06
	6.483400828890178e-08

 183	1.938652635952227e+03
	5.077314794426994e-06
	6.404044038946275e-08

 184	1.995262314968900e+03
	5.014581877799767e-06
	6.325985890000080e-08

 185	2.053525026457167e+03
	4.952836216928107e-06
	6.249209173999351e-08

 186	2.113489039836669e+03
	4.892062782663032e-06
	6.173696915022058e-08

 187	2.175204034019545e+03
	4.832246650880235e-06
	6.099432364945210e-08

 188	2.238721138568363e+03
	4.773372995279174e-06
	6.026398999168672e-08

 189	2.304092976055870e+03
	4.715427080021196e-06
	5.954580512386513e-08

 190	2.371373705661681e+03
	4.658394252242667e-06
	5.883960814415798e-08

 191	2.440619068042006e+03
	4.602259934388770e-06
	5.814524026073493e-08

 192	2.511886431509607e+03
	4.547009616404863e-06
	5.746254475104633e-08

 193	2.585234839562218e+03
	4.492628847744440e-06
	5.679136692172571e-08

 194	2.660725059798838e+03
	4.439103229215414e-06
	5.613155406896806e-08

 195	2.738419634264391e+03
	4.386418404635721e-06
	5.548295543948002e-08

 196	2.818382931264484e+03
	4.334560052307274e-06
	5.484542219207209e-08

 197	2.900681198693185e+03
	4.283513876295181e-06
	5.421880735973290e-08

 198	2.985382618917992e+03
	4.233265597513294e-06
	5.360296581241756e-08

 199	3.072557365267480e+03
	4.183800944602432e-06
	5.299775422035289e-08

 200	3.162277660168414e+03
	4.135105644613497e-06
	5.240303101806787e-08

 201	3.254617834980495e+03
	4.087165413473269e-06
	5.181865636898375e-08

 202	3.349654391578314e+03
	4.039965946234633e-06
	5.124449213078717e-08

 203	3.447466065731532e+03
	3.993492907139301e-06
	5.068040182136241e-08

 204	3.548133892335794e+03
	3.947731919441809e-06
	5.012625058553608e-08

 205	3.651741272548418e+03
	3.902668555041164e-06
	4.958190516253099e-08

 206	3.758374042884484e+03
	3.858288323900683e-06
	4.904723385411759e-08

 207	3.868120546330566e+03
	3.814576663275005e-06
	4.852210649360338e-08

 208	3.981071705535018e+03
	3.771518926727171e-06
	4.800639441560136e-08

 209	4.097321098135462e+03
	3.729100372992628e-06
	4.749997042659892e-08

 210	4.216965034285871e+03
	3.687306154637701e-06
	4.700270877640856e-08

 211	4.340102636447489e+03
	3.646121306599363e-06
	4.651448513045447e-08

 212	4.466835921509683e+03
	3.605530734566172e-06
	4.603517654298461e-08

 213	4.597269885308776e+03
	3.565519203266096e-06
	4.556466143118511e-08

 214	4.731512589614861e+03
	3.526071324666751e-06
	4.510281955025681e-08

 215	4.869675251658689e+03
	3.487171546123521e-06
	4.464953196944389e-08

 216	5.011872336272783e+03
	3.448804138536322e-06
	4.420468104910221e-08

 217	5.158221650723120e+03
	3.410953184517908e-06
	4.376815041877125e-08

 218	5.308844442309948e+03
	3.373602566680497e-06
	4.333982495626988e-08

 219	5.463865498818609e+03
	3.336735956042467e-06
	4.291959076796261e-08

 220	5.623413251903560e+03
	3.300336800682042e-06
	4.250733517002336e-08

 221	5.787619883491278e+03
	3.264388314649185e-06
	4.210294667092873e-08

 222	5.956621435290179e+03
	3.228873467291639e-06
	4.170631495505464e-08

 223	6.130557921498284e+03
	3.193774973041930e-06
	4.131733086748276e-08

 224	6.309573444802011e+03
	3.159075281786879e-06
	4.093588640002138e-08

 225	6.493816315762195e+03
	3.124756569958537e-06
	4.056187467846242e-08

 226	6.683439175686231e+03
	3.090800732452466e-06
	4.019518995108635e-08

 227	6.878599123088164e+03
	3.057189375544559e-06
	3.983572757850690e-08

 228	7.079457843841470e+03
	3.023903810957353e-06
	3.948338402476564e-08

 229	7.286181745132371e+03
	2.990925051265248e-06
	3.913805684981128e-08

 230	7.498942093324656e+03
	2.958233806807870e-06
	3.879964470333495e-08

 231	7.717915155850224e+03
	2.925810484359809e-06
	3.846804731998554e-08

 232	7.943282347242919e+03
	2.893635187757090e-06
	3.814316551598534e-08

 233	8.175230379436608e+03
	2.861687720741820e-06
	3.782490118722370e-08

 234	8.413951416452062e+03
	2.829947592267643e-06
	3.751315730875749e-08

 235	8.659643233600769e+03
	2.798394024593386e-06
	3.720783793582583e-08

 236	8.912509381337575e+03
	2.767005964395791e-06
	3.690884820637831e-08

 237	9.172759353897920e+03
	2.735762097277977e-06
	3.661609434510020e-08

 238	9.440608762859361e+03
	2.704640865964638e-06
	3.632948366902885e-08

 239	9.716279515771193e+03
	2.673620492528488e-06
	3.604892459474395e-08

 240	1.000000000000014e+04
	2.642679005024874e-06
	3.577432664715372e-08

 241	1.029200527194442e+04
	2.611794268840896e-06
	3.550560046992659e-08

 242	1.059253725177303e+04
	2.580944023179651e-06
	3.524265783759834e-08

 243	1.090184492385143e+04
	2.550105922999905e-06
	3.498541166934510e-08

 244	1.122018454301979e+04
	2.519257586759899e-06
	3.473377604454904e-08

 245	1.154781984689474e+04
	2.488376650341403e-06
	3.448766622003588e-08

 246	1.188502227437035e+04
	2.457440827416580e-06
	3.424699864922481e-08

 247	1.223207119049949e+04
	2.426427976611690e-06
	3.401169100303525e-08

 248	1.258925411794185e+04
	2.395316175653826e-06
	3.378166219272673e-08

 249	1.295686697517038e+04
	2.364083802745472e-06
	3.355683239468867e-08

 250	1.333521432163343e+04
	2.332709625293683e-06
	3.333712307719290e-08

 251	1.372460961007581e+04
	2.301172896059292e-06
	3.312245702923714e-08

 252	1.412537544622774e+04
	2.269453456723240e-06
	3.291275839147680e-08

 253	1.453784385607682e+04
	2.237531848743941e-06
	3.270795268938273e-08

 254	1.496235656094455e+04
	2.205389431300148e-06
	3.250796686864095e-08

 255	1.539926526059514e+04
	2.173008505948798e-06
	3.231272933293344e-08

 256	1.584893192461136e+04
	2.140372447538419e-06
	3.212216998416400e-08

 257	1.631172909227862e+04
	2.107465840734415e-06
	3.193622026525774e-08

 258	1.678804018122584e+04
	2.074274621344362e-06
	3.175481320563569e-08

 259	1.727825980507888e+04
	2.040786221534517e-06
	3.157788346946827e-08

 260	1.778279410038948e+04
	2.006989717731449e-06
	3.140536740693630e-08

 261	1.830206106311082e+04
	1.972875979956687e-06
	3.123720310853510e-08

 262	1.883649089489827e+04
	1.938437821067918e-06
	3.107333046268137e-08

 263	1.938652635952235e+04
	1.903670144253629e-06
	3.091369121676863e-08

 264	1.995262314968908e+04
	1.868570086920650e-06
	3.075822904188028e-08

