Title: * sky130 bjt 3-stage high-frequency ch/riso sweep ac: ch=18p, riso=680k
Date: Fri May 22 22:49:31  2026
Command: ngspice-46, Build Mar 29 2026   15:02:07
Plotname: AC Analysis
Flags: complex
No. Variables: 9
No. Points: 721
Variables:
	0	frequency	frequency grid=3
	1	v(vin)	voltage
	2	v(b3_collector)	voltage
	3	v(vout_drv)	voltage
	4	v(vout_final)	voltage
	5	gain	notype
	6	gain_vv	notype
	7	gain_db	decibel
	8	phase_deg	phase
Values:
 0	1.000000000000000e-03,0.000000000000000e+00
	1.000000000000000e+00,0.000000000000000e+00
	4.860883475702307e-13,7.904423276747670e-10
	-2.483247083902629e-13,2.308006796385469e-16
	-2.483247083804014e-13,2.308112894756289e-16
	-2.483247083804014e-13,2.308112894756289e-16
	2.483248156468917e-13,0.0
	-2.520995975654135e+02,0.0
	3.140663180141446e+00,0.0

 1	1.029200527194428e-03,0.000000000000000e+00
	1.000000000000000e+00,0.000000000000000e+00
	5.454000917764013e-13,8.617279547994776e-10
	-2.786248964583760e-13,2.665244624897010e-16
	-2.786248964466554e-13,2.665367145380272e-16
	-2.786248964466554e-13,2.665367145380272e-16
	2.786250239331163e-13,0.0
	-2.510995976241403e+02,0.0
	3.140636039027945e+00,0.0

 2	1.059253725177289e-03,0.000000000000000e+00
	1.000000000000000e+00,0.000000000000000e+00
	6.119489624621634e-13,9.394424380156280e-10
	-3.126222649404218e-13,3.077776423667085e-16
	-3.126222649264920e-13,3.077917908109063e-16
	-3.126222649264920e-13,3.077917908109063e-16
	3.126224164444326e-13,0.0
	-2.500995976863444e+02,0.0
	3.140608105379728e+00,0.0

 3	1.090184492385128e-03,0.000000000000000e+00
	1.000000000000000e+00,0.000000000000000e+00
	6.866180224494548e-13,1.024165560135297e-09
	-3.507679377552145e-13,3.554160700953257e-16
	-3.507679377386588e-13,3.554324084632036e-16
	-3.507679377386588e-13,3.554324084632036e-16
	3.507681178180659e-13,0.0
	-2.490995977522389e+02,0.0
	3.140579356054376e+00,0.0

 4	1.122018454301964e-03,0.000000000000000e+00
	1.000000000000000e+00,0.000000000000000e+00
	7.703980844914081e-13,1.116529391343095e-09
	-3.935680842051373e-13,4.104280667424286e-16
	-3.935680841854609e-13,4.104469339945877e-16
	-3.935680841854609e-13,4.104469339945877e-16
	3.935682982102340e-13,0.0
	-2.480995978220318e+02,0.0
	3.140549767233696e+00,0.0

 5	1.154781984689459e-03,0.000000000000000e+00
	1.000000000000000e+00,0.000000000000000e+00
	8.644008587431043e-13,1.217223004694497e-09
	-4.415906355158641e-13,4.739549276101690e-16
	-4.415906354924786e-13,4.739767151721754e-16
	-4.415906354924786e-13,4.739767151721754e-16
	4.415908898613938e-13,0.0
	-2.470995978959638e+02,0.0
	3.140519314403994e+00,0.0

 6	1.188502227437019e-03,0.000000000000000e+00
	1.000000000000000e+00,0.000000000000000e+00
	9.698737044720135e-13,1.326997616886216e-09
	-4.954728209186420e-13,5.473145998799541e-16
	-4.954728208908483e-13,5.473397597629637e-16
	-4.954728208908483e-13,5.473397597629637e-16
	4.954731232088651e-13,0.0
	-2.460995979742768e+02,0.0
	3.140487972335763e+00,0.0

 7	1.223207119049932e-03,0.000000000000000e+00
	1.000000000000000e+00,0.000000000000000e+00
	1.088216181743153e-12,1.446672192637194e-09
	-5.559296232691004e-13,6.320290251237415e-16
	-5.559296232360677e-13,6.320580793020499e-16
	-5.559296232360677e-13,6.320580793020499e-16
	5.559299825416972e-13,0.0
	-2.450995980572294e+02,0.0
	3.140455715062783e+00,0.0

 8	1.258925411794168e-03,0.000000000000000e+00
	1.000000000000000e+00,0.000000000000000e+00
	1.220998622716167e-12,1.577139554498732e-09
	-6.237632664054256e-13,7.298557139410219e-16
	-6.237632663661661e-13,7.298892651810881e-16
	-6.237632663661661e-13,7.298892651810881e-16
	6.237636934016985e-13,0.0
	-2.440995981450939e+02,0.0
	3.140422515860609e+00,0.0

 9	1.295686697517020e-03,0.000000000000000e+00
	1.000000000000000e+00,0.000000000000000e+00
	1.369982968978105e-12,1.719373043670115e-09
	-6.998738601345913e-13,8.428242077745293e-16
	-6.998738600879312e-13,8.428629521401350e-16
	-6.998738600879312e-13,8.428629521401350e-16
	6.998743676206017e-13,0.0
	-2.430995982381694e+02,0.0
	3.140388347224428e+00,0.0

 10	1.333521432163325e-03,0.000000000000000e+00
	1.000000000000000e+00,0.000000000000000e+00
	1.537146151420574e-12,1.874433781521383e-09
	-7.852713441018266e-13,9.732781843567214e-16
	-7.852713440463709e-13,9.733229256497006e-16
	-7.852713440463709e-13,9.733229256497006e-16
	7.852719472500666e-13,0.0
	-2.420995983367579e+02,0.0
	3.140353180846272e+00,0.0

 11	1.372460961007563e-03,0.000000000000000e+00
	1.000000000000000e+00,0.000000000000000e+00
	1.724706322881695e-12,2.043478585981374e-09
	-8.810888890238495e-13,1.123924080309086e-15
	-8.810888889579403e-13,1.123975746745218e-15
	-8.810888889579403e-13,1.123975746745218e-15
	8.810896058668590e-13,0.0
	-2.410995984411885e+02,0.0
	3.140316987591572e+00,0.0

 12	1.412537544622755e-03,0.000000000000000e+00
	1.000000000000000e+00,0.000000000000000e+00
	1.935152291655938e-12,2.227768601863910e-09
	-9.885979331159430e-13,1.297887239638250e-15
	-9.885979330376099e-13,1.297946903104271e-15
	-9.885979330376099e-13,1.297946903104271e-15
	9.885987850854349e-13,0.0
	-2.400995985518122e+02,0.0
	3.140279737475010e+00,0.0

 13	1.453784385607663e-03,0.000000000000000e+00
	1.000000000000000e+00,0.000000000000000e+00
	2.171276546437238e-12,2.428678709516373e-09
	-1.109225053235318e-12,1.498776753001223e-15
	-1.109225053142219e-12,1.498845651292481e-15
	-1.109225053142219e-12,1.498845651292481e-15
	1.109226065802930e-12,0.0
	-2.390995986689847e+02,0.0
	3.140241399635688e+00,0.0

 14	1.496235656094435e-03,0.000000000000000e+00
	1.000000000000000e+00,0.000000000000000e+00
	2.436212310896136e-12,2.647707781966522e-09
	-1.244570894601291e-12,1.730760332899845e-15
	-1.244570894490642e-12,1.730839895399924e-15
	-1.244570894490642e-12,1.730839895399924e-15
	1.244572098040118e-12,0.0
	-2.380995987930962e+02,0.0
	3.140201942311551e+00,0.0

 15	1.539926526059493e-03,0.000000000000000e+00
	1.000000000000000e+00,0.000000000000000e+00
	2.733475119601783e-12,2.886489867107964e-09
	-1.396431410283537e-12,1.998650778195969e-15
	-1.396431410152031e-12,1.998742655531062e-15
	-1.396431410152031e-12,1.998742655531062e-15
	1.396432840573220e-12,0.0
	-2.370995989245702e+02,0.0
	3.140161332813082e+00,0.0

 16	1.584893192461115e-03,0.000000000000000e+00
	1.000000000000000e+00,0.000000000000000e+00
	3.067009466979678e-12,3.146806378350819e-09
	-1.566821692292942e-12,2.308005821766135e-15
	-1.566821692136647e-12,2.308111920049361e-15
	-1.566821692136647e-12,2.308111920049361e-15
	1.566823392195362e-12,0.0
	-2.360995990638323e+02,0.0
	3.140119537496211e+00,0.0

 17	1.631172909227840e-03,0.000000000000000e+00
	1.000000000000000e+00,0.000000000000000e+00
	3.441241148274807e-12,3.430599384656015e-09
	-1.758002710482259e-12,2.665243432737952e-15
	-1.758002710296502e-12,2.665365953114070e-15
	-1.758002710296502e-12,2.665365953114070e-15
	1.758004730820003e-12,0.0
	-2.350995992113398e+02,0.0
	3.140076521734450e+00,0.0

 18	1.678804018122562e-03,0.000000000000000e+00
	1.000000000000000e+00,0.000000000000000e+00
	3.861135987070430e-12,3.739986099120221e-09
	-1.972511314069607e-12,3.077774965407941e-15
	-1.972511313848834e-12,3.077916449718858e-15
	-1.972511313848834e-12,3.077916449718858e-15
	1.972513715245429e-12,0.0
	-2.340995993675957e+02,0.0
	3.140032249890199e+00,0.0

 19	1.727825980507865e-03,0.000000000000000e+00
	1.000000000000000e+00,0.000000000000000e+00
	4.332265728667265e-12,4.077274674221855e-09
	-2.213193893893152e-12,3.554158917201270e-15
	-2.213193893630763e-12,3.554322300719734e-15
	-2.213193893630763e-12,3.554322300719734e-15
	2.213196747695856e-12,0.0
	-2.330995995331084e+02,0.0
	3.139986685285228e+00,0.0

 20	1.778279410038925e-03,0.000000000000000e+00
	1.000000000000000e+00,0.000000000000000e+00
	4.860881973622842e-12,4.444981421516262e-09
	-2.483244152043439e-12,4.104278485526880e-15
	-2.483244151731589e-12,4.104467157852373e-15
	-2.483244151731589e-12,4.104467157852373e-15
	2.483247543794173e-12,0.0
	-2.320995997084237e+02,0.0
	3.139939790170283e+00,0.0

 21	1.830206106311058e-03,0.000000000000000e+00
	1.000000000000000e+00,0.000000000000000e+00
	5.453999132538607e-12,4.845849584277736e-09
	-2.786245480062555e-12,4.739546607188699e-15
	-2.786245479691920e-12,4.739764482568896e-15
	-2.786245479691920e-12,4.739764482568896e-15
	2.786249511165683e-12,0.0
	-2.310995998941323e+02,0.0
	3.139891525693820e+00,0.0

 22	1.883649089489803e-03,0.000000000000000e+00
	1.000000000000000e+00,0.000000000000000e+00
	6.119487502877154e-12,5.282869803151134e-09
	-3.126218508043080e-12,5.473142734167725e-15
	-3.126218507602580e-12,5.473394332704414e-15
	-3.126218507602580e-12,5.473394332704414e-15
	3.126223299017910e-12,0.0
	-2.300996000908423e+02,0.0
	3.139841851869808e+00,0.0

 23	1.938652635952210e-03,0.000000000000000e+00
	1.000000000000000e+00,0.000000000000000e+00
	6.866177702795027e-12,5.759302427440810e-09
	-3.507674455534910e-12,6.320286257913156e-15
	-3.507674455011375e-12,6.320576799337342e-15
	-3.507674455011375e-12,6.320576799337342e-15
	3.507680149618893e-12,0.0
	-2.290996002992136e+02,0.0
	3.139790727544614e+00,0.0

 24	1.995262314968882e-03,0.000000000000000e+00
	1.000000000000000e+00,0.000000000000000e+00
	7.703977847867910e-12,6.278701838556734e-09
	-3.935674992222896e-12,7.298552254746603e-15
	-3.935674991600675e-12,7.298887766708260e-15
	-3.935674991600675e-12,7.298887766708260e-15
	3.935681759654051e-12,0.0
	-2.280996005199250e+02,0.0
	3.139738110362896e+00,0.0

 25	2.053525026457149e-03,0.000000000000000e+00
	1.000000000000000e+00,0.000000000000000e+00
	8.644005025435820e-12,6.844942966991365e-09
	-4.415899402625037e-12,8.428236102791749e-15
	-4.415899401885524e-12,8.428623545910810e-15
	-4.415899401885524e-12,8.428623545910810e-15
	4.415907445731602e-12,0.0
	-2.270996007537170e+02,0.0
	3.139683956732523e+00,0.0

 26	2.113489039836650e-03,0.000000000000000e+00
	1.000000000000000e+00,0.000000000000000e+00
	9.698732811282422e-12,7.462250200745958e-09
	-4.954719946086045e-12,9.732774534961861e-15
	-4.954719945207133e-12,9.733221947234795e-15
	-4.954719945207133e-12,9.733221947234795e-15
	4.954729505335568e-12,0.0
	-2.260996010013612e+02,0.0
	3.139628221788455e+00,0.0

 27	2.175204034019526e-03,0.000000000000000e+00
	1.000000000000000e+00,0.000000000000000e+00
	1.088215678598286e-11,8.135228900790756e-09
	-5.559286411978925e-12,1.123923186315365e-14
	-5.559286410934336e-12,1.123974852671149e-14
	-5.559286410934336e-12,1.123974852671149e-14
	5.559297773167589e-12,0.0
	-2.250996012636790e+02,0.0
	3.139570859355577e+00,0.0

 28	2.238721138568343e-03,0.000000000000000e+00
	1.000000000000000e+00,0.000000000000000e+00
	1.220998024727054e-11,8.868899758719422e-09
	-6.237620992115775e-12,1.297886146099981e-14
	-6.237620990874279e-12,1.297945809467721e-14
	-6.237620990874279e-12,1.297945809467721e-14
	6.237634494912944e-12,0.0
	-2.240996015415392e+02,0.0
	3.139511821910443e+00,0.0

 29	2.304092976055850e-03,0.000000000000000e+00
	1.000000000000000e+00,0.000000000000000e+00
	1.369982258267123e-11,9.668736252890798e-09
	-6.998724729223572e-12,1.498775415377356e-14
	-6.998724727748051e-12,1.498844313548395e-14
	-6.998724727748051e-12,1.498844313548395e-14
	6.998740777326995e-12,0.0
	-2.230996018358649e+02,0.0
	3.139451060541903e+00,0.0

 30	2.371373705661660e-03,0.000000000000000e+00
	1.000000000000000e+00,0.000000000000000e+00
	1.537145306738611e-11,1.054070548250646e-08
	-7.852696953969465e-12,1.730758696707444e-14
	-7.852696952215805e-12,1.730838259060471e-14
	-7.852696952215805e-12,1.730838259060471e-14
	7.852716027174757e-12,0.0
	-2.220996021476323e+02,0.0
	3.139388524910586e+00,0.0

 31	2.440619068041985e-03,0.000000000000000e+00
	1.000000000000000e+00,0.000000000000000e+00
	1.724705318975692e-11,1.149131268424800e-08
	-8.810869295347628e-12,1.998648776795327e-14
	-8.810869293263402e-12,1.998740653950545e-14
	-8.810869293263402e-12,1.998740653950545e-14
	8.810891963892877e-12,0.0
	-2.210996024778697e+02,0.0
	3.139324163207194e+00,0.0

 32	2.511886431509585e-03,0.000000000000000e+00
	1.000000000000000e+00,0.000000000000000e+00
	1.935151098512753e-11,1.252764976355026e-08
	-9.885956042595545e-12,2.308003373639081e-14
	-9.885956040118437e-12,2.308109471702283e-14
	-9.885956040118437e-12,2.308109471702283e-14
	9.885982984209893e-12,0.0
	-2.200996028276770e+02,0.0
	3.139257922109579e+00,0.0

 33	2.585234839562196e-03,0.000000000000000e+00
	1.000000000000000e+00,0.000000000000000e+00
	2.171275128382829e-11,1.365744820262581e-08
	-1.109222285384112e-11,2.665240438169031e-14
	-1.109222285089707e-11,2.665362958276013e-14
	-1.109222285089707e-11,2.665362958276013e-14
	1.109225487400704e-11,0.0
	-2.190996031982140e+02,0.0
	3.139189746738569e+00,0.0

 34	2.660725059798815e-03,0.000000000000000e+00
	1.000000000000000e+00,0.000000000000000e+00
	2.436210625534318e-11,1.488913673989404e-08
	-1.244567605003831e-11,3.077771302432139e-14
	-1.244567604653930e-11,3.077912786413850e-14
	-1.244567604653930e-11,3.077912786413850e-14
	1.244571410607339e-11,0.0
	-2.180996035907025e+02,0.0
	3.139119580612503e+00,0.0

 35	2.738419634264367e-03,0.000000000000000e+00
	1.000000000000000e+00,0.000000000000000e+00
	2.733473116546264e-11,1.623190425108755e-08
	-1.396427500590328e-11,3.554154436623264e-14
	-1.396427500174470e-11,3.554317819739038e-14
	-1.396427500174470e-11,3.554317819739038e-14
	1.396432023558141e-11,0.0
	-2.170996040064508e+02,0.0
	3.139047365600440e+00,0.0

 36	2.818382931264460e-03,0.000000000000000e+00
	1.000000000000000e+00,0.000000000000000e+00
	3.067007086346419e-11,1.769576830125855e-08
	-1.566817045615477e-11,4.104273004852852e-14
	-1.566817045121229e-11,4.104461676685772e-14
	-1.566817045121229e-11,4.104461676685772e-14
	1.566822421172251e-11,0.0
	-2.160996044468271e+02,0.0
	3.138973041873997e+00,0.0

 37	2.900681198693160e-03,0.000000000000000e+00
	1.000000000000000e+00,0.000000000000000e+00
	3.441238318884250e-11,1.929164987888902e-08
	-1.757997187895260e-11,4.739539903190747e-14
	-1.757997187307846e-11,4.739757777968423e-14
	-1.757997187307846e-11,4.739757777968423e-14
	1.758003576755772e-11,0.0
	-2.150996049133028e+02,0.0
	3.138896547857787e+00,0.0

 38	2.985382618917966e-03,0.000000000000000e+00
	1.000000000000000e+00,0.000000000000000e+00
	3.861132624333418e-11,2.103145486988381e-08
	-1.972504750463432e-11,5.473134533787406e-14
	-1.972504749765288e-11,5.473386131587090e-14
	-1.972504749765288e-11,5.473386131587090e-14
	1.972512343637516e-11,0.0
	-2.140996054074214e+02,0.0
	3.138817820178406e+00,0.0

 39	3.072557365267454e-03,0.000000000000000e+00
	1.000000000000000e+00,0.000000000000000e+00
	4.332261732048925e-11,2.292816287904034e-08
	-2.213186093034353e-11,6.320276227156093e-14
	-2.213186092204608e-11,6.320566767678770e-14
	-2.213186092204608e-11,6.320566767678770e-14
	2.213195117537577e-11,0.0
	-2.130996059308135e+02,0.0
	3.138736793611931e+00,0.0

 40	3.162277660168387e-03,0.000000000000000e+00
	1.000000000000000e+00,0.000000000000000e+00
	4.860877223630756e-11,2.499592406164893e-08
	-2.483234880705785e-11,7.298539985053042e-14
	-2.483234879719632e-11,7.298875495911964e-14
	-2.483234879719632e-11,7.298875495911964e-14
	2.483245606346597e-11,0.0
	-2.120996064852198e+02,0.0
	3.138653401029884e+00,0.0

 41	3.254617834980467e-03,0.000000000000000e+00
	1.000000000000000e+00,0.000000000000000e+00
	5.453993487160430e-11,2.725016468770843e-08
	-2.786234461057756e-11,8.428221094411981e-14
	-2.786234459885711e-11,8.428608536182171e-14
	-2.786234459885711e-11,8.428608536182171e-14
	2.786247208504025e-11,0.0
	-2.110996070724820e+02,0.0
	3.138567573343626e+00,0.0

 42	3.349654391578285e-03,0.000000000000000e+00
	1.000000000000000e+00,0.000000000000000e+00
	6.119480793332995e-11,2.970770222620125e-08
	-3.126205411933544e-11,9.732756176608459e-14
	-3.126205410540565e-11,9.733203587231447e-14
	-3.126205410540565e-11,9.733203587231447e-14
	3.126220562299656e-11,0.0
	-2.100996076945356e+02,0.0
	3.138479239447112e+00,0.0

 43	3.447466065731503e-03,0.000000000000000e+00
	1.000000000000000e+00,0.000000000000000e+00
	6.866169728494854e-11,3.238687080781090e-08
	-3.507658890785273e-11,1.123920940709216e-13
	-3.507658889129714e-11,1.123972606863178e-13
	-3.507658889129714e-11,1.123972606863178e-13
	3.507676897026406e-11,0.0
	-2.090996083534464e+02,0.0
	3.138388326157992e+00,0.0

 44	3.548133892335764e-03,0.000000000000000e+00
	1.000000000000000e+00,0.000000000000000e+00
	7.703968370387857e-11,3.530765800227278e-08
	-3.935656493483686e-11,1.297883399257947e-13
	-3.935656491516052e-11,1.297943062378816e-13
	-3.935656491516052e-11,1.297943062378816e-13
	3.935677893937937e-11,0.0
	-2.080996090514075e+02,0.0
	3.138294758156979e+00,0.0

 45	3.651741272548387e-03,0.000000000000000e+00
	1.000000000000000e+00,0.000000000000000e+00
	8.643993761436954e-11,3.849185393071129e-08
	-4.415877416839236e-11,1.498772055422095e-13
	-4.415877414500699e-11,1.498840953291159e-13
	-4.415877414500699e-11,1.498840953291159e-13
	4.415902851322446e-11,0.0
	-2.070996097907161e+02,0.0
	3.138198457925453e+00,0.0

 46	3.758374042884452e-03,0.000000000000000e+00
	1.000000000000000e+00,0.000000000000000e+00
	9.698719423993405e-11,4.196321382486923e-08
	-4.954693815934837e-11,1.730754586786972e-13
	-4.954693813155480e-11,1.730834148770622e-13
	-4.954693813155480e-11,1.730834148770622e-13
	4.954724044869325e-11,0.0
	-2.060996105738380e+02,0.0
	3.138099345681245e+00,0.0

 47	3.868120546330533e-03,0.000000000000000e+00
	1.000000000000000e+00,0.000000000000000e+00
	1.088214087516005e-10,4.574763524671286e-08
	-5.559255356242400e-11,1.998643749511726e-13
	-5.559255352939129e-11,1.998735626215119e-13
	-5.559255352939129e-11,1.998735626215119e-13
	5.559291283391499e-11,0.0
	-2.050996114033611e+02,0.0
	3.137997339312539e+00,0.0

 48	3.981071705534985e-03,0.000000000000000e+00
	1.000000000000000e+00,0.000000000000000e+00
	1.220996133722132e-10,4.987335128962701e-08
	-6.237584082311004e-11,2.307997224231303e-13
	-6.237584078385060e-11,2.308103321741829e-13
	-6.237584078385060e-11,2.308103321741829e-13
	6.237626781799082e-11,0.0
	-2.040996122820366e+02,0.0
	3.137892354309850e+00,0.0

 49	4.097321098135428e-03,0.000000000000000e+00
	1.000000000000000e+00,0.000000000000000e+00
	1.369980010803818e-10,5.437114120300634e-08
	-6.998680861849243e-11,2.665232916172296e-13
	-6.998680857183252e-11,2.665355435603243e-13
	-6.998680857183252e-11,2.665355435603243e-13
	6.998731610275043e-11,0.0
	-2.030996132127763e+02,0.0
	3.137784303696015e+00,0.0

 50	4.216965034285836e-03,0.000000000000000e+00
	1.000000000000000e+00,0.000000000000000e+00
	1.537142635624523e-10,5.927456001120472e-08
	-7.852644817514260e-11,3.077762101474336e-13
	-7.852644811968721e-11,3.077903584629114e-13
	-7.852644811968721e-11,3.077903584629114e-13
	7.852705132117651e-11,0.0
	-2.020996141986639e+02,0.0
	3.137673097954139e+00,0.0

 51	4.340102636447452e-03,0.000000000000000e+00
	1.000000000000000e+00,0.000000000000000e+00
	1.724702144350727e-10,6.462018883977733e-08
	-8.810807331070154e-11,3.554143181949936e-13
	-8.810807324479269e-11,3.554306564054203e-13
	-8.810807324479269e-11,3.554306564054203e-13
	8.810879015093366e-11,0.0
	-2.010996152429707e+02,0.0
	3.137558644953437e+00,0.0

 52	4.466835921509646e-03,0.000000000000000e+00
	1.000000000000000e+00,0.000000000000000e+00
	1.935147325464030e-10,7.044790781649228e-08
	-9.885882397933610e-11,4.104259238056265e-13
	-9.885882390100331e-11,4.104447908651901e-13
	-9.885882390100331e-11,4.104447908651901e-13
	9.885967594533138e-11,0.0
	-2.000996163491587e+02,0.0
	3.137440849872912e+00,0.0

 53	4.597269885308737e-03,0.000000000000000e+00
	1.000000000000000e+00,0.000000000000000e+00
	2.171270644107984e-10,7.680119358276923e-08
	-1.109213532702898e-10,4.739523063553134e-13
	-1.109213531771911e-10,4.739740936817357e-13
	-1.109213531771911e-10,4.739740936817357e-13
	1.109223658334993e-10,0.0
	-1.990996175208888e+02,0.0
	3.137319615122806e+00,0.0

 54	4.731512589614821e-03,0.000000000000000e+00
	1.000000000000000e+00,0.000000000000000e+00
	2.436205295962697e-10,8.372744363467686e-08
