Title: * sky130 bjt 3-stage high-frequency ch/riso sweep ac: ch=22p, riso=330k
Date: Fri May 22 22:49:30  2026
Command: ngspice-46, Build Mar 29 2026   15:02:07
Plotname: AC Analysis
Flags: complex
No. Variables: 9
No. Points: 721
Variables:
	0	frequency	frequency grid=3
	1	v(vin)	voltage
	2	v(b3_collector)	voltage
	3	v(vout_drv)	voltage
	4	v(vout_final)	voltage
	5	gain	notype
	6	gain_vv	notype
	7	gain_db	decibel
	8	phase_deg	phase
Values:
 0	1.000000000000000e-03,0.000000000000000e+00
	1.000000000000000e+00,0.000000000000000e+00
	4.860954539745212e-13,7.904423276701429e-10
	-2.483247083881103e-13,2.308029121806232e-16
	-2.483247083833246e-13,2.308080610721483e-16
	-2.483247083833246e-13,2.308080610721483e-16
	2.483248156468142e-13,0.0
	-2.520995975654162e+02,0.0
	3.140663193142180e+00,0.0

 1	1.029200527194428e-03,0.000000000000000e+00
	1.000000000000000e+00,0.000000000000000e+00
	5.454080652930250e-13,8.617279547941386e-10
	-2.786248964558176e-13,2.665270405889811e-16
	-2.786248964501297e-13,2.665329864359630e-16
	-2.786248964501297e-13,2.665329864359630e-16
	2.786250239330244e-13,0.0
	-2.510995976241431e+02,0.0
	3.140636052408307e+00,0.0

 2	1.059253725177289e-03,0.000000000000000e+00
	1.000000000000000e+00,0.000000000000000e+00
	6.119579088948014e-13,9.394424380094620e-10
	-3.126222649373807e-13,3.077806195092017e-16
	-3.126222649306207e-13,3.077874856659449e-16
	-3.126222649306207e-13,3.077874856659449e-16
	3.126224164443227e-13,0.0
	-2.500995976863474e+02,0.0
	3.140608119150804e+00,0.0

 3	1.090184492385128e-03,0.000000000000000e+00
	1.000000000000000e+00,0.000000000000000e+00
	6.866280605117859e-13,1.024165560128178e-09
	-3.507679377516002e-13,3.554195080457088e-16
	-3.507679377435659e-13,3.554274369595319e-16
	-3.507679377435659e-13,3.554274369595319e-16
	3.507681178179355e-13,0.0
	-2.490995977522421e+02,0.0
	3.140579370227575e+00,0.0

 4	1.122018454301964e-03,0.000000000000000e+00
	1.000000000000000e+00,0.000000000000000e+00
	7.704093473823636e-13,1.116529391334873e-09
	-3.935680842008412e-13,4.104320368254308e-16
	-3.935680841912925e-13,4.104411929919198e-16
	-3.935680841912925e-13,4.104411929919198e-16
	3.935682982100784e-13,0.0
	-2.480995978220352e+02,0.0
	3.140549781820759e+00,0.0

 5	1.154781984689459e-03,0.000000000000000e+00
	1.000000000000000e+00,0.000000000000000e+00
	8.644134959143381e-13,1.217223004685002e-09
	-4.415906355107601e-13,4.739595121903000e-16
	-4.415906354994114e-13,4.739700855659797e-16
	-4.415906354994114e-13,4.739700855659797e-16
	4.415908898612108e-13,0.0
	-2.470995978959674e+02,0.0
	3.140519329417007e+00,0.0

 6	1.188502227437019e-03,0.000000000000000e+00
	1.000000000000000e+00,0.000000000000000e+00
	9.698878836110295e-13,1.326997616875252e-09
	-4.954728209125759e-13,5.473198940702513e-16
	-4.954728208990880e-13,5.473321040134768e-16
	-4.954728208990880e-13,5.473321040134768e-16
	4.954731232086477e-13,0.0
	-2.460995979742806e+02,0.0
	3.140487987787164e+00,0.0

 7	1.223207119049932e-03,0.000000000000000e+00
	1.000000000000000e+00,0.000000000000000e+00
	1.088232090998418e-12,1.446672192624532e-09
	-5.559296232618895e-13,6.320351387590188e-16
	-5.559296232458591e-13,6.320492385808454e-16
	-5.559296232458591e-13,6.320492385808454e-16
	5.559299825414374e-13,0.0
	-2.450995980572334e+02,0.0
	3.140455730965373e+00,0.0

 8	1.258925411794168e-03,0.000000000000000e+00
	1.000000000000000e+00,0.000000000000000e+00
	1.221016473193719e-12,1.577139554484110e-09
	-6.237632663968525e-13,7.298627738565298e-16
	-6.237632663778003e-13,7.298790560759740e-16
	-6.237632663778003e-13,7.298790560759740e-16
	6.237636934013868e-13,0.0
	-2.440995981450982e+02,0.0
	3.140422532227563e+00,0.0

 9	1.295686697517020e-03,0.000000000000000e+00
	1.000000000000000e+00,0.000000000000000e+00
	1.370002997542803e-12,1.719373043653230e-09
	-6.998738601244026e-13,8.428323604373225e-16
	-6.998738601017591e-13,8.428511628500432e-16
	-6.998738601017591e-13,8.428511628500432e-16
	6.998743676202318e-13,0.0
	-2.430995982381741e+02,0.0
	3.140388364069306e+00,0.0

 10	1.333521432163325e-03,0.000000000000000e+00
	1.000000000000000e+00,0.000000000000000e+00
	1.537168623839142e-12,1.874433781501885e-09
	-7.852713440897197e-13,9.732875989042968e-16
	-7.852713440628078e-13,9.733093115905960e-16
	-7.852713440628078e-13,9.733093115905960e-16
	7.852719472496294e-13,0.0
	-2.420995983367628e+02,0.0
	3.140353198183030e+00,0.0

 11	1.372460961007563e-03,0.000000000000000e+00
	1.000000000000000e+00,0.000000000000000e+00
	1.724731537349289e-12,2.043478585958859e-09
	-8.810888890094585e-13,1.123934952058345e-15
	-8.810888889774735e-13,1.123960025475879e-15
	-8.810888889774735e-13,1.123960025475879e-15
	8.810896058663372e-13,0.0
	-2.410995984411937e+02,0.0
	3.140317005434571e+00,0.0

 12	1.412537544622755e-03,0.000000000000000e+00
	1.000000000000000e+00,0.000000000000000e+00
	1.935180582752998e-12,2.227768601837911e-09
	-9.885979330988404e-13,1.297899794137616e-15
	-9.885979330608265e-13,1.297928748466715e-15
	-9.885979330608265e-13,1.297928748466715e-15
	9.885987850848161e-13,0.0
	-2.400995985518177e+02,0.0
	3.140279755839035e+00,0.0

 13	1.453784385607663e-03,0.000000000000000e+00
	1.000000000000000e+00,0.000000000000000e+00
	2.171308289569167e-12,2.428678709486347e-09
	-1.109225053214992e-12,1.498791250709914e-15
	-1.109225053169813e-12,1.498824686645379e-15
	-1.109225053169813e-12,1.498824686645379e-15
	1.109226065802195e-12,0.0
	-2.390995986689904e+02,0.0
	3.140241418535952e+00,0.0

 14	1.496235656094435e-03,0.000000000000000e+00
	1.000000000000000e+00,0.000000000000000e+00
	2.436247927274692e-12,2.647707781931849e-09
	-1.244570894577137e-12,1.730777074591439e-15
	-1.244570894523440e-12,1.730815685804713e-15
	-1.244570894523440e-12,1.730815685804713e-15
	1.244572098039248e-12,0.0
	-2.380995987931023e+02,0.0
	3.140201961763712e+00,0.0

 15	1.539926526059493e-03,0.000000000000000e+00
	1.000000000000000e+00,0.000000000000000e+00
	2.733515081834294e-12,2.886489867067925e-09
	-1.396431410254824e-12,1.998670111198300e-15
	-1.396431410191006e-12,1.998714698728566e-15
	-1.396431410191006e-12,1.998714698728566e-15
	1.396432840572180e-12,0.0
	-2.370995989245767e+02,0.0
	3.140161352833256e+00,0.0

 16	1.584893192461115e-03,0.000000000000000e+00
	1.000000000000000e+00,0.000000000000000e+00
	3.067054305340243e-12,3.146806378304583e-09
	-1.566821692258817e-12,2.308028147167097e-15
	-1.566821692182969e-12,2.308079636039840e-15
	-1.566821692182969e-12,2.308079636039840e-15
	1.566823392194126e-12,0.0
	-2.360995990638392e+02,0.0
	3.140119558100986e+00,0.0

 17	1.631172909227840e-03,0.000000000000000e+00
	1.000000000000000e+00,0.000000000000000e+00
	3.441291457740697e-12,3.430599384602623e-09
	-1.758002710441704e-12,2.665269213706540e-15
	-1.758002710351559e-12,2.665328672124363e-15
	-1.758002710351559e-12,2.665328672124363e-15
	1.758004730818537e-12,0.0
	-2.350995992113471e+02,0.0
	3.140076542940895e+00,0.0

 18	1.678804018122562e-03,0.000000000000000e+00
	1.000000000000000e+00,0.000000000000000e+00
	3.861192435217058e-12,3.739986099058561e-09
	-1.972511314021408e-12,3.077804736803266e-15
	-1.972511313914270e-12,3.077873398307097e-15
	-1.972511313914270e-12,3.077873398307097e-15
	1.972513715243688e-12,0.0
	-2.340995993676033e+02,0.0
	3.140032271715884e+00,0.0

 19	1.727825980507865e-03,0.000000000000000e+00
	1.000000000000000e+00,0.000000000000000e+00
	4.332329064526492e-12,4.077274674150650e-09
	-2.213193893835867e-12,3.554193296668882e-15
	-2.213193893708533e-12,3.554272585729316e-15
	-2.213193893708533e-12,3.554272585729316e-15
	2.213196747693785e-12,0.0
	-2.330995995331165e+02,0.0
	3.139986707748234e+00,0.0

 20	1.778279410038925e-03,0.000000000000000e+00
	1.000000000000000e+00,0.000000000000000e+00
	4.860953037622152e-12,4.444981421434039e-09
	-2.483244151975355e-12,4.104318186312603e-15
	-2.483244151824019e-12,4.104409747882332e-15
	-2.483244151824019e-12,4.104409747882332e-15
	2.483247543791712e-12,0.0
	-2.320995997084323e+02,0.0
	3.139939813289221e+00,0.0

 21	1.830206106311058e-03,0.000000000000000e+00
	1.000000000000000e+00,0.000000000000000e+00
	5.454078867653025e-12,4.845849584182787e-09
	-2.786245479981641e-12,4.739592452935802e-15
	-2.786245479801777e-12,4.739698186576195e-15
	-2.786245479801777e-12,4.739698186576195e-15
	2.786249511162762e-12,0.0
	-2.310995998941414e+02,0.0
	3.139891549487842e+00,0.0

 22	1.883649089489803e-03,0.000000000000000e+00
	1.000000000000000e+00,0.000000000000000e+00
	6.119576967141950e-12,5.282869803041488e-09
	-3.126218507946907e-12,5.473195676004378e-15
	-3.126218507733139e-12,5.473317775294246e-15
	-3.126218507733139e-12,5.473317775294246e-15
	3.126223299014432e-12,0.0
	-2.300996000908519e+02,0.0
	3.139841876358629e+00,0.0

 23	1.938652635952210e-03,0.000000000000000e+00
	1.000000000000000e+00,0.000000000000000e+00
	6.866278083345142e-12,5.759302427314195e-09
	-3.507674455420616e-12,6.320347394184837e-15
	-3.507674455166551e-12,6.320488392228934e-15
	-3.507674455166551e-12,6.320488392228934e-15
	3.507680149614767e-12,0.0
	-2.290996002992238e+02,0.0
	3.139790752748520e+00,0.0

 24	1.995262314968882e-03,0.000000000000000e+00
	1.000000000000000e+00,0.000000000000000e+00
	7.704090476690473e-12,6.278701838410519e-09
	-3.935674992087046e-12,7.298622853802507e-15
	-3.935674991785090e-12,7.298785675783906e-15
	-3.935674991785090e-12,7.298785675783906e-15
	3.935681759649134e-12,0.0
	-2.280996005199359e+02,0.0
	3.139738136302770e+00,0.0

 25	2.053525026457149e-03,0.000000000000000e+00
	1.000000000000000e+00,0.000000000000000e+00
	8.644131397044769e-12,6.844942966822518e-09
	-4.415899402463597e-12,8.428317629298416e-15
	-4.415899402104721e-12,8.428505653165028e-15
	-4.415899402104721e-12,8.428505653165028e-15
	4.415907445725779e-12,0.0
	-2.270996007537285e+02,0.0
	3.139683983429855e+00,0.0

 26	2.113489039836650e-03,0.000000000000000e+00
	1.000000000000000e+00,0.000000000000000e+00
	9.698874602549706e-12,7.462250200550978e-09
	-4.954719945894162e-12,9.732868680289210e-15
	-4.954719945467637e-12,9.733085806833439e-15
	-4.954719945467637e-12,9.733085806833439e-15
	4.954729505328636e-12,0.0
	-2.260996010013733e+02,0.0
	3.139628249265364e+00,0.0

 27	2.175204034019526e-03,0.000000000000000e+00
	1.000000000000000e+00,0.000000000000000e+00
	1.088231587838946e-11,8.135228900565593e-09
	-5.559286411750886e-12,1.123934058046479e-14
	-5.559286411243960e-12,1.123959131425023e-14
	-5.559286411243960e-12,1.123959131425023e-14
	5.559297773159363e-12,0.0
	-2.250996012636919e+02,0.0
	3.139570887634827e+00,0.0

 28	2.238721138568343e-03,0.000000000000000e+00
	1.000000000000000e+00,0.000000000000000e+00
	1.221015875187249e-11,8.868899758459409e-09
	-6.237620991844743e-12,1.297898700577149e-14
	-6.237620991242260e-12,1.297927654858554e-14
	-6.237620991242260e-12,1.297927654858554e-14
	6.237634494903160e-12,0.0
	-2.240996015415528e+02,0.0
	3.139511851015461e+00,0.0

 29	2.304092976055850e-03,0.000000000000000e+00
	1.000000000000000e+00,0.000000000000000e+00
	1.370002286811192e-11,9.668736252590538e-09
	-6.998724728901485e-12,1.498789913058903e-14
	-6.998724728185434e-12,1.498823348936027e-14
	-6.998724728185434e-12,1.498823348936027e-14
	6.998740777315402e-12,0.0
	-2.230996018358793e+02,0.0
	3.139451090496803e+00,0.0

 30	2.371373705661660e-03,0.000000000000000e+00
	1.000000000000000e+00,0.000000000000000e+00
	1.537167779132664e-11,1.054070548215972e-08
	-7.852696953586620e-12,1.730775438365815e-14
	-7.852696952735591e-12,1.730814049507728e-14
	-7.852696952735591e-12,1.730814049507728e-14
	7.852716027160937e-12,0.0
	-2.220996021476475e+02,0.0
	3.139388555740185e+00,0.0

 31	2.440619068041985e-03,0.000000000000000e+00
	1.000000000000000e+00,0.000000000000000e+00
	1.724730533414148e-11,1.149131268384760e-08
	-8.810869294892621e-12,1.998668109757031e-14
	-8.810869293881171e-12,1.998712697200008e-14
	-8.810869293881171e-12,1.998712697200008e-14
	8.810891963876455e-12,0.0
	-2.210996024778859e+02,0.0
	3.139324194937034e+00,0.0

 32	2.511886431509585e-03,0.000000000000000e+00
	1.000000000000000e+00,0.000000000000000e+00
	1.935179389574939e-11,1.252764976308632e-08
	-9.885956042053532e-12,2.308025698990058e-14
	-9.885956040851422e-12,2.308077187756027e-14
	-9.885956040851422e-12,2.308077187756027e-14
	9.885982984189138e-12,0.0
	-2.200996028276953e+02,0.0
	3.139257954765946e+00,0.0

 33	2.585234839562196e-03,0.000000000000000e+00
	1.000000000000000e+00,0.000000000000000e+00
	2.171306871473600e-11,1.365744820209187e-08
	-1.109222285319842e-11,2.665266219076833e-14
	-1.109222285176971e-11,2.665325677364050e-14
	-1.109222285176971e-11,2.665325677364050e-14
	1.109225487398386e-11,0.0
	-2.190996031982321e+02,0.0
	3.139189780348519e+00,0.0

 34	2.660725059798815e-03,0.000000000000000e+00
	1.000000000000000e+00,0.000000000000000e+00
	2.436246241863956e-11,1.488913673927747e-08
	-1.244567604927440e-11,3.077801073753084e-14
	-1.244567604757637e-11,3.077869735097153e-14
	-1.244567604757637e-11,3.077869735097153e-14
	1.244571410604578e-11,0.0
	-2.180996035907218e+02,0.0
	3.139119615203882e+00,0.0

 35	2.738419634264367e-03,0.000000000000000e+00
	1.000000000000000e+00,0.000000000000000e+00
	2.733513078720636e-11,1.623190425037553e-08
	-1.396427500499541e-11,3.554188815999909e-14
	-1.396427500297730e-11,3.554268104864923e-14
	-1.396427500297730e-11,3.554268104864923e-14
	1.396432023554863e-11,0.0
	-2.170996040064712e+02,0.0
	3.139047401201905e+00,0.0

 36	2.818382931264460e-03,0.000000000000000e+00
	1.000000000000000e+00,0.000000000000000e+00
	3.067051924637890e-11,1.769576830043634e-08
	-1.566817045507580e-11,4.104312705527315e-14
	-1.566817045267728e-11,4.104404266858006e-14
	-1.566817045267728e-11,4.104404266858006e-14
	1.566822421168359e-11,0.0
	-2.160996044468487e+02,0.0
	3.138973078515044e+00,0.0

 37	2.900681198693160e-03,0.000000000000000e+00
	1.000000000000000e+00,0.000000000000000e+00
	3.441288628268015e-11,1.929164987793954e-08
	-1.757997187767021e-11,4.739585748801734e-14
	-1.757997187481955e-11,4.739691482149736e-14
	-1.757997187481955e-11,4.739691482149736e-14
	1.758003576751143e-11,0.0
	-2.150996049133257e+02,0.0
	3.138896585568772e+00,0.0

 38	2.985382618917966e-03,0.000000000000000e+00
	1.000000000000000e+00,0.000000000000000e+00
	3.861189072382444e-11,2.103145486878735e-08
	-1.972504750311018e-11,5.473187475457575e-14
	-1.972504749972218e-11,5.473309574389788e-14
	-1.972504749972218e-11,5.473309574389788e-14
	1.972512343632014e-11,0.0
	-2.140996054074456e+02,0.0
	3.138817858990572e+00,0.0

 39	3.072557365267454e-03,0.000000000000000e+00
	1.000000000000000e+00,0.000000000000000e+00
	4.332325067792151e-11,2.292816287777418e-08
	-2.213186092853212e-11,6.320337363224126e-14
	-2.213186092450547e-11,6.320478360830736e-14
	-2.213186092450547e-11,6.320478360830736e-14
	2.213195117531039e-11,0.0
	-2.130996059308391e+02,0.0
	3.138736833557433e+00,0.0

 40	3.162277660168387e-03,0.000000000000000e+00
	1.000000000000000e+00,0.000000000000000e+00
	4.860948287492196e-11,2.499592406018680e-08
	-2.483234880490492e-11,7.298610583859842e-14
	-2.483234880011924e-11,7.298773405306104e-14
	-2.483234880011924e-11,7.298773405306104e-14
	2.483245606338821e-11,0.0
	-2.120996064852470e+02,0.0
	3.138653442141816e+00,0.0

 41	3.254617834980467e-03,0.000000000000000e+00
	1.000000000000000e+00,0.000000000000000e+00
	5.454073222110994e-11,2.725016468602000e-08
	-2.786234460801876e-11,8.428302620613874e-14
	-2.786234460233096e-11,8.428490643825900e-14
	-2.786234460233096e-11,8.428490643825900e-14
	2.786247208494779e-11,0.0
	-2.110996070725108e+02,0.0
	3.138567615656048e+00,0.0

 42	3.349654391578285e-03,0.000000000000000e+00
	1.000000000000000e+00,0.000000000000000e+00
	6.119570257403047e-11,2.970770222425144e-08
	-3.126205411629431e-11,9.732850321563056e-14
	-3.126205410953437e-11,9.733067447306593e-14
	-3.126205410953437e-11,9.733067447306593e-14
	3.126220562288668e-11,0.0
	-2.100996076945661e+02,0.0
	3.138479282995080e+00,0.0

 43	3.447466065731503e-03,0.000000000000000e+00
	1.000000000000000e+00,0.000000000000000e+00
	6.866270108813516e-11,3.238687080555931e-08
	-3.507658890423834e-11,1.123931812394730e-13
	-3.507658889620412e-11,1.123956885675332e-13
	-3.507658889620412e-11,1.123956885675332e-13
	3.507676897013347e-11,0.0
	-2.090996083534787e+02,0.0
	3.138388370977583e+00,0.0

 44	3.548133892335764e-03,0.000000000000000e+00
	1.000000000000000e+00,0.000000000000000e+00
	7.704080998934638e-11,3.530765799966971e-08
	-3.935656493053785e-11,1.297895953679224e-13
	-3.935656492098918e-11,1.297924907840826e-13
	-3.935656492098918e-11,1.297924907840826e-13
	3.935677893922088e-11,0.0
	-2.080996090514425e+02,0.0
	3.138294804285326e+00,0.0

 45	3.651741272548387e-03,0.000000000000000e+00
	1.000000000000000e+00,0.000000000000000e+00
	8.644120132718969e-11,3.849185392770875e-08
	-4.415877416328706e-11,1.498786553035412e-13
	-4.415877415193842e-11,1.498819988765993e-13
	-4.415877415193842e-11,1.498819988765993e-13
	4.415902851304014e-11,0.0
	-2.070996097907523e+02,0.0
	3.138198505400772e+00,0.0

 46	3.758374042884452e-03,0.000000000000000e+00
	1.000000000000000e+00,0.000000000000000e+00
	9.698861214872121e-11,4.196321382140193e-08
	-4.954693815328071e-11,1.730771328361897e-13
	-4.954693813979285e-11,1.730809939324557e-13
	-4.954693813979285e-11,1.730809939324557e-13
	4.954724044847423e-11,0.0
	-2.060996105738764e+02,0.0
	3.138099394542869e+00,0.0

 47	3.868120546330533e-03,0.000000000000000e+00
	1.000000000000000e+00,0.000000000000000e+00
	1.088229996710484e-10,4.574763524270893e-08
	-5.559255355521245e-11,1.998663082371351e-13
	-5.559255353918209e-11,1.998707669595064e-13
	-5.559255353918209e-11,1.998707669595064e-13
	5.559291283365454e-11,0.0
	-2.050996114034018e+02,0.0
	3.137997389600948e+00,0.0

 48	3.981071705534985e-03,0.000000000000000e+00
	1.000000000000000e+00,0.000000000000000e+00
	1.221013984127441e-10,4.987335128500330e-08
	-6.237584081453893e-11,2.308019549457700e-13
	-6.237584079548682e-11,2.308071037955465e-13
	-6.237584079548682e-11,2.308071037955465e-13
	6.237626781768112e-11,0.0
	-2.040996122820798e+02,0.0
	3.137892406066707e+00,0.0

 49	4.097321098135428e-03,0.000000000000000e+00
	1.000000000000000e+00,0.000000000000000e+00
	1.370000039282654e-10,5.437114119766694e-08
	-6.998680860830590e-11,2.665258696927362e-13
	-6.998680858566243e-11,2.665318154886509e-13
	-6.998680858566243e-11,2.665318154886509e-13
	6.998731610238258e-11,0.0
	-2.030996132128220e+02,0.0
	3.137784356964200e+00,0.0

 50	4.216965034285836e-03,0.000000000000000e+00
	1.000000000000000e+00,0.000000000000000e+00
	1.537165107941047e-10,5.927456000503890e-08
	-7.852644816303592e-11,3.077791872608477e-13
	-7.852644813612413e-11,3.077860533551252e-13
	-7.852644813612413e-11,3.077860533551252e-13
	7.852705132073936e-11,0.0
	-2.020996141987123e+02,0.0
	3.137673152777783e+00,0.0

 51	4.340102636447452e-03,0.000000000000000e+00
	1.000000000000000e+00,0.000000000000000e+00
	1.724727358697038e-10,6.462018883265717e-08
	-8.810807329631268e-11,3.554177561098063e-13
	-8.810807326432795e-11,3.554256849472210e-13
	-8.810807326432795e-11,3.554256849472210e-13
	8.810879015041408e-11,0.0
	-2.010996152430219e+02,0.0
	3.137558701377961e+00,0.0

 52	4.466835921509646e-03,0.000000000000000e+00
	1.000000000000000e+00,0.000000000000000e+00
	1.935175616416946e-10,7.044790780827005e-08
	-9.885882396223459e-11,4.104298938451176e-13
	-9.885882392422068e-11,4.104390499181433e-13
	-9.885882392422068e-11,4.104390499181433e-13
	9.885967594471350e-11,0.0
	-2.000996163492130e+02,0.0
	3.137440907945062e+00,0.0

 53	4.597269885308737e-03,0.000000000000000e+00
	1.000000000000000e+00,0.000000000000000e+00
	2.171302387068598e-10,7.680119357327436e-08
	-1.109213532499648e-10,4.739568908822197e-13
	-1.109213532047852e-10,4.739674641435744e-13
	-1.109213532047852e-10,4.739674641435744e-13
	1.109223658327652e-10,0.0
	-1.990996175209463e+02,0.0
	3.137319674890695e+00,0.0

 54	4.731512589614821e-03,0.000000000000000e+00
	1.000000000000000e+00,0.000000000000000e+00
	2.436240912137646e-10,8.372744362371233e-08
