Title: * sky130 bjt 3-stage high-cutoff sweep noise candidate: ch=30p
Date: Fri May 22 20:09:32  2026
Command: ngspice-46, Build Mar 29 2026   15:02:07
Plotname: Noise Spectral Density Curves
Flags: real
No. Variables: 3
No. Points: 481
Variables:
	0	frequency	frequency grid=3
	1	onoise_spectrum	voltage-density
	2	inoise_spectrum	voltage-density
Values:
 0	1.000000000000000e+00
	8.517842140872515e-04
	1.253710617267228e-05

 1	1.029200527194428e+00
	8.235504563102042e-04
	1.202073042132664e-05

 2	1.059253725177289e+00
	7.959820599776579e-04
	1.152657236330499e-05

 3	1.090184492385128e+00
	7.690924915689254e-04
	1.105367582713302e-05

 4	1.122018454301964e+00
	7.428919912509191e-04
	1.060112679214460e-05

 5	1.154781984689459e+00
	7.173878092738513e-04
	1.016805142366200e-05

 6	1.188502227437019e+00
	6.925844386454699e-04
	9.753614208145346e-06

 7	1.223207119049932e+00
	6.684838423175234e-04
	9.357016182375397e-06

 8	1.258925411794168e+00
	6.450856734177670e-04
	8.977493251162004e-06

 9	1.295686697517020e+00
	6.223874873551760e-04
	8.614314588456479e-06

 10	1.333521432163325e+00
	6.003849448769223e-04
	8.266781117104312e-06

 11	1.372460961007563e+00
	5.790720053953001e-04
	7.934224062799778e-06

 12	1.412537544622755e+00
	5.584411101028818e-04
	7.616003578109504e-06

 13	1.453784385607663e+00
	5.384833545812971e-04
	7.311507432707222e-06

 14	1.496235656094435e+00
	5.191886507644063e-04
	7.020149766220286e-06

 15	1.539926526059493e+00
	5.005458782495522e-04
	6.741369900326637e-06

 16	1.584893192461115e+00
	4.825430250691126e-04
	6.474631206959217e-06

 17	1.631172909227840e+00
	4.651673181250462e-04
	6.219420029679249e-06

 18	1.678804018122562e+00
	4.484053435688783e-04
	5.975244655468856e-06

 19	1.727825980507865e+00
	4.322431574715419e-04
	5.741634334368360e-06

 20	1.778279410038925e+00
	4.166663871736828e-04
	5.518138344546786e-06

 21	1.830206106311058e+00
	4.016603237442817e-04
	5.304325100545934e-06

 22	1.883649089489803e+00
	3.872100059993446e-04
	5.099781302579229e-06

 23	1.938652635952210e+00
	3.733002965492843e-04
	4.904111124898355e-06

 24	1.995262314968882e+00
	3.599159503506768e-04
	4.716935441363309e-06

 25	2.053525026457149e+00
	3.470416762394155e-04
	4.537891086464854e-06

 26	2.113489039836650e+00
	3.346621919200001e-04
	4.366630150156103e-06

 27	2.175204034019526e+00
	3.227622728737123e-04
	4.202819304947643e-06

 28	2.238721138568343e+00
	3.113267956401312e-04
	4.046139163813273e-06

 29	2.304092976055850e+00
	3.003407759079368e-04
	3.896283667538721e-06

 30	2.371373705661660e+00
	2.897894018362318e-04
	3.752959500224879e-06

 31	2.440619068041985e+00
	2.796580630067885e-04
	3.615885531729786e-06

 32	2.511886431509585e+00
	2.699323753890025e-04
	3.484792285901116e-06

 33	2.585234839562196e+00
	2.605982026777366e-04
	3.359421433512236e-06

 34	2.660725059798815e+00
	2.516416743432873e-04
	3.239525308871155e-06

 35	2.738419634264367e+00
	2.430492007111141e-04
	3.124866449122047e-06

 36	2.818382931264460e+00
	2.348074853691626e-04
	3.015217155305327e-06

 37	2.900681198693160e+00
	2.269035351774944e-04
	2.910359074282067e-06

 38	2.985382618917967e+00
	2.193246681363044e-04
	2.810082800665881e-06

 39	3.072557365267454e+00
	2.120585193485569e-04
	2.714187497935049e-06

 40	3.162277660168388e+00
	2.050930452930806e-04
	2.622480537926614e-06

 41	3.254617834980468e+00
	1.984165266069680e-04
	2.534777157936780e-06

 42	3.349654391578286e+00
	1.920175695571946e-04
	2.450900134671623e-06

 43	3.447466065731504e+00
	1.858851063661267e-04
	2.370679474308646e-06

 44	3.548133892335765e+00
	1.800083945377868e-04
	2.293952117944438e-06

 45	3.651741272548388e+00
	1.743770153185659e-04
	2.220561661713844e-06

 46	3.758374042884453e+00
	1.689808714103331e-04
	2.150358090877053e-06

 47	3.868120546330533e+00
	1.638101840414852e-04
	2.083197527179416e-06

 48	3.981071705534985e+00
	1.588554894891694e-04
	2.018941988796157e-06

 49	4.097321098135428e+00
	1.541076351335828e-04
	1.957459162183176e-06

 50	4.216965034285836e+00
	1.495577751160780e-04
	1.898622185162274e-06

 51	4.340102636447452e+00
	1.451973656617333e-04
	1.842309440580058e-06

 52	4.466835921509645e+00
	1.410181601195064e-04
	1.788404359889061e-06

 53	4.597269885308736e+00
	1.370122037643836e-04
	1.736795236013847e-06

 54	4.731512589614820e+00
	1.331718283996407e-04
	1.687375044879114e-06

 55	4.869675251658648e+00
	1.294896467905756e-04
	1.640041274994763e-06

 56	5.011872336272740e+00
	1.259585469565148e-04
	1.594695764513315e-06

 57	5.158221650723075e+00
	1.225716863425535e-04
	1.551244545197863e-06

 58	5.308844442309902e+00
	1.193224858893661e-04
	1.509597692765025e-06

 59	5.463865498818562e+00
	1.162046240161023e-04
	1.469669183095477e-06

 60	5.623413251903512e+00
	1.132120305287931e-04
	1.431376753835678e-06

 61	5.787619883491228e+00
	1.103388804652315e-04
	1.394641770947175e-06

 62	5.956621435290127e+00
	1.075795878853527e-04
	1.359389099794627e-06

 63	6.130557921498230e+00
	1.049287996158994e-04
	1.325546980398996e-06

 64	6.309573444801956e+00
	1.023813889569475e-04
	1.293046906519493e-06

 65	6.493816315762138e+00
	9.993244935838446e-05
	1.261823508263747e-06

 66	6.683439175686172e+00
	9.757728807378669e-05
	1.231814437962530e-06

 67	6.878599123088104e+00
	9.531141979979326e-05
	1.202960259080622e-06

 68	7.079457843841408e+00
	9.313056030927409e-05
	1.175204337969685e-06

 69	7.286181745132307e+00
	9.103062008706786e-05
	1.148492738301030e-06

 70	7.498942093324589e+00
	8.900769797736324e-05
	1.122774118047057e-06

 71	7.717915155850156e+00
	8.705807485231138e-05
	1.097999628907422e-06

 72	7.943282347242849e+00
	8.517820731204693e-05
	1.074122818101311e-06

 73	8.175230379436535e+00
	8.336472142591886e-05
	1.051099532469720e-06

 74	8.413951416451987e+00
	8.161440652579662e-05
	1.028887824850475e-06

 75	8.659643233600692e+00
	7.992420906164995e-05
	1.007447862705615e-06

 76	8.912509381337495e+00
	7.829122652997201e-05
	9.867418389938455e-07

 77	9.172759353897836e+00
	7.671270148520457e-05
	9.667338852915807e-07

 78	9.440608762859275e+00
	7.518601564424280e-05
	9.473899871737526e-07

 79	9.716279515771106e+00
	7.370868409351363e-05
	9.286779018712785e-07

 80	1.000000000000005e+01
	7.227834960746807e-05
	9.105670782250871e-07

 81	1.029200527194433e+01
	7.089277708730450e-05
	8.930285789575031e-07

 82	1.059253725177294e+01
	6.954984812735225e-05
	8.760350052814047e-07

 83	1.090184492385133e+01
	6.824755571599992e-05
	8.595604238654491e-07

 84	1.122018454301969e+01
	6.698399907771538e-05
	8.435802961696042e-07

 85	1.154781984689464e+01
	6.575737866123117e-05
	8.280714101615177e-07

 86	1.188502227437024e+01
	6.456599127837312e-05
	8.130118144186556e-07

 87	1.223207119049937e+01
	6.340822539745463e-05
	7.983807546152264e-07

 88	1.258925411794173e+01
	6.228255659378094e-05
	7.841586123872117e-07

 89	1.295686697517026e+01
	6.118754315925510e-05
	7.703268465623296e-07

 90	1.333521432163331e+01
	6.012182187265217e-05
	7.568679367352759e-07

 91	1.372460961007569e+01
	5.908410393048324e-05
	7.437653291630590e-07

 92	1.412537544622761e+01
	5.807317103867225e-05
	7.310033849486002e-07

 93	1.453784385607669e+01
	5.708787166376086e-05
	7.185673304759859e-07

 94	1.496235656094441e+01
	5.612711744246681e-05
	7.064432100549133e-07

 95	1.539926526059500e+01
	5.518987974718482e-05
	6.946178407278060e-07

 96	1.584893192461122e+01
	5.427518640521251e-05
	6.830787691883702e-07

 97	1.631172909227847e+01
	5.338211856837602e-05
	6.718142307571692e-07

 98	1.678804018122569e+01
	5.250980773001370e-05
	6.608131103561908e-07

 99	1.727825980507873e+01
	5.165743288532194e-05
	6.500649054221512e-07

 100	1.778279410038932e+01
	5.082421783128921e-05
	6.395596906959563e-07

 101	1.830206106311066e+01
	5.000942860187678e-05
	6.292880848241295e-07

 102	1.883649089489811e+01
	4.921237103424500e-05
	6.192412187068935e-07

 103	1.938652635952218e+01
	4.843238846124941e-05
	6.094107055269325e-07

 104	1.995262314968891e+01
	4.766885952585752e-05
	5.997886123923922e-07

 105	2.053525026457158e+01
	4.692119611268196e-05
	5.903674335278122e-07

 106	2.113489039836659e+01
	4.618884139186569e-05
	5.811400649471744e-07

 107	2.175204034019535e+01
	4.547126797080729e-05
	5.720997805435851e-07

 108	2.238721138568353e+01
	4.476797614889337e-05
	5.632402095315330e-07

 109	2.304092976055859e+01
	4.407849227066560e-05
	5.545553151784296e-07

 110	2.371373705661670e+01
	4.340236717297800e-05
	5.460393747636594e-07

 111	2.440619068041995e+01
	4.273917472144590e-05
	5.376869607050512e-07

 112	2.511886431509596e+01
	4.208851043214083e-05
	5.294929227940340e-07

 113	2.585234839562207e+01
	4.144999017400300e-05
	5.214523714828440e-07

 114	2.660725059798827e+01
	4.082324894802692e-05
	5.135606621688376e-07

 115	2.738419634264379e+01
	4.020793973920818e-05
	5.058133804229340e-07

 116	2.818382931264472e+01
	3.960373243728113e-05
	4.982063281113183e-07

 117	2.900681198693173e+01
	3.901031282275059e-05
	4.907355103612775e-07

 118	2.985382618917979e+01
	3.842738161441470e-05
	4.833971233244327e-07

 119	3.072557365267467e+01
	3.785465357517826e-05
	4.761875426923032e-07

 120	3.162277660168400e+01
	3.729185667270825e-05
	4.691033129213762e-07

 121	3.254617834980480e+01
	3.673873129191924e-05
	4.621411371267061e-07

 122	3.349654391578299e+01
	3.619502949622472e-05
	4.552978676051557e-07

 123	3.447466065731518e+01
	3.566051433478346e-05
	4.485704969510631e-07

 124	3.548133892335780e+01
	3.513495919297859e-05
	4.419561497292227e-07

 125	3.651741272548403e+01
	3.461814718358922e-05
	4.354520746717837e-07

 126	3.758374042884468e+01
	3.410987057617565e-05
	4.290556373673006e-07

 127	3.868120546330550e+01
	3.360993026243421e-05
	4.227643134120669e-07

 128	3.981071705535001e+01
	3.311813525531104e-05
	4.165756819952887e-07

 129	4.097321098135445e+01
	3.263430221971125e-05
	4.104874198914055e-07

 130	4.216965034285853e+01
	3.215825503302086e-05
	4.044972958342124e-07

 131	4.340102636447470e+01
	3.168982437345292e-05
	3.986031652489097e-07

 132	4.466835921509664e+01
	3.122884733452171e-05
	3.928029653197134e-07

 133	4.597269885308756e+01
	3.077516706404756e-05
	3.870947103716716e-07

 134	4.731512589614841e+01
	3.032863242605965e-05
	3.814764875469671e-07

 135	4.869675251658668e+01
	2.988909768421595e-05
	3.759464527567828e-07

 136	5.011872336272761e+01
	2.945642220537010e-05
	3.705028268911952e-07

 137	5.158221650723097e+01
	2.903047018191263e-05
	3.651438922705661e-07

 138	5.308844442309925e+01
	2.861111037179695e-05
	3.598679893228013e-07

 139	5.463865498818585e+01
	2.819821585503445e-05
	3.546735134719638e-07

 140	5.623413251903535e+01
	2.779166380561746e-05
	3.495589122245161e-07

 141	5.787619883491252e+01
	2.739133527788557e-05
	3.445226824403861e-07

 142	5.956621435290152e+01
	2.699711500637232e-05
	3.395633677767718e-07

 143	6.130557921498256e+01
	2.660889121827337e-05
	3.346795562934881e-07

 144	6.309573444801983e+01
	2.622655545771352e-05
	3.298698782092522e-07

 145	6.493816315762166e+01
	2.585000242101444e-05
	3.251330037990395e-07

 146	6.683439175686200e+01
	2.547912980229000e-05
	3.204676414232487e-07

 147	6.878599123088132e+01
	2.511383814866383e-05
	3.158725356800373e-07

 148	7.079457843841438e+01
	2.475403072446213e-05
	3.113464656727110e-07

 149	7.286181745132338e+01
	2.439961338383890e-05
	3.068882433846251e-07

 150	7.498942093324621e+01
	2.405049445122041e-05
	3.024967121544920e-07

 151	7.717915155850189e+01
	2.370658460912199e-05
	2.981707452454706e-07

 152	7.943282347242882e+01
	2.336779679278564e-05
	2.939092445018985e-07

 153	8.175230379436570e+01
	2.303404609124255e-05
	2.897111390878251e-07

 154	8.413951416452024e+01
	2.270524965433435e-05
	2.855753843020197e-07

 155	8.659643233600728e+01
	2.238132660532649e-05
	2.815009604643459e-07

 156	8.912509381337533e+01
	2.206219795875971e-05
	2.774868718688300e-07

 157	9.172759353897877e+01
	2.174778654314410e-05
	2.735321457990368e-07

 158	9.440608762859317e+01
	2.143801692823238e-05
	2.696358316016085e-07

 159	9.716279515771149e+01
	2.113281535652198e-05
	2.657969998141923e-07

 160	1.000000000000009e+02
	2.083210967876317e-05
	2.620147413441077e-07

 161	1.029200527194437e+02
	2.053582929315748e-05
	2.582881666945066e-07

 162	1.059253725177299e+02
	2.024390508802383e-05
	2.546164052348166e-07

 163	1.090184492385138e+02
	1.995626938773787e-05
	2.509986045126311e-07

 164	1.122018454301974e+02
	1.967285590165908e-05
	2.474339296043358e-07

 165	1.154781984689469e+02
	1.939359967592195e-05
	2.439215625018575e-07

 166	1.188502227437029e+02
	1.911843704787043e-05
	2.404607015333008e-07

 167	1.223207119049943e+02
	1.884730560294740e-05
	2.370505608151727e-07

 168	1.258925411794179e+02
	1.858014413394111e-05
	2.336903697341763e-07

 169	1.295686697517032e+02
	1.831689260234694e-05
	2.303793724566762e-07

 170	1.333521432163337e+02
	1.805749210180102e-05
	2.271168274640151e-07

 171	1.372460961007575e+02
	1.780188482336535e-05
	2.239020071120475e-07

 172	1.412537544622768e+02
	1.755001402262527e-05
	2.207341972133025e-07

 173	1.453784385607676e+02
	1.730182398842200e-05
	2.176126966403617e-07

 174	1.496235656094448e+02
	1.705726001315663e-05
	2.145368169490615e-07

 175	1.539926526059507e+02
	1.681626836452542e-05
	2.115058820203050e-07

 176	1.584893192461129e+02
	1.657879625864642e-05
	2.085192277192620e-07

 177	1.631172909227854e+02
	1.634479183442893e-05
	2.055762015708955e-07

 178	1.678804018122577e+02
	1.611420412918590e-05
	2.026761624507478e-07

 179	1.727825980507880e+02
	1.588698305531759e-05
	1.998184802900980e-07

 180	1.778279410038940e+02
	1.566307937808936e-05
	1.970025357945194e-07

 181	1.830206106311074e+02
	1.544244469436623e-05
	1.942277201750868e-07

 182	1.883649089489819e+02
	1.522503141229649e-05
	1.914934348913804e-07

 183	1.938652635952227e+02
	1.501079273183606e-05
	1.887990914056361e-07

 184	1.995262314968900e+02
	1.479968262612866e-05
	1.861441109472985e-07

 185	2.053525026457167e+02
	1.459165582360647e-05
	1.835279242874193e-07

 186	2.113489039836668e+02
	1.438666779086202e-05
	1.809499715222165e-07

 187	2.175204034019545e+02
	1.418467471614779e-05
	1.784097018653648e-07

 188	2.238721138568363e+02
	1.398563349353853e-05
	1.759065734484056e-07

 189	2.304092976055870e+02
	1.378950170770625e-05
	1.734400531288360e-07

 190	2.371373705661680e+02
	1.359623761921876e-05
	1.710096163054353e-07

 191	2.440619068042006e+02
	1.340580015041354e-05
	1.686147467404025e-07

 192	2.511886431509607e+02
	1.321814887173727e-05
	1.662549363879225e-07

 193	2.585234839562218e+02
	1.303324398858078e-05
	1.639296852287759e-07

 194	2.660725059798838e+02
	1.285104632854362e-05
	1.616385011106787e-07

 195	2.738419634264390e+02
	1.267151732912548e-05
	1.593808995940167e-07

 196	2.818382931264484e+02
	1.249461902581589e-05
	1.571564038026804e-07

 197	2.900681198693185e+02
	1.232031404054497e-05
	1.549645442797268e-07

 198	2.985382618917992e+02
	1.214856557050489e-05
	1.528048588476015e-07

 199	3.072557365267480e+02
	1.197933737728760e-05
	1.506768924726760e-07

 200	3.162277660168414e+02
	1.181259377635525e-05
	1.485801971338848e-07

 201	3.254617834980495e+02
	1.164829962679854e-05
	1.465143316952211e-07

 202	3.349654391578314e+02
	1.148642032137591e-05
	1.444788617819393e-07

 203	3.447466065731533e+02
	1.132692177682198e-05
	1.424733596602205e-07

 204	3.548133892335795e+02
	1.116977042442654e-05
	1.404974041201531e-07

 205	3.651741272548418e+02
	1.101493320081650e-05
	1.385505803618942e-07

 206	3.758374042884485e+02
	1.086237753900528e-05
	1.366324798847766e-07

 207	3.868120546330566e+02
	1.071207135962818e-05
	1.347427003793059e-07

 208	3.981071705535019e+02
	1.056398306240047e-05
	1.328808456218538e-07

 209	4.097321098135463e+02
	1.041808151776175e-05
	1.310465253719322e-07

 210	4.216965034285872e+02
	1.027433605869970e-05
	1.292393552719476e-07

 211	4.340102636447490e+02
	1.013271647276590e-05
	1.274589567492924e-07

 212	4.466835921509684e+02
	9.993192994237039e-06
	1.257049569206950e-07

 213	4.597269885308777e+02
	9.855736296437594e-06
	1.239769884987121e-07

 214	4.731512589614862e+02
	9.720317484231586e-06
	1.222746897002616e-07

 215	4.869675251658690e+02
	9.586908086632936e-06
	1.205977041571278e-07

 216	5.011872336272784e+02
	9.455480049553670e-06
	1.189456808283605e-07

 217	5.158221650723119e+02
	9.326005728692794e-06
	1.173182739144369e-07

 218	5.308844442309949e+02
	9.198457882536539e-06
	1.157151427731857e-07

 219	5.463865498818609e+02
	9.072809665469038e-06
	1.141359518373453e-07

 220	5.623413251903560e+02
	8.949034621002810e-06
	1.125803705337160e-07

 221	5.787619883491278e+02
	8.827106675102998e-06
	1.110480732038405e-07

 222	5.956621435290178e+02
	8.707000129616427e-06
	1.095387390261381e-07

 223	6.130557921498283e+02
	8.588689655784014e-06
	1.080520519394655e-07

 224	6.309573444802012e+02
	8.472150287841275e-06
	1.065877005680194e-07

 225	6.493816315762195e+02
	8.357357416708641e-06
	1.051453781475492e-07

 226	6.683439175686232e+02
	8.244286783752259e-06
	1.037247824528171e-07

 227	6.878599123088164e+02
	8.132914474603858e-06
	1.023256157262938e-07

 228	7.079457843841470e+02
	8.023216913079423e-06
	1.009475846079771e-07

 229	7.286181745132371e+02
	7.915170855127201e-06
	9.959040006638356e-08

 230	7.498942093324656e+02
	7.808753382853263e-06
	9.825377733059442e-08

 231	7.717915155850225e+02
	7.703941898585478e-06
	9.693743582336380e-08

 232	7.943282347242919e+02
	7.600714119013264e-06
	9.564109909522644e-08

 233	8.175230379436607e+02
	7.499048069336309e-06
	9.436449475960696e-08

 234	8.413951416452062e+02
	7.398922077486735e-06
	9.310735442884413e-08

 235	8.659643233600768e+02
	7.300314768363717e-06
	9.186941365116292e-08

 236	8.912509381337574e+02
	7.203205058109328e-06
	9.065041184850857e-08

 237	9.172759353897918e+02
	7.107572148424010e-06
	8.945009225524495e-08

 238	9.440608762859360e+02
	7.013395520882024e-06
	8.826820185768858e-08

 239	9.716279515771192e+02
	6.920654931279372e-06
	8.710449133445650e-08

 240	1.000000000000014e+03
	6.829330404011563e-06
	8.595871499752643e-08

 241	1.029200527194442e+03
	6.739402226427700e-06
	8.483063073419301e-08

 242	1.059253725177303e+03
	6.650850943221914e-06
	8.371999994962226e-08

 243	1.090184492385142e+03
	6.563657350814725e-06
	8.262658751019075e-08

 244	1.122018454301979e+03
	6.477802491736918e-06
	8.155016168749347e-08

 245	1.154781984689474e+03
	6.393267648993293e-06
	8.049049410305633e-08

 246	1.188502227437035e+03
	6.310034340444703e-06
	7.944735967366603e-08

 247	1.223207119049948e+03
	6.228084313137258e-06
	7.842053655737915e-08

 248	1.258925411794184e+03
	6.147399537645160e-06
	7.740980610012882e-08

 249	1.295686697517037e+03
	6.067962202364158e-06
	7.641495278295480e-08

 250	1.333521432163342e+03
	5.989754707797491e-06
	7.543576416982191e-08

 251	1.372460961007581e+03
	5.912759660781079e-06
	7.447203085603783e-08

 252	1.412537544622774e+03
	5.836959868694829e-06
	7.352354641718882e-08

 253	1.453784385607682e+03
	5.762338333610862e-06
	7.259010735873135e-08

 254	1.496235656094454e+03
	5.688878246400761e-06
	7.167151306603566e-08

 255	1.539926526059513e+03
	5.616562980790521e-06
	7.076756575501416e-08

 256	1.584893192461136e+03
	5.545376087342241e-06
	6.987807042328023e-08

 257	1.631172909227861e+03
	5.475301287380609e-06
	6.900283480182458e-08

 258	1.678804018122584e+03
	5.406322466843331e-06
	6.814166930720742e-08

 259	1.727825980507888e+03
	5.338423670054414e-06
	6.729438699427084e-08

 260	1.778279410038948e+03
	5.271589093414928e-06
	6.646080350931831e-08

 261	1.830206106311082e+03
	5.205803078999707e-06
	6.564073704387977e-08

 262	1.883649089489827e+03
	5.141050108060553e-06
	6.483400828890125e-08

 263	1.938652635952235e+03
	5.077314794426154e-06
	6.404044038946338e-08

 264	1.995262314968908e+03
	5.014581877800117e-06
	6.325985889999969e-08

 265	2.053525026457176e+03
	4.952836216928830e-06
	6.249209173999280e-08

 266	2.113489039836678e+03
	4.892062782663320e-06
