Title: * sky130 bjt 3-stage high-frequency ch/riso sweep ac: ch=22p, riso=680k
Date: Fri May 22 22:49:30  2026
Command: ngspice-46, Build Mar 29 2026   15:02:07
Plotname: AC Analysis
Flags: complex
No. Variables: 9
No. Points: 721
Variables:
	0	frequency	frequency grid=3
	1	v(vin)	voltage
	2	v(b3_collector)	voltage
	3	v(vout_drv)	voltage
	4	v(vout_final)	voltage
	5	gain	notype
	6	gain_vv	notype
	7	gain_db	decibel
	8	phase_deg	phase
Values:
 0	1.000000000000000e-03,0.000000000000000e+00
	1.000000000000000e+00,0.000000000000000e+00
	4.860954539745212e-13,7.904423276701429e-10
	-2.483247083881082e-13,2.308029121806205e-16
	-2.483247083782466e-13,2.308135220177024e-16
	-2.483247083782466e-13,2.308135220177024e-16
	2.483248156468120e-13,0.0
	-2.520995975654164e+02,0.0
	3.140663171151032e+00,0.0

 1	1.029200527194428e-03,0.000000000000000e+00
	1.000000000000000e+00,0.000000000000000e+00
	5.454080652930250e-13,8.617279547941386e-10
	-2.786248964558152e-13,2.665270405889780e-16
	-2.786248964440946e-13,2.665392926373041e-16
	-2.786248964440946e-13,2.665392926373041e-16
	2.786250239330218e-13,0.0
	-2.510995976241432e+02,0.0
	3.140636029775005e+00,0.0

 2	1.059253725177289e-03,0.000000000000000e+00
	1.000000000000000e+00,0.000000000000000e+00
	6.119579088948014e-13,9.394424380094620e-10
	-3.126222649373782e-13,3.077806195091986e-16
	-3.126222649234483e-13,3.077947679533962e-16
	-3.126222649234483e-13,3.077947679533962e-16
	3.126224164443200e-13,0.0
	-2.500995976863476e+02,0.0
	3.140608095856598e+00,0.0

 3	1.090184492385128e-03,0.000000000000000e+00
	1.000000000000000e+00,0.000000000000000e+00
	6.866280605117859e-13,1.024165560128178e-09
	-3.507679377515975e-13,3.554195080457052e-16
	-3.507679377350416e-13,3.554358464135829e-16
	-3.507679377350416e-13,3.554358464135829e-16
	3.507681178179324e-13,0.0
	-2.490995977522422e+02,0.0
	3.140579346253165e+00,0.0

 4	1.122018454301964e-03,0.000000000000000e+00
	1.000000000000000e+00,0.000000000000000e+00
	7.704093473823636e-13,1.116529391334873e-09
	-3.935680842008383e-13,4.104320368254266e-16
	-3.935680841811617e-13,4.104509040775854e-16
	-3.935680841811617e-13,4.104509040775854e-16
	3.935682982100751e-13,0.0
	-2.480995978220353e+02,0.0
	3.140549757146285e+00,0.0

 5	1.154781984689459e-03,0.000000000000000e+00
	1.000000000000000e+00,0.000000000000000e+00
	8.644134959143381e-13,1.217223004685002e-09
	-4.415906355107547e-13,4.739595121902922e-16
	-4.415906354873690e-13,4.739812997522984e-16
	-4.415906354873690e-13,4.739812997522984e-16
	4.415908898612050e-13,0.0
	-2.470995978959675e+02,0.0
	3.140519304022025e+00,0.0

 6	1.188502227437019e-03,0.000000000000000e+00
	1.000000000000000e+00,0.000000000000000e+00
	9.698878836110295e-13,1.326997616875252e-09
	-4.954728209125694e-13,5.473198940702418e-16
	-4.954728208847754e-13,5.473450539532511e-16
	-4.954728208847754e-13,5.473450539532511e-16
	4.954731232086406e-13,0.0
	-2.460995979742808e+02,0.0
	3.140487961650635e+00,0.0

 7	1.223207119049932e-03,0.000000000000000e+00
	1.000000000000000e+00,0.000000000000000e+00
	1.088232090998418e-12,1.446672192624532e-09
	-5.559296232618828e-13,6.320351387590089e-16
	-5.559296232288498e-13,6.320641929373170e-16
	-5.559296232288498e-13,6.320641929373170e-16
	5.559299825414302e-13,0.0
	-2.450995980572335e+02,0.0
	3.140455704065644e+00,0.0

 8	1.258925411794168e-03,0.000000000000000e+00
	1.000000000000000e+00,0.000000000000000e+00
	1.221016473193719e-12,1.577139554484110e-09
	-6.237632663968476e-13,7.298627738565219e-16
	-6.237632663575876e-13,7.298963250965877e-16
	-6.237632663575876e-13,7.298963250965877e-16
	6.237636934013811e-13,0.0
	-2.440995981450983e+02,0.0
	3.140422504542348e+00,0.0

 9	1.295686697517020e-03,0.000000000000000e+00
	1.000000000000000e+00,0.000000000000000e+00
	1.370002997542803e-12,1.719373043653230e-09
	-6.998738601243966e-13,8.428323604373127e-16
	-6.998738600777359e-13,8.428711048029178e-16
	-6.998738600777359e-13,8.428711048029178e-16
	6.998743676202249e-13,0.0
	-2.430995982381741e+02,0.0
	3.140388335575667e+00,0.0

 10	1.333521432163325e-03,0.000000000000000e+00
	1.000000000000000e+00,0.000000000000000e+00
	1.537168623839142e-12,1.874433781501885e-09
	-7.852713440897098e-13,9.732875989042802e-16
	-7.852713440342536e-13,9.733323401972586e-16
	-7.852713440342536e-13,9.733323401972586e-16
	7.852719472496185e-13,0.0
	-2.420995983367629e+02,0.0
	3.140353168857362e+00,0.0

 11	1.372460961007563e-03,0.000000000000000e+00
	1.000000000000000e+00,0.000000000000000e+00
	1.724731537349289e-12,2.043478585958859e-09
	-8.810888890094496e-13,1.123934952058330e-15
	-8.810888889435398e-13,1.123986618494461e-15
	-8.810888889435398e-13,1.123986618494461e-15
	8.810896058663272e-13,0.0
	-2.410995984411937e+02,0.0
	3.140316975252579e+00,0.0

 12	1.412537544622755e-03,0.000000000000000e+00
	1.000000000000000e+00,0.000000000000000e+00
	1.935180582752998e-12,2.227768601837911e-09
	-9.885979330988285e-13,1.297899794137595e-15
	-9.885979330204945e-13,1.297959457603615e-15
	-9.885979330204945e-13,1.297959457603615e-15
	9.885987850848026e-13,0.0
	-2.400995985518178e+02,0.0
	3.140279724775712e+00,0.0

 13	1.453784385607663e-03,0.000000000000000e+00
	1.000000000000000e+00,0.000000000000000e+00
	2.171308289569167e-12,2.428678709486347e-09
	-1.109225053214977e-12,1.498791250709887e-15
	-1.109225053121877e-12,1.498860149001143e-15
	-1.109225053121877e-12,1.498860149001143e-15
	1.109226065802178e-12,0.0
	-2.390995986689906e+02,0.0
	3.140241386565563e+00,0.0

 14	1.496235656094435e-03,0.000000000000000e+00
	1.000000000000000e+00,0.000000000000000e+00
	2.436247927274692e-12,2.647707781931849e-09
	-1.244570894577115e-12,1.730777074591398e-15
	-1.244570894466466e-12,1.730856637091475e-15
	-1.244570894466466e-12,1.730856637091475e-15
	1.244572098039224e-12,0.0
	-2.380995987931025e+02,0.0
	3.140201928859772e+00,0.0

 15	1.539926526059493e-03,0.000000000000000e+00
	1.000000000000000e+00,0.000000000000000e+00
	2.733515081834294e-12,2.886489867067925e-09
	-1.396431410254805e-12,1.998670111198262e-15
	-1.396431410123297e-12,1.998761988533353e-15
	-1.396431410123297e-12,1.998761988533353e-15
	1.396432840572158e-12,0.0
	-2.370995989245768e+02,0.0
	3.140161318968504e+00,0.0

 16	1.584893192461115e-03,0.000000000000000e+00
	1.000000000000000e+00,0.000000000000000e+00
	3.067054305340243e-12,3.146806378304583e-09
	-1.566821692258794e-12,2.308028147167051e-15
	-1.566821692102497e-12,2.308134245450275e-15
	-1.566821692102497e-12,2.308134245450275e-15
	1.566823392194100e-12,0.0
	-2.360995990638393e+02,0.0
	3.140119523247364e+00,0.0

 17	1.631172909227840e-03,0.000000000000000e+00
	1.000000000000000e+00,0.000000000000000e+00
	3.441291457740697e-12,3.430599384602623e-09
	-1.758002710441674e-12,2.665269213706477e-15
	-1.758002710255915e-12,2.665391734082591e-15
	-1.758002710255915e-12,2.665391734082591e-15
	1.758004730818503e-12,0.0
	-2.350995992113473e+02,0.0
	3.140076507069529e+00,0.0

 18	1.678804018122562e-03,0.000000000000000e+00
	1.000000000000000e+00,0.000000000000000e+00
	3.861192435217058e-12,3.739986099058561e-09
	-1.972511314021369e-12,3.077804736803183e-15
	-1.972511313800594e-12,3.077946221114097e-15
	-1.972511313800594e-12,3.077946221114097e-15
	1.972513715243644e-12,0.0
	-2.340995993676036e+02,0.0
	3.140032234797055e+00,0.0

 19	1.727825980507865e-03,0.000000000000000e+00
	1.000000000000000e+00,0.000000000000000e+00
	4.332329064526492e-12,4.077274674150650e-09
	-2.213193893835821e-12,3.554193296668784e-15
	-2.213193893573429e-12,3.554356680187243e-15
	-2.213193893573429e-12,3.554356680187243e-15
	2.213196747693735e-12,0.0
	-2.330995995331167e+02,0.0
	3.139986669751356e+00,0.0

 20	1.778279410038925e-03,0.000000000000000e+00
	1.000000000000000e+00,0.000000000000000e+00
	4.860953037622152e-12,4.444981421434039e-09
	-2.483244151975303e-12,4.104318186312487e-15
	-2.483244151663450e-12,4.104506858637975e-15
	-2.483244151663450e-12,4.104506858637975e-15
	2.483247543791653e-12,0.0
	-2.320995997084325e+02,0.0
	3.139939774182814e+00,0.0

 21	1.830206106311058e-03,0.000000000000000e+00
	1.000000000000000e+00,0.000000000000000e+00
	5.454078867653025e-12,4.845849584182787e-09
	-2.786245479981575e-12,4.739592452935649e-15
	-2.786245479610937e-12,4.739810328315839e-15
	-2.786245479610937e-12,4.739810328315839e-15
	2.786249511162690e-12,0.0
	-2.310995998941416e+02,0.0
	3.139891509239508e+00,0.0

 22	1.883649089489803e-03,0.000000000000000e+00
	1.000000000000000e+00,0.000000000000000e+00
	6.119576967141950e-12,5.282869803041488e-09
	-3.126218507946835e-12,5.473195676004207e-15
	-3.126218507506331e-12,5.473447274540888e-15
	-3.126218507506331e-12,5.473447274540888e-15
	3.126223299014352e-12,0.0
	-2.300996000908522e+02,0.0
	3.139841834935022e+00,0.0

 23	1.938652635952210e-03,0.000000000000000e+00
	1.000000000000000e+00,0.000000000000000e+00
	6.866278083345142e-12,5.759302427314195e-09
	-3.507674455420524e-12,6.320347394184615e-15
	-3.507674454896984e-12,6.320637935608792e-15
	-3.507674454896984e-12,6.320637935608792e-15
	3.507680149614666e-12,0.0
	-2.290996002992241e+02,0.0
	3.139790710115323e+00,0.0

 24	1.995262314968882e-03,0.000000000000000e+00
	1.000000000000000e+00,0.000000000000000e+00
	7.704090476690473e-12,6.278701838410519e-09
	-3.935674992086947e-12,7.298622853802260e-15
	-3.935674991464719e-12,7.298958365763906e-15
	-3.935674991464719e-12,7.298958365763906e-15
	3.935681759649025e-12,0.0
	-2.280996005199361e+02,0.0
	3.139738092424660e+00,0.0

 25	2.053525026457149e-03,0.000000000000000e+00
	1.000000000000000e+00,0.000000000000000e+00
	8.644131397044769e-12,6.844942966822518e-09
	-4.415899402463459e-12,8.428317629298067e-15
	-4.415899401723939e-12,8.428705072417114e-15
	-4.415899401723939e-12,8.428705072417114e-15
	4.415907445725628e-12,0.0
	-2.270996007537287e+02,0.0
	3.139683938270481e+00,0.0

 26	2.113489039836650e-03,0.000000000000000e+00
	1.000000000000000e+00,0.000000000000000e+00
	9.698874602549706e-12,7.462250200550978e-09
	-4.954719945894012e-12,9.732868680288817e-15
	-4.954719945015090e-12,9.733316092561734e-15
	-4.954719945015090e-12,9.733316092561734e-15
	4.954729505328469e-12,0.0
	-2.260996010013736e+02,0.0
	3.139628202787312e+00,0.0

 27	2.175204034019526e-03,0.000000000000000e+00
	1.000000000000000e+00,0.000000000000000e+00
	1.088231587838946e-11,8.135228900565593e-09
	-5.559286411750691e-12,1.123934058046426e-14
	-5.559286410706092e-12,1.123985724402208e-14
	-5.559286410706092e-12,1.123985724402208e-14
	5.559297773159151e-12,0.0
	-2.250996012636922e+02,0.0
	3.139570839799592e+00,0.0

 28	2.238721138568343e-03,0.000000000000000e+00
	1.000000000000000e+00,0.000000000000000e+00
	1.221015875187249e-11,8.868899758459409e-09
	-6.237620991844518e-12,1.297898700577086e-14
	-6.237620990603010e-12,1.297958363944823e-14
	-6.237620990603010e-12,1.297958363944823e-14
	6.237634494902914e-12,0.0
	-2.240996015415532e+02,0.0
	3.139511801783412e+00,0.0

 29	2.304092976055850e-03,0.000000000000000e+00
	1.000000000000000e+00,0.000000000000000e+00
	1.370002286811192e-11,9.668736252590538e-09
	-6.998724728901181e-12,1.498789913058816e-14
	-6.998724727425646e-12,1.498858811229852e-14
	-6.998724727425646e-12,1.498858811229852e-14
	6.998740777315073e-12,0.0
	-2.230996018358797e+02,0.0
	3.139451039827152e+00,0.0

 30	2.371373705661660e-03,0.000000000000000e+00
	1.000000000000000e+00,0.000000000000000e+00
	1.537167779132664e-11,1.054070548215972e-08
	-7.852696953586303e-12,1.730775438365721e-14
	-7.852696951832627e-12,1.730855000718744e-14
	-7.852696951832627e-12,1.730855000718744e-14
	7.852716027160588e-12,0.0
	-2.220996021476479e+02,0.0
	3.139388503590954e+00,0.0

 31	2.440619068041985e-03,0.000000000000000e+00
	1.000000000000000e+00,0.000000000000000e+00
	1.724730533414148e-11,1.149131268384760e-08
	-8.810869294892246e-12,1.998668109756917e-14
	-8.810869292807998e-12,1.998759986912130e-14
	-8.810869292807998e-12,1.998759986912130e-14
	8.810891963876043e-12,0.0
	-2.210996024778863e+02,0.0
	3.139324141265017e+00,0.0

 32	2.511886431509585e-03,0.000000000000000e+00
	1.000000000000000e+00,0.000000000000000e+00
	1.935179389574939e-11,1.252764976308632e-08
	-9.885956042053086e-12,2.308025698989919e-14
	-9.885956039575953e-12,2.308131797053115e-14
	-9.885956039575953e-12,2.308131797053115e-14
	9.885982984188650e-12,0.0
	-2.200996028276957e+02,0.0
	3.139257899526679e+00,0.0

 33	2.585234839562196e-03,0.000000000000000e+00
	1.000000000000000e+00,0.000000000000000e+00
	2.171306871473600e-11,1.365744820209187e-08
	-1.109222285319787e-11,2.665266219076655e-14
	-1.109222285025379e-11,2.665388739183630e-14
	-1.109222285025379e-11,2.665388739183630e-14
	1.109225487398326e-11,0.0
	-2.190996031982326e+02,0.0
	3.139189723496236e+00,0.0

 34	2.660725059798815e-03,0.000000000000000e+00
	1.000000000000000e+00,0.000000000000000e+00
	2.436246241863956e-11,1.488913673927747e-08
	-1.244567604927381e-11,3.077801073752889e-14
	-1.244567604577477e-11,3.077942557734590e-14
	-1.244567604577477e-11,3.077942557734590e-14
	1.244571410604513e-11,0.0
	-2.180996035907222e+02,0.0
	3.139119556691482e+00,0.0

 35	2.738419634264367e-03,0.000000000000000e+00
	1.000000000000000e+00,0.000000000000000e+00
	2.733513078720636e-11,1.623190425037553e-08
	-1.396427500499467e-11,3.554188815999656e-14
	-1.396427500083605e-11,3.554352199115420e-14
	-1.396427500083605e-11,3.554352199115420e-14
	1.396432023554781e-11,0.0
	-2.170996040064717e+02,0.0
	3.139047340980913e+00,0.0

 36	2.818382931264460e-03,0.000000000000000e+00
	1.000000000000000e+00,0.000000000000000e+00
	3.067051924637890e-11,1.769576830043634e-08
	-1.566817045507490e-11,4.104312705526999e-14
	-1.566817045013237e-11,4.104501377359907e-14
	-1.566817045013237e-11,4.104501377359907e-14
	1.566822421168260e-11,0.0
	-2.160996044468493e+02,0.0
	3.138973016535566e+00,0.0

 37	2.900681198693160e-03,0.000000000000000e+00
	1.000000000000000e+00,0.000000000000000e+00
	3.441288628268015e-11,1.929164987793954e-08
	-1.757997187766916e-11,4.739585748801356e-14
	-1.757997187179496e-11,4.739803623579016e-14
	-1.757997187179496e-11,4.739803623579016e-14
	1.758003576751028e-11,0.0
	-2.150996049133262e+02,0.0
	3.138896521779461e+00,0.0

 38	2.985382618917966e-03,0.000000000000000e+00
	1.000000000000000e+00,0.000000000000000e+00
	3.861189072382444e-11,2.103145486878735e-08
	-1.972504750310894e-11,5.473187475457114e-14
	-1.972504749612744e-11,5.473439073256778e-14
	-1.972504749612744e-11,5.473439073256778e-14
	1.972512343631878e-11,0.0
	-2.140996054074462e+02,0.0
	3.138817793338580e+00,0.0

 39	3.072557365267454e-03,0.000000000000000e+00
	1.000000000000000e+00,0.000000000000000e+00
	4.332325067792151e-11,2.292816287777418e-08
	-2.213186092853062e-11,6.320337363223552e-14
	-2.213186092023309e-11,6.320627903746206e-14
	-2.213186092023309e-11,6.320627903746206e-14
	2.213195117530875e-11,0.0
	-2.130996059308398e+02,0.0
	3.138736765988367e+00,0.0

 40	3.162277660168387e-03,0.000000000000000e+00
	1.000000000000000e+00,0.000000000000000e+00
	4.860948287492196e-11,2.499592406018680e-08
	-2.483234880490322e-11,7.298610583859172e-14
	-2.483234879504158e-11,7.298946094718065e-14
	-2.483234879504158e-11,7.298946094718065e-14
	2.483245606338633e-11,0.0
	-2.120996064852477e+02,0.0
	3.138653372599698e+00,0.0

 41	3.254617834980467e-03,0.000000000000000e+00
	1.000000000000000e+00,0.000000000000000e+00
	5.454073222110994e-11,2.725016468602000e-08
	-2.786234460801678e-11,8.428302620613075e-14
	-2.786234459629621e-11,8.428690062383229e-14
	-2.786234459629621e-11,8.428690062383229e-14
	2.786247208494561e-11,0.0
	-2.110996070725115e+02,0.0
	3.138567544083264e+00,0.0

 42	3.349654391578285e-03,0.000000000000000e+00
	1.000000000000000e+00,0.000000000000000e+00
	6.119570257403047e-11,2.970770222425144e-08
	-3.126205411629191e-11,9.732850321562055e-14
	-3.126205410236200e-11,9.733297732184999e-14
	-3.126205410236200e-11,9.733297732184999e-14
	3.126220562288405e-11,0.0
	-2.100996076945668e+02,0.0
	3.138479209332332e+00,0.0

 43	3.447466065731503e-03,0.000000000000000e+00
	1.000000000000000e+00,0.000000000000000e+00
	6.866270108813516e-11,3.238687080555931e-08
	-3.507658890423551e-11,1.123931812394609e-13
	-3.507658888767976e-11,1.123983478548565e-13
	-3.507658888767976e-11,1.123983478548565e-13
	3.507676897013035e-11,0.0
	-2.090996083534795e+02,0.0
	3.138388295163844e+00,0.0

 44	3.548133892335764e-03,0.000000000000000e+00
	1.000000000000000e+00,0.000000000000000e+00
	7.704080998934638e-11,3.530765799966971e-08
	-3.935656493053447e-11,1.297895953679074e-13
	-3.935656491085794e-11,1.297955616799937e-13
	-3.935656491085794e-11,1.297955616799937e-13
	3.935677893921715e-11,0.0
	-2.080996090514433e+02,0.0
	3.138294726257786e+00,0.0

 45	3.651741272548387e-03,0.000000000000000e+00
	1.000000000000000e+00,0.000000000000000e+00
	8.644120132718969e-11,3.849185392770875e-08
	-4.415877416328290e-11,1.498786553035223e-13
	-4.415877413989730e-11,1.498855450904280e-13
	-4.415877413989730e-11,1.498855450904280e-13
	4.415902851303559e-11,0.0
	-2.070996097907533e+02,0.0
	3.138198425094787e+00,0.0

 46	3.758374042884452e-03,0.000000000000000e+00
	1.000000000000000e+00,0.000000000000000e+00
	9.698861214872121e-11,4.196321382140193e-08
	-4.954693815327572e-11,1.730771328361664e-13
	-4.954693812548189e-11,1.730850890345304e-13
	-4.954693812548189e-11,1.730850890345304e-13
	4.954724044846873e-11,0.0
	-2.060996105738773e+02,0.0
	3.138099311891907e+00,0.0

 47	3.868120546330533e-03,0.000000000000000e+00
	1.000000000000000e+00,0.000000000000000e+00
	1.088229996710484e-10,4.574763524270893e-08
	-5.559255355520671e-11,1.998663082371075e-13
	-5.559255352217368e-11,1.998754959074456e-13
	-5.559255352217368e-11,1.998754959074456e-13
	5.559291283364823e-11,0.0
	-2.050996114034028e+02,0.0
	3.137997304536535e+00,0.0

 48	3.981071705534985e-03,0.000000000000000e+00
	1.000000000000000e+00,0.000000000000000e+00
	1.221013984127441e-10,4.987335128500330e-08
	-6.237584081453222e-11,2.308019549457368e-13
	-6.237584077527240e-11,2.308125646967880e-13
	-6.237584077527240e-11,2.308125646967880e-13
	6.237626781767371e-11,0.0
	-2.040996122820808e+02,0.0
	3.137892318518368e+00,0.0

 49	4.097321098135428e-03,0.000000000000000e+00
	1.000000000000000e+00,0.000000000000000e+00
	1.370000039282654e-10,5.437114119766694e-08
	-6.998680860829766e-11,2.665258696926942e-13
	-6.998680856163730e-11,2.665381216357871e-13
	-6.998680856163730e-11,2.665381216357871e-13
	6.998731610237352e-11,0.0
	-2.030996132128231e+02,0.0
	3.137784266859403e+00,0.0

 50	4.216965034285836e-03,0.000000000000000e+00
	1.000000000000000e+00,0.000000000000000e+00
	1.537165107941047e-10,5.927456000503890e-08
	-7.852644816302612e-11,3.077791872607963e-13
	-7.852644810757019e-11,3.077933355762719e-13
	-7.852644810757019e-11,3.077933355762719e-13
	7.852705132072858e-11,0.0
	-2.020996141987135e+02,0.0
	3.137673060041879e+00,0.0

 51	4.340102636447452e-03,0.000000000000000e+00
	1.000000000000000e+00,0.000000000000000e+00
	1.724727358697038e-10,6.462018883265717e-08
	-8.810807329630108e-11,3.554177561097437e-13
	-8.810807323039160e-11,3.554340943201677e-13
	-8.810807323039160e-11,3.554340943201677e-13
	8.810879015040132e-11,0.0
	-2.010996152430232e+02,0.0
	3.137558605934119e+00,0.0

 52	4.466835921509646e-03,0.000000000000000e+00
	1.000000000000000e+00,0.000000000000000e+00
	1.935175616416946e-10,7.044790780827005e-08
	-9.885882396222114e-11,4.104298938450430e-13
	-9.885882388388760e-11,4.104487609046033e-13
	-9.885882388388760e-11,4.104487609046033e-13
	9.885967594469867e-11,0.0
	-2.000996163492143e+02,0.0
	3.137440809714211e+00,0.0

 53	4.597269885308737e-03,0.000000000000000e+00
	1.000000000000000e+00,0.000000000000000e+00
	2.171302387068598e-10,7.680119357327436e-08
	-1.109213532499487e-10,4.739568908821270e-13
	-1.109213531568491e-10,4.739786782085453e-13
	-1.109213531568491e-10,4.739786782085453e-13
	1.109223658327473e-10,0.0
	-1.990996175209477e+02,0.0
	3.137319573791450e+00,0.0

 54	4.731512589614821e-03,0.000000000000000e+00
	1.000000000000000e+00,0.000000000000000e+00
	2.436240912137646e-10,8.372744362371233e-08
