Title: * sky130 bjt 3-stage gain/headroom sweep ac candidate: re=18.5k
Date: Fri May 22 20:42:56  2026
Command: ngspice-46, Build Mar 29 2026   15:02:07
Plotname: AC Analysis
Flags: complex
No. Variables: 7
No. Points: 721
Variables:
	0	frequency	frequency grid=3
	1	v(vin)	voltage
	2	v(vout_final)	voltage
	3	gain	notype
	4	gain_vv	notype
	5	gain_db	decibel
	6	phase_deg	phase
Values:
 0	1.000000000000000e-03,0.000000000000000e+00
	1.000000000000000e+00,0.000000000000000e+00
	4.801349879020351e-13,7.903461898367801e-10
	4.801349879020351e-13,7.903461898367801e-10
	7.903463356776712e-10,0.0
	-1.820436511181627e+02,0.0
	1.570188827277583e+00,0.0

 1	1.029200527194428e-03,0.000000000000000e+00
	1.000000000000000e+00,0.000000000000000e+00
	5.387203125781406e-13,8.616231471749050e-10
	5.387203125781406e-13,8.616231471749050e-10
	8.616233155893375e-10,0.0
	-1.812936511502185e+02,0.0
	1.570171087971932e+00,0.0

 2	1.059253725177289e-03,0.000000000000000e+00
	1.000000000000000e+00,0.000000000000000e+00
	6.044541271860687e-13,9.393281787792368e-10
	6.044541271860687e-13,9.393281787792368e-10
	9.393283732611880e-10,0.0
	-1.805436511841710e+02,0.0
	1.570152830669251e+00,0.0

 3	1.090184492385128e-03,0.000000000000000e+00
	1.000000000000000e+00,0.000000000000000e+00
	6.782086792608357e-13,1.024040996961860e-09
	6.782086792608357e-13,1.024040996961860e-09
	1.024041221546112e-09,0.0
	-1.797936512201395e+02,0.0
	1.570134040243759e+00,0.0

 4	1.122018454301964e-03,0.000000000000000e+00
	1.000000000000000e+00,0.000000000000000e+00
	7.609626466053774e-13,1.116393595050547e-09
	7.609626466053774e-13,1.116393595050547e-09
	1.116393854396393e-09,0.0
	-1.790436512582343e+02,0.0
	1.570114701127992e+00,0.0

 5	1.154781984689459e-03,0.000000000000000e+00
	1.000000000000000e+00,0.000000000000000e+00
	8.538141237386602e-13,1.217074962314490e-09
	8.538141237386602e-13,1.217074962314490e-09
	1.217075261802398e-09,0.0
	-1.782936512985895e+02,0.0
	1.570094797299911e+00,0.0

 6	1.188502227437019e-03,0.000000000000000e+00
	1.000000000000000e+00,0.000000000000000e+00
	9.579951929352457e-13,1.326836224109721e-09
	9.579951929352457e-13,1.326836224109721e-09
	1.326836569952958e-09,0.0
	-1.775436513413342e+02,0.0
	1.570074312269623e+00,0.0

 7	1.223207119049932e-03,0.000000000000000e+00
	1.000000000000000e+00,0.000000000000000e+00
	1.074888273193796e-12,1.446496245578004e-09
	1.074888273193796e-12,1.446496245578004e-09
	1.446496644951540e-09,0.0
	-1.767936513866141e+02,0.0
	1.570053229065725e+00,0.0

 8	1.258925411794168e-03,0.000000000000000e+00
	1.000000000000000e+00,0.000000000000000e+00
	1.206044464085344e-12,1.576947740717115e-09
	1.206044464085344e-12,1.576947740717115e-09
	1.576948201906474e-09,0.0
	-1.760436514345715e+02,0.0
	1.570031530221237e+00,0.0

 9	1.295686697517020e-03,0.000000000000000e+00
	1.000000000000000e+00,0.000000000000000e+00
	1.353204127880155e-12,1.719163932384541e-09
	1.353204127880155e-12,1.719163932384541e-09
	1.719164464957699e-09,0.0
	-1.752936514853751e+02,0.0
	1.570009197759137e+00,0.0

 10	1.333521432163325e-03,0.000000000000000e+00
	1.000000000000000e+00,0.000000000000000e+00
	1.518319983081810e-12,1.874205812938752e-09
	1.518319983081810e-12,1.874205812938752e-09
	1.874206427944633e-09,0.0
	-1.745436515391893e+02,0.0
	1.569986213177464e+00,0.0

 11	1.372460961007563e-03,0.000000000000000e+00
	1.000000000000000e+00,0.000000000000000e+00
	1.703583015788521e-12,2.043230059667363e-09
	1.703583015788521e-12,2.043230059667363e-09
	2.043230769865065e-09,0.0
	-1.737936515961905e+02,0.0
	1.569962557433993e+00,0.0

 12	1.412537544622755e-03,0.000000000000000e+00
	1.000000000000000e+00,0.000000000000000e+00
	1.911451552715582e-12,2.227497664061910e-09
	1.911451552715582e-12,2.227497664061910e-09
	2.227498484185411e-09,0.0
	-1.730436516565749e+02,0.0
	1.569938210930453e+00,0.0

 13	1.453784385607663e-03,0.000000000000000e+00
	1.000000000000000e+00,0.000000000000000e+00
	2.144683881669918e-12,2.428383339325670e-09
	2.144683881669918e-12,2.428383339325670e-09
	2.428384286389500e-09,0.0
	-1.722936517205314e+02,0.0
	1.569913153496297e+00,0.0

 14	1.496235656094435e-03,0.000000000000000e+00
	1.000000000000000e+00,0.000000000000000e+00
	2.406374852303716e-12,2.647385776273978e-09
	2.406374852303716e-12,2.647385776273978e-09
	2.647386869926211e-09,0.0
	-1.715436517882738e+02,0.0
	1.569887364371987e+00,0.0

 15	1.539926526059493e-03,0.000000000000000e+00
	1.000000000000000e+00,0.000000000000000e+00
	2.699996942839335e-12,2.886138824162009e-09
	2.699996942839335e-12,2.886138824162009e-09
	2.886140087091886e-09,0.0
	-1.707936518600378e+02,0.0
	1.569860822191797e+00,0.0

 16	1.584893192461115e-03,0.000000000000000e+00
	1.000000000000000e+00,0.000000000000000e+00
	3.029446337697184e-12,3.146423679854106e-09
	3.029446337697184e-12,3.146423679854106e-09
	3.146425138262750e-09,0.0
	-1.700436519360522e+02,0.0
	1.569833504966111e+00,0.0

 17	1.631172909227840e-03,0.000000000000000e+00
	1.000000000000000e+00,0.000000000000000e+00
	3.399094627418847e-12,3.430182176244914e-09
	3.399094627418847e-12,3.430182176244914e-09
	3.430183860388912e-09,0.0
	-1.692936520165655e+02,0.0
	1.569805390063206e+00,0.0

 18	1.678804018122562e-03,0.000000000000000e+00
	1.000000000000000e+00,0.000000000000000e+00
	3.813846816927639e-12,3.739531269086704e-09
	3.813846816927639e-12,3.739531269086704e-09
	3.739533213905815e-09,0.0
	-1.685436521018557e+02,0.0
	1.569776454190503e+00,0.0

 19	1.727825980507865e-03,0.000000000000000e+00
	1.000000000000000e+00,0.000000000000000e+00
	4.279206411881379e-12,4.076778830313629e-09
	4.279206411881379e-12,4.076778830313629e-09
	4.076781076155657e-09,0.0
	-1.677936521921997e+02,0.0
	1.569746673375267e+00,0.0

 20	1.778279410038925e-03,0.000000000000000e+00
	1.000000000000000e+00,0.000000000000000e+00
	4.801348446726170e-12,4.444440865652882e-09
	4.801348446726170e-12,4.444440865652882e-09
	4.444443459110740e-09,0.0
	-1.670436522878899e+02,0.0
	1.569716022944751e+00,0.0

 21	1.830206106311058e-03,0.000000000000000e+00
	1.000000000000000e+00,0.000000000000000e+00
	5.387201423496014e-12,4.845260284980887e-09
	5.387201423496014e-12,4.845260284980887e-09
	4.845263279859232e-09,0.0
	-1.662936523892571e+02,0.0
	1.569684477505748e+00,0.0

 22	1.883649089489803e-03,0.000000000000000e+00
	1.000000000000000e+00,0.000000000000000e+00
	6.044539248689831e-12,5.282227365497364e-09
	6.044539248689831e-12,5.282227365497364e-09
	5.282230823928840e-09,0.0
	-1.655436524966285e+02,0.0
	1.569652010923563e+00,0.0

 23	1.938652635952210e-03,0.000000000000000e+00
	1.000000000000000e+00,0.000000000000000e+00
	6.782084388064799e-12,5.758602060306083e-09
	6.782084388064799e-12,5.758602060306083e-09
	5.758606054040345e-09,0.0
	-1.647936526103652e+02,0.0
	1.569618596300352e+00,0.0

 24	1.995262314968882e-03,0.000000000000000e+00
	1.000000000000000e+00,0.000000000000000e+00
	7.609623608247528e-12,6.277938318903636e-09
	7.609623608247528e-12,6.277938318903636e-09
	6.277942930795888e-09,0.0
	-1.640436527308370e+02,0.0
	1.569584205952844e+00,0.0

 25	2.053525026457149e-03,0.000000000000000e+00
	1.000000000000000e+00,0.000000000000000e+00
	8.538137840879456e-12,6.844110600950555e-09
	8.538137840879456e-12,6.844110600950555e-09
	6.844115926680491e-09,0.0
	-1.632936528584480e+02,0.0
	1.569548811389402e+00,0.0

 26	2.113489039836650e-03,0.000000000000000e+00
	1.000000000000000e+00,0.000000000000000e+00
	9.579947892595858e-12,7.461342781180544e-09
	9.579947892595858e-12,7.461342781180544e-09
	7.461348931237343e-09,0.0
	-1.625436529936204e+02,0.0
	1.569512383286425e+00,0.0

 27	2.175204034019526e-03,0.000000000000000e+00
	1.000000000000000e+00,0.000000000000000e+00
	1.074887793424810e-11,8.134239661047010e-09
	1.074887793424810e-11,8.134239661047010e-09
	8.134246763021578e-09,0.0
	-1.617936531368016e+02,0.0
	1.569474891464046e+00,0.0

 28	2.238721138568343e-03,0.000000000000000e+00
	1.000000000000000e+00,0.000000000000000e+00
	1.206043893878274e-11,8.867821322205370e-09
	1.206043893878274e-11,8.867821322205370e-09
	8.867829523437377e-09,0.0
	-1.610436532884674e+02,0.0
	1.569436304861135e+00,0.0

 29	2.304092976055850e-03,0.000000000000000e+00
	1.000000000000000e+00,0.000000000000000e+00
	1.353203450188079e-11,9.667560578122396e-09
	1.353203450188079e-11,9.667560578122396e-09
	9.667570048757029e-09,0.0
	-1.602936534491198e+02,0.0
	1.569396591509564e+00,0.0

 30	2.371373705661660e-03,0.000000000000000e+00
	1.000000000000000e+00,0.000000000000000e+00
	1.518319177643102e-11,1.053942380319483e-08
	1.518319177643102e-11,1.053942380319483e-08
	1.053943473971267e-08,0.0
	-1.595436536192942e+02,0.0
	1.569355718507721e+00,0.0

 31	2.440619068041985e-03,0.000000000000000e+00
	1.000000000000000e+00,0.000000000000000e+00
	1.703582058523139e-11,1.148991544400194e-08
	1.703582058523139e-11,1.148991544400194e-08
	1.148992807329521e-08,0.0
	-1.587936537995481e+02,0.0
	1.569313651993256e+00,0.0

 32	2.511886431509585e-03,0.000000000000000e+00
	1.000000000000000e+00,0.000000000000000e+00
	1.911450415004728e-11,1.252612654469150e-08
	1.911450415004728e-11,1.252612654469150e-08
	1.252614112877122e-08,0.0
	-1.580436539904855e+02,0.0
	1.569270357115022e+00,0.0

 33	2.585234839562196e-03,0.000000000000000e+00
	1.000000000000000e+00,0.000000000000000e+00
	2.144682529497318e-11,1.365578764860558e-08
	2.144682529497318e-11,1.365578764860558e-08
	1.365580449003734e-08,0.0
	-1.572936541927372e+02,0.0
	1.569225798004207e+00,0.0

 34	2.660725059798815e-03,0.000000000000000e+00
	1.000000000000000e+00,0.000000000000000e+00
	2.406373245242551e-11,1.488732647071182e-08
	2.406373245242551e-11,1.488732647071182e-08
	1.488734591889287e-08,0.0
	-1.565436544069704e+02,0.0
	1.569179937744616e+00,0.0

 35	2.738419634264367e-03,0.000000000000000e+00
	1.000000000000000e+00,0.000000000000000e+00
	2.699995032844069e-11,1.622993077111300e-08
	2.699995032844069e-11,1.622993077111300e-08
	1.622995322952098e-08,0.0
	-1.557936546339008e+02,0.0
	1.569132738342086e+00,0.0

 36	2.818382931264460e-03,0.000000000000000e+00
	1.000000000000000e+00,0.000000000000000e+00
	3.029444067665977e-11,1.769361689874711e-08
	3.029444067665977e-11,1.769361689874711e-08
	1.769364283331065e-08,0.0
	-1.550436548742717e+02,0.0
	1.569084160693010e+00,0.0

 37	2.900681198693160e-03,0.000000000000000e+00
	1.000000000000000e+00,0.000000000000000e+00
	3.399091929479329e-11,1.928930451646247e-08
	3.399091929479329e-11,1.928930451646247e-08
	1.928933446522752e-08,0.0
	-1.542936551288905e+02,0.0
	1.569034164551943e+00,0.0

 38	2.985382618917966e-03,0.000000000000000e+00
	1.000000000000000e+00,0.000000000000000e+00
	3.813843610420666e-11,2.102889806515627e-08
	3.813843610420666e-11,2.102889806515627e-08
	2.102893264944851e-08,0.0
	-1.535436553985974e+02,0.0
	1.568982708498260e+00,0.0

 39	3.072557365267454e-03,0.000000000000000e+00
	1.000000000000000e+00,0.000000000000000e+00
	4.279202600942898e-11,2.292537557449129e-08
	4.279202600942898e-11,2.292537557449129e-08
	2.292541551180637e-08,0.0
	-1.527936556842826e+02,0.0
	1.568929749901837e+00,0.0

 40	3.162277660168387e-03,0.000000000000000e+00
	1.000000000000000e+00,0.000000000000000e+00
	4.801343917414390e-11,2.499288548282223e-08
	4.801343917414390e-11,2.499288548282223e-08
	2.499293160171107e-08,0.0
	-1.520436559868962e+02,0.0
	1.568875244887739e+00,0.0

 41	3.254617834980467e-03,0.000000000000000e+00
	1.000000000000000e+00,0.000000000000000e+00
	5.387196040397215e-11,2.724685218863188e-08
	5.387196040397215e-11,2.724685218863188e-08
	2.724690544589002e-08,0.0
	-1.512936563074460e+02,0.0
	1.568819148299869e+00,0.0

 42	3.349654391578285e-03,0.000000000000000e+00
	1.000000000000000e+00,0.000000000000000e+00
	6.044532850865662e-11,2.970409112091736e-08
	6.044532850865662e-11,2.970409112091736e-08
	2.970415262143494e-08,0.0
	-1.505436566469841e+02,0.0
	1.568761413663555e+00,0.0

 43	3.447466065731503e-03,0.000000000000000e+00
	1.000000000000000e+00,0.000000000000000e+00
	6.782076784243111e-11,3.238293418676935e-08
	6.782076784243111e-11,3.238293418676935e-08
	3.238300520645337e-08,0.0
	-1.497936570066388e+02,0.0
	1.568701993147056e+00,0.0

 44	3.548133892335764e-03,0.000000000000000e+00
	1.000000000000000e+00,0.000000000000000e+00
	7.609614571081664e-11,3.530336653220319e-08
	7.609614571081664e-11,3.530336653220319e-08
	3.530344854444784e-08,0.0
	-1.490436573876131e+02,0.0
	1.568640837521929e+00,0.0

 45	3.651741272548387e-03,0.000000000000000e+00
	1.000000000000000e+00,0.000000000000000e+00
	8.538127100194956e-11,3.848717563654305e-08
	8.538127100194956e-11,3.848717563654305e-08
	3.848727034279712e-08,0.0
	-1.482936577911499e+02,0.0
	1.568577896122246e+00,0.0

 46	3.758374042884452e-03,0.000000000000000e+00
	1.000000000000000e+00,0.000000000000000e+00
	9.579935127268738e-11,4.195811385201878e-08
	9.579935127268738e-11,4.195811385201878e-08
	4.195822321708433e-08,0.0
	-1.475436582186038e+02,0.0
	1.568513116802626e+00,0.0

 47	3.868120546330533e-03,0.000000000000000e+00
	1.000000000000000e+00,0.000000000000000e+00
	1.074886276262458e-10,4.574207560202187e-08
	1.074886276262458e-10,4.574207560202187e-08
	4.574220189481649e-08,0.0
	-1.467936586713882e+02,0.0
	1.568446445895027e+00,0.0

 48	3.981071705534985e-03,0.000000000000000e+00
	1.000000000000000e+00,0.000000000000000e+00
	1.206042090727785e-10,4.986729055911538e-08
	1.206042090727785e-10,4.986729055911538e-08
	4.986743639974371e-08,0.0
	-1.460436591509977e+02,0.0
	1.568377828164291e+00,0.0

 49	4.097321098135428e-03,0.000000000000000e+00
	1.000000000000000e+00,0.000000000000000e+00
	1.353201307139715e-10,5.436453424414614e-08
	1.353201307139715e-10,5.436453424414614e-08
	5.436470265825717e-08,0.0
	-1.452936596590280e+02,0.0
	1.568307206762383e+00,0.0

 50	4.216965034285836e-03,0.000000000000000e+00
	1.000000000000000e+00,0.000000000000000e+00
	1.518316630626252e-10,5.926735761770029e-08
	1.518316630626252e-10,5.926735761770029e-08
	5.926755209925819e-08,0.0
	-1.445436601971595e+02,0.0
	1.568234523181295e+00,0.0

 51	4.340102636447452e-03,0.000000000000000e+00
	1.000000000000000e+00,0.000000000000000e+00
	1.703579031388357e-10,6.461233737623277e-08
	1.703579031388357e-10,6.461233737623277e-08
	6.461256196000347e-08,0.0
	-1.437936607671758e+02,0.0
	1.568159717204578e+00,0.0

 52	4.466835921509646e-03,0.000000000000000e+00
	1.000000000000000e+00,0.000000000000000e+00
	1.911446817248232e-10,7.043934882022163e-08
	1.911446817248232e-10,7.043934882022163e-08
	7.043960816547897e-08,0.0
	-1.430436613709730e+02,0.0
	1.568082726857454e+00,0.0

 53	4.597269885308737e-03,0.000000000000000e+00
	1.000000000000000e+00,0.000000000000000e+00
	2.144678253557251e-10,7.679186333004793e-08
	2.144678253557251e-10,7.679186333004793e-08
	7.679216281723594e-08,0.0
	-1.422936620105430e+02,0.0
	1.568003488355476e+00,0.0

 54	4.731512589614821e-03,0.000000000000000e+00
	1.000000000000000e+00,0.000000000000000e+00
	2.406368163277363e-10,8.371727266800391e-08
	2.406368163277363e-10,8.371727266800391e-08
	8.371761851036068e-08,0.0
	-1.415436626880143e+02,0.0
	1.567921936051686e+00,0.0

 55	4.869675251658647e-03,0.000000000000000e+00
	1.000000000000000e+00,0.000000000000000e+00
	2.699988992920144e-10,9.126724252663487e-08
	2.699988992920144e-10,9.126724252663487e-08
	9.126764189909372e-08,0.0
	-1.407936634056218e+02,0.0
	1.567838002382230e+00,0.0

 56	5.011872336272740e-03,0.000000000000000e+00
	1.000000000000000e+00,0.000000000000000e+00
	3.029436889202452e-10,9.949809795945472e-08
	3.029436889202452e-10,9.949809795945472e-08
	9.949855914749672e-08,0.0
	-1.400436641657533e+02,0.0
	1.567751617810393e+00,0.0

 57	5.158221650723075e-03,0.000000000000000e+00
	1.000000000000000e+00,0.000000000000000e+00
	3.399083397861947e-10,1.084712435705228e-07
	3.399083397861947e-10,1.084712435705228e-07
	1.084717761420691e-07,0.0
	-1.392936649709242e+02,0.0
	1.567662710768984e+00,0.0

 58	5.308844442309902e-03,0.000000000000000e+00
	1.000000000000000e+00,0.000000000000000e+00
	3.813833470576738e-10,1.182536215960512e-07
	3.813833470576738e-10,1.182536215960512e-07
	1.182542365999606e-07,0.0
	-1.385436658238071e+02,0.0
	1.567571207601056e+00,0.0

 59	5.463865498818562e-03,0.000000000000000e+00
	1.000000000000000e+00,0.000000000000000e+00
	4.279190549717276e-10,1.289182112959843e-07
	4.279190549717276e-10,1.289182112959843e-07
	1.289189214912755e-07,0.0
	-1.377936667272255e+02,0.0
	1.567477032498882e+00,0.0

 60	5.623413251903512e-03,0.000000000000000e+00
	1.000000000000000e+00,0.000000000000000e+00
	4.801329594507474e-10,1.405445733799440e-07
	4.801329594507474e-10,1.405445733799440e-07
	1.405453935004959e-07,0.0
	-1.370436676841761e+02,0.0
	1.567380107441159e+00,0.0

 61	5.787619883491228e-03,0.000000000000000e+00
	1.000000000000000e+00,0.000000000000000e+00
	5.387179017599314e-10,1.532194435292493e-07
	5.387179017599314e-10,1.532194435292493e-07
	1.532203905894724e-07,0.0
	-1.362936686978258e+02,0.0
	1.567280352128376e+00,0.0

 62	5.956621435290127e-03,0.000000000000000e+00
	1.000000000000000e+00,0.000000000000000e+00
	6.044512619235628e-10,1.670373794413796e-07
	6.044512619235628e-10,1.670373794413796e-07
	1.670384730892002e-07,0.0
	-1.355436697715410e+02,0.0
	1.567177683916289e+00,0.0

 63	6.130557921498231e-03,0.000000000000000e+00
	1.000000000000000e+00,0.000000000000000e+00
	6.782052738909624e-10,1.821014662244274e-07
	6.782052738909624e-10,1.821014662244274e-07
	1.821027291489060e-07,0.0
	-1.347936709088761e+02,0.0
	1.567072017747461e+00,0.0

 64	6.309573444801957e-03,0.000000000000000e+00
	1.000000000000000e+00,0.000000000000000e+00
	7.609585993162267e-10,1.985240854017389e-07
	7.609585993162267e-10,1.985240854017389e-07
	1.985255438037806e-07,0.0
	-1.340436721136033e+02,0.0
	1.566963266080803e+00,0.0

 65	6.493816315762139e-03,0.000000000000000e+00
	1.000000000000000e+00,0.000000000000000e+00
	8.538093135276095e-10,2.164277532639472e-07
	8.538093135276095e-10,2.164277532639472e-07
	2.164294373998691e-07,0.0
	-1.332936733897150e+02,0.0
	1.566851338819055e+00,0.0

 66	6.683439175686173e-03,0.000000000000000e+00
	1.000000000000000e+00,0.000000000000000e+00
	9.579894759900394e-10,2.359460348208022e-07
	9.579894759900394e-10,2.359460348208022e-07
	2.359479796300348e-07,0.0
	-1.325436747414394e+02,0.0
	1.566736143234148e+00,0.0

 67	6.878599123088104e-03,0.000000000000000e+00
	1.000000000000000e+00,0.000000000000000e+00
	1.074881478593538e-09,2.572245401699162e-07
	1.074881478593538e-09,2.572245401699162e-07
	2.572267859998602e-07,0.0
	-1.317936761732599e+02,0.0
	1.566617583890398e+00,0.0

 68	7.079457843841408e-03,0.000000000000000e+00
	1.000000000000000e+00,0.000000000000000e+00
	1.206036388688793e-09,2.804220107144553e-07
	1.206036388688793e-09,2.804220107144553e-07
	2.804246041575327e-07,0.0
	-1.310436776899229e+02,0.0
	1.566495562565440e+00,0.0

 69	7.286181745132307e-03,0.000000000000000e+00
	1.000000000000000e+00,0.000000000000000e+00
	1.353194530256466e-09,3.057115033311126e-07
	1.353194530256466e-09,3.057115033311126e-07
	3.057144981913772e-07,0.0
	-1.302936792964492e+02,0.0
	1.566369978168874e+00,0.0

 70	7.498942093324590e-03,0.000000000000000e+00
	1.000000000000000e+00,0.000000000000000e+00
	1.518308576288411e-09,3.332816813197038e-07
	1.518308576288411e-09,3.332816813197038e-07
	3.332851397290636e-07,0.0
	-1.295436809981691e+02,0.0
	1.566240726658520e+00,0.0

 71	7.717915155850157e-03,0.000000000000000e+00
	1.000000000000000e+00,0.000000000000000e+00
	1.703569458793065e-09,3.633382217646147e-07
	1.703569458793065e-09,3.633382217646147e-07
	3.633422154718238e-07,0.0
	-1.287936828007229e+02,0.0
	1.566107700954236e+00,0.0

 72	7.943282347242850e-03,0.000000000000000e+00
	1.000000000000000e+00,0.000000000000000e+00
	1.911435440203322e-09,3.961053498029081e-07
	1.911435440203322e-09,3.961053498029081e-07
	3.961099616620696e-07,0.0
	-1.280436847100830e+02,0.0
	1.565970790849223e+00,0.0

 73	8.175230379436536e-03,0.000000000000000e+00
	1.000000000000000e+00,0.000000000000000e+00
	2.144664731919176e-09,4.318275112420454e-07
	2.144664731919176e-09,4.318275112420454e-07
