Title: * sky130 bjt 3-stage explicit output low-pass section ac: rlp=100k, clp=22p, cload=10p
Date: Fri May 22 22:54:42  2026
Command: ngspice-46, Build Mar 29 2026   15:02:07
Plotname: AC Analysis
Flags: complex
No. Variables: 9
No. Points: 721
Variables:
	0	frequency	frequency grid=3
	1	v(vin)	voltage
	2	v(b3_collector)	voltage
	3	v(vout_drv)	voltage
	4	v(vout_final)	voltage
	5	gain	notype
	6	gain_vv	notype
	7	gain_db	decibel
	8	phase_deg	phase
Values:
 0	1.000000000000000e-03,0.000000000000000e+00
	1.000000000000000e+00,0.000000000000000e+00
	4.861096667818163e-13,7.904423276608954e-10
	-2.483247081701793e-13,2.309790069145376e-16
	-2.483247081655351e-13,2.309839997790424e-16
	-2.483247081655351e-13,2.309839997790424e-16
	2.483248155926152e-13,0.0
	-2.520995975673121e+02,0.0
	3.140662484639355e+00,0.0

 1	1.029200527194428e-03,0.000000000000000e+00
	1.000000000000000e+00,0.000000000000000e+00
	5.454240123247438e-13,8.617279547834594e-10
	-2.786248961968092e-13,2.667303916040810e-16
	-2.786248961912896e-13,2.667361572738763e-16
	-2.786248961912896e-13,2.667361572738763e-16
	2.786250238686118e-13,0.0
	-2.510995976261512e+02,0.0
	3.140635323216830e+00,0.0

 2	1.059253725177289e-03,0.000000000000000e+00
	1.000000000000000e+00,0.000000000000000e+00
	6.119758017582608e-13,9.394424379971301e-10
	-3.126222646295486e-13,3.080154455842747e-16
	-3.126222646229885e-13,3.080221036756554e-16
	-3.126222646229885e-13,3.080221036756554e-16
	3.126224163677682e-13,0.0
	-2.500995976884744e+02,0.0
	3.140607368666557e+00,0.0

 3	1.090184492385128e-03,0.000000000000000e+00
	1.000000000000000e+00,0.000000000000000e+00
	6.866481366342878e-13,1.024165560113937e-09
	-3.507679373857408e-13,3.556906809499400e-16
	-3.507679373779440e-13,3.556983695936392e-16
	-3.507679373779440e-13,3.556983695936392e-16
	3.507681177269499e-13,0.0
	-2.490995977544952e+02,0.0
	3.140578597828797e+00,0.0

 4	1.122018454301964e-03,0.000000000000000e+00
	1.000000000000000e+00,0.000000000000000e+00
	7.704318731617084e-13,1.116529391318429e-09
	-3.935680837660174e-13,4.107451823894266e-16
	-3.935680837567510e-13,4.107540610963153e-16
	-3.935680837567510e-13,4.107540610963153e-16
	3.935682981019428e-13,0.0
	-2.480995978244217e+02,0.0
	3.140548986867536e+00,0.0

 5	1.154781984689459e-03,0.000000000000000e+00
	1.000000000000000e+00,0.000000000000000e+00
	8.644387702537550e-13,1.217223004666012e-09
	-4.415906349939727e-13,4.743211270210567e-16
	-4.415906349829596e-13,4.743313799914008e-16
	-4.415906349829596e-13,4.743313799914008e-16
	4.415908897326930e-13,0.0
	-2.470995978984953e+02,0.0
	3.140518511250736e+00,0.0

 6	1.188502227437019e-03,0.000000000000000e+00
	1.000000000000000e+00,0.000000000000000e+00
	9.699162418854376e-13,1.326997616853322e-09
	-4.954728202983689e-13,5.477374803314567e-16
	-4.954728202852798e-13,5.477493202763880e-16
	-4.954728202852798e-13,5.477493202763880e-16
	4.954731230559000e-13,0.0
	-2.460995979769584e+02,0.0
	3.140487145730013e+00,0.0

 7	1.223207119049932e-03,0.000000000000000e+00
	1.000000000000000e+00,0.000000000000000e+00
	1.088263909504638e-12,1.446672192599208e-09
	-5.559296225319004e-13,6.325173598129020e-16
	-5.559296225163439e-13,6.325310323673824e-16
	-5.559296225163439e-13,6.325310323673824e-16
	5.559299823598935e-13,0.0
	-2.450995980600699e+02,0.0
	3.140454864319717e+00,0.0

 8	1.258925411794168e-03,0.000000000000000e+00
	1.000000000000000e+00,0.000000000000000e+00
	1.221052174143703e-12,1.577139554454867e-09
	-6.237632655292669e-13,7.304196339962042e-16
	-6.237632655107780e-13,7.304354228150373e-16
	-6.237632655107780e-13,7.304354228150373e-16
	6.237636931856295e-13,0.0
	-2.440995981481026e+02,0.0
	3.140421640275405e+00,0.0

 9	1.295686697517020e-03,0.000000000000000e+00
	1.000000000000000e+00,0.000000000000000e+00
	1.370043054666113e-12,1.719373043619459e-09
	-6.998738590932727e-13,8.434754124383397e-16
	-6.998738590712985e-13,8.434936450809511e-16
	-6.998738590712985e-13,8.434936450809511e-16
	6.998743673638013e-13,0.0
	-2.430995982413565e+02,0.0
	3.140387446071682e+00,0.0

 10	1.333521432163325e-03,0.000000000000000e+00
	1.000000000000000e+00,0.000000000000000e+00
	1.537213568669049e-12,1.874433781462887e-09
	-7.852713428642227e-13,9.740301837014682e-16
	-7.852713428381064e-13,9.740512384275439e-16
	-7.852713428381064e-13,9.740512384275439e-16
	7.852719469448644e-13,0.0
	-2.420995983401338e+02,0.0
	3.140352253379401e+00,0.0

 11	1.372460961007563e-03,0.000000000000000e+00
	1.000000000000000e+00,0.000000000000000e+00
	1.724781966275882e-12,2.043478585913826e-09
	-8.810888875529561e-13,1.124792475520040e-15
	-8.810888875219170e-13,1.124816789137004e-15
	-8.810888875219170e-13,1.124816789137004e-15
	8.810896055041271e-13,0.0
	-2.410995984447644e+02,0.0
	3.140316033042189e+00,0.0

 12	1.412537544622755e-03,0.000000000000000e+00
	1.000000000000000e+00,0.000000000000000e+00
	1.935237164936902e-12,2.227768601785907e-09
	-9.885979313677806e-13,1.298890046679644e-15
	-9.885979313308903e-13,1.298918123604782e-15
	-9.885979313308903e-13,1.298918123604782e-15
	9.885987846543244e-13,0.0
	-2.400995985556000e+02,0.0
	3.140278755052293e+00,0.0

 13	1.453784385607663e-03,0.000000000000000e+00
	1.000000000000000e+00,0.000000000000000e+00
	2.171371775820884e-12,2.428678709426294e-09
	-1.109225051157626e-12,1.499934776379779e-15
	-1.109225051113782e-12,1.499967199105018e-15
	-1.109225051113782e-12,1.499967199105018e-15
	1.109226065290557e-12,0.0
	-2.390995986729968e+02,0.0
	3.140240388525721e+00,0.0

 14	1.496235656094435e-03,0.000000000000000e+00
	1.000000000000000e+00,0.000000000000000e+00
	2.436319160017374e-12,2.647707781862501e-09
	-1.244570892131940e-12,1.732097597279925e-15
	-1.244570892079831e-12,1.732135038456360e-15
	-1.244570892079831e-12,1.732135038456360e-15
	1.244572097431153e-12,0.0
	-2.380995987973462e+02,0.0
	3.140200901676654e+00,0.0

 15	1.539926526059493e-03,0.000000000000000e+00
	1.000000000000000e+00,0.000000000000000e+00
	2.733595006282169e-12,2.886489866987844e-09
	-1.396431407348719e-12,2.000195026820890e-15
	-1.396431407286787e-12,2.000238263213786e-15
	-1.396431407286787e-12,2.000238263213786e-15
	1.396432839849474e-12,0.0
	-2.370995989290720e+02,0.0
	3.140160261791111e+00,0.0

 16	1.584893192461115e-03,0.000000000000000e+00
	1.000000000000000e+00,0.000000000000000e+00
	3.067143982040992e-12,3.146806378212106e-09
	-1.566821688804900e-12,2.309789092025685e-15
	-1.566821688731294e-12,2.309839020629447e-15
	-1.566821688731294e-12,2.309839020629447e-15
	1.566823391335184e-12,0.0
	-2.360995990686008e+02,0.0
	3.140118435199850e+00,0.0

 17	1.631172909227840e-03,0.000000000000000e+00
	1.000000000000000e+00,0.000000000000000e+00
	3.441392076648254e-12,3.430599384495833e-09
	-1.758002706336724e-12,2.667302720823283e-15
	-1.758002706249244e-12,2.667360377470735e-15
	-1.758002706249244e-12,2.667360377470735e-15
	1.758004729797690e-12,0.0
	-2.350995992163909e+02,0.0
	3.140075387250471e+00,0.0

 18	1.678804018122562e-03,0.000000000000000e+00
	1.000000000000000e+00,0.000000000000000e+00
	3.861305331481529e-12,3.739986098935241e-09
	-1.972511309142609e-12,3.080152993842427e-15
	-1.972511309038638e-12,3.080219574694461e-15
	-1.972511309038638e-12,3.080219574694461e-15
	1.972513714030386e-12,0.0
	-2.340995993729461e+02,0.0
	3.140031082278709e+00,0.0

 19	1.727825980507865e-03,0.000000000000000e+00
	1.000000000000000e+00,0.000000000000000e+00
	4.332455736210731e-12,4.077274674008245e-09
	-2.213193888037420e-12,3.556905021171214e-15
	-2.213193887913850e-12,3.556981907532646e-15
	-2.213193887913850e-12,3.556981907532646e-15
	2.213196746251791e-12,0.0
	-2.330995995387757e+02,0.0
	3.139985483578887e+00,0.0

 20	1.778279410038925e-03,0.000000000000000e+00
	1.000000000000000e+00,0.000000000000000e+00
	4.861095165580095e-12,4.444981421269588e-09
	-2.483244145083874e-12,4.107449636399186e-15
	-2.483244144937011e-12,4.107538423375646e-15
	-2.483244144937011e-12,4.107538423375646e-15
	2.483247542077883e-12,0.0
	-2.320995997144269e+02,0.0
	3.139938553373506e+00,0.0

 21	1.830206106311058e-03,0.000000000000000e+00
	1.000000000000000e+00,0.000000000000000e+00
	5.454238337833533e-12,4.845849583992883e-09
	-2.786245471791111e-12,4.743208594450441e-15
	-2.786245471616564e-12,4.743311124040825e-15
	-2.786245471616564e-12,4.743311124040825e-15
	2.786249509125884e-12,0.0
	-2.310995999004912e+02,0.0
	3.139890252781948e+00,0.0

 22	1.883649089489803e-03,0.000000000000000e+00
	1.000000000000000e+00,0.000000000000000e+00
	6.119755895614101e-12,5.282869802822192e-09
	-3.126218498212467e-12,5.477371530307378e-15
	-3.126218498005018e-12,5.477489929618397e-15
	-3.126218498005018e-12,5.477489929618397e-15
	3.126223296593620e-12,0.0
	-2.300996000975779e+02,0.0
	3.139840541788265e+00,0.0

 23	1.938652635952210e-03,0.000000000000000e+00
	1.000000000000000e+00,0.000000000000000e+00
	6.866478844377099e-12,5.759302427060950e-09
	-3.507674443851170e-12,6.325169594559922e-15
	-3.507674443604616e-12,6.325306319935565e-15
	-3.507674443604616e-12,6.325306319935565e-15
	3.507680146737583e-12,0.0
	-2.290996003063485e+02,0.0
	3.139789379208028e+00,0.0

 24	1.995262314968882e-03,0.000000000000000e+00
	1.000000000000000e+00,0.000000000000000e+00
	7.704315734254462e-12,6.278701838118083e-09
	-3.935674978336792e-12,7.304191442766897e-15
	-3.935674978043763e-12,7.304349330748309e-15
	-3.935674978043763e-12,7.304349330748309e-15
	3.935681756229652e-12,0.0
	-2.280996005274825e+02,0.0
	3.139736722654201e+00,0.0

 25	2.053525026457149e-03,0.000000000000000e+00
	1.000000000000000e+00,0.000000000000000e+00
	8.644384140166221e-12,6.844942966484818e-09
	-4.415899386121360e-12,8.434748134101201e-15
	-4.415899385773094e-12,8.434930460274210e-15
	-4.415899385773094e-12,8.434930460274210e-15
	4.415907441661685e-12,0.0
	-2.270996007617223e+02,0.0
	3.139682528502037e+00,0.0

 26	2.113489039836650e-03,0.000000000000000e+00
	1.000000000000000e+00,0.000000000000000e+00
	9.699158184969661e-12,7.462250200161009e-09
	-4.954719926471404e-12,9.740294509659164e-15
	-4.954719926057489e-12,9.740505056610322e-15
	-4.954719926057489e-12,9.740505056610322e-15
	4.954729500498478e-12,0.0
	-2.260996010098408e+02,0.0
	3.139626751852924e+00,0.0

 27	2.175204034019526e-03,0.000000000000000e+00
	1.000000000000000e+00,0.000000000000000e+00
	1.088263406306645e-11,8.135228900115258e-09
	-5.559286388666818e-12,1.124791579232767e-14
	-5.559286388174879e-12,1.124815892811860e-14
	-5.559286388174879e-12,1.124815892811860e-14
	5.559297767418629e-12,0.0
	-2.250996012726613e+02,0.0
	3.139569346497194e+00,0.0

 28	2.238721138568343e-03,0.000000000000000e+00
	1.000000000000000e+00,0.000000000000000e+00
	1.221051576091449e-11,8.868899757939372e-09
	-6.237620964409351e-12,1.298888950335909e-14
	-6.237620963824680e-12,1.298917027214724e-14
	-6.237620963824680e-12,1.298917027214724e-14
	6.237634488080356e-12,0.0
	-2.240996015510536e+02,0.0
	3.139510264875842e+00,0.0

 29	2.304092976055850e-03,0.000000000000000e+00
	1.000000000000000e+00,0.000000000000000e+00
	1.370042343880089e-11,9.668736251990014e-09
	-6.998724696294448e-12,1.499933435324245e-14
	-6.998724695599565e-12,1.499965857992820e-14
	-6.998724695599565e-12,1.499965857992820e-14
	6.998740769206468e-12,0.0
	-2.230996018459430e+02,0.0
	3.139449458041119e+00,0.0

 30	2.371373705661660e-03,0.000000000000000e+00
	1.000000000000000e+00,0.000000000000000e+00
	1.537212723897900e-11,1.054070548146625e-08
	-7.852696914833090e-12,1.732095956889887e-14
	-7.852696914007221e-12,1.732133397997011e-14
	-7.852696914007221e-12,1.732133397997011e-14
	7.852716017523451e-12,0.0
	-2.220996021583076e+02,0.0
	3.139386875615987e+00,0.0

 31	2.440619068041985e-03,0.000000000000000e+00
	1.000000000000000e+00,0.000000000000000e+00
	1.724780962263879e-11,1.149131268304678e-08
	-8.810869248834046e-12,2.000193020285677e-14
	-8.810869247852499e-12,2.000236256593792e-14
	-8.810869247852499e-12,2.000236256593792e-14
	8.810891952422359e-12,0.0
	-2.210996024891774e+02,0.0
	3.139322465752380e+00,0.0

 32	2.511886431509585e-03,0.000000000000000e+00
	1.000000000000000e+00,0.000000000000000e+00
	1.935235971667494e-11,1.252764976216156e-08
	-9.885955987312763e-12,2.309786637617686e-14
	-9.885955986146193e-12,2.309836566117744e-14
	-9.885955986146193e-12,2.309836566117744e-14
	9.885982970575863e-12,0.0
	-2.200996028396560e+02,0.0
	3.139256175088251e+00,0.0

 33	2.585234839562196e-03,0.000000000000000e+00
	1.000000000000000e+00,0.000000000000000e+00
	2.171370357616941e-11,1.365744820102509e-08
	-1.109222278813982e-11,2.667299718572040e-14
	-1.109222278675335e-11,2.667357375092639e-14
	-1.109222278675335e-11,2.667357375092639e-14
	1.109225485780537e-11,0.0
	-2.190996032109008e+02,0.0
	3.139187948703365e+00,0.0

 34	2.660725059798815e-03,0.000000000000000e+00
	1.000000000000000e+00,0.000000000000000e+00
	2.436317474477603e-11,1.488913673804428e-08
	-1.244567597195107e-11,3.080149321469300e-14
	-1.244567597030324e-11,3.080215902166167e-14
	-1.244567597030324e-11,3.080215902166167e-14
	1.244571408681655e-11,0.0
	-2.180996036041419e+02,0.0
	3.139117730073798e+00,0.0

 35	2.738419634264367e-03,0.000000000000000e+00
	1.000000000000000e+00,0.000000000000000e+00
	2.733593003015150e-11,1.623190424895146e-08
	-1.396427491309646e-11,3.556900529098312e-14
	-1.396427491113802e-11,3.556977415269942e-14
	-1.396427491113802e-11,3.556977415269942e-14
	1.396432021269464e-11,0.0
	-2.170996040206865e+02,0.0
	3.139045461025110e+00,0.0

 36	2.818382931264460e-03,0.000000000000000e+00
	1.000000000000000e+00,0.000000000000000e+00
	3.067141601156110e-11,1.769576829879037e-08
	-1.566817034585250e-11,4.107444141664255e-14
	-1.566817034352489e-11,4.107532928408549e-14
	-1.566817034352489e-11,4.107532928408549e-14
	1.566822418452036e-11,0.0
	-2.160996044619070e+02,0.0
	3.138971081684151e+00,0.0

 37	2.900681198693160e-03,0.000000000000000e+00
	1.000000000000000e+00,0.000000000000000e+00
	3.441389246958948e-11,1.929164987604051e-08
	-1.757997174785966e-11,4.743201873253473e-14
	-1.757997174509329e-11,4.743304402559869e-14
	-1.757997174509329e-11,4.743304402559869e-14
	1.758003573522944e-11,0.0
	-2.150996049292754e+02,0.0
	3.138894530429460e+00,0.0

 38	2.985382618917966e-03,0.000000000000000e+00
	1.000000000000000e+00,0.000000000000000e+00
	3.861301968389454e-11,2.103145486659439e-08
	-1.972504734882991e-11,5.477363308888998e-14
	-1.972504734554207e-11,5.477481707852641e-14
	-1.972504734554207e-11,5.477481707852641e-14
	1.972512339795273e-11,0.0
	-2.140996054243406e+02,0.0
	3.138815743840214e+00,0.0

 39	3.072557365267454e-03,0.000000000000000e+00
	1.000000000000000e+00,0.000000000000000e+00
	4.332451739170399e-11,2.292816287524177e-08
	-2.213186074516966e-11,6.325159538069037e-14
	-2.213186074126206e-11,6.325296263019768e-14
	-2.213186074126206e-11,6.325296263019768e-14
	2.213195112971060e-11,0.0
	-2.130996059487352e+02,0.0
	3.138734656643682e+00,0.0

 40	3.162277660168387e-03,0.000000000000000e+00
	1.000000000000000e+00,0.000000000000000e+00
	4.861090415086472e-11,2.499592405726243e-08
	-2.483234858697868e-11,7.304179141595574e-14
	-2.483234858233449e-11,7.304337029057229e-14
	-2.483234858233449e-11,7.304337029057229e-14
	2.483245600919315e-11,0.0
	-2.120996065042033e+02,0.0
	3.138651201661161e+00,0.0

 41	3.254617834980467e-03,0.000000000000000e+00
	1.000000000000000e+00,0.000000000000000e+00
	5.454232691859278e-11,2.725016468264298e-08
	-2.786234434901299e-11,8.434733087217626e-14
	-2.786234434349336e-11,8.434915412754868e-14
	-2.786234434349336e-11,8.434915412754868e-14
	2.786247202053685e-11,0.0
	-2.110996070925904e+02,0.0
	3.138565309752312e+00,0.0

 42	3.349654391578285e-03,0.000000000000000e+00
	1.000000000000000e+00,0.000000000000000e+00
	6.119749185361502e-11,2.970770222035174e-08
	-3.126205380846531e-11,9.740276104207554e-14
	-3.126205380190522e-11,9.740486650381035e-14
	-3.126205380190522e-11,9.740486650381035e-14
	3.126220554633398e-11,0.0
	-2.100996077158355e+02,0.0
	3.138476909757887e+00,0.0

 43	3.447466065731503e-03,0.000000000000000e+00
	1.000000000000000e+00,0.000000000000000e+00
	6.866470869234940e-11,3.238687080105600e-08
	-3.507658853838299e-11,1.124789327865549e-13
	-3.507658853058630e-11,1.124813641349516e-13
	-3.507658853058630e-11,1.124813641349516e-13
	3.507676887915043e-11,0.0
	-2.090996083760084e+02,0.0
	3.138385928440774e+00,0.0

 44	3.548133892335764e-03,0.000000000000000e+00
	1.000000000000000e+00,0.000000000000000e+00
	7.704306255773013e-11,3.530765799446936e-08
	-3.935656449571844e-11,1.298886196446780e-13
	-3.935656448645206e-11,1.298914273209236e-13
	-3.935656448645206e-11,1.298914273209236e-13
	3.935677883108767e-11,0.0
	-2.080996090753071e+02,0.0
	3.138292290425330e+00,0.0

 45	3.651741272548387e-03,0.000000000000000e+00
	1.000000000000000e+00,0.000000000000000e+00
	8.644372874978024e-11,3.849185392170351e-08
	-4.415877364650315e-11,1.499930066749061e-13
	-4.415877363549004e-11,1.499962489275305e-13
	-4.415877363549004e-11,1.499962489275305e-13
	4.415902838452339e-11,0.0
	-2.070996098160310e+02,0.0
	3.138195918134930e+00,0.0

 46	3.758374042884452e-03,0.000000000000000e+00
	1.000000000000000e+00,0.000000000000000e+00
	9.699144796267118e-11,4.196321381446719e-08
	-4.954693753908236e-11,1.732091836425492e-13
	-4.954693752599325e-11,1.732129277358517e-13
	-4.954693752599325e-11,1.732129277358517e-13
	4.954724029573204e-11,0.0
	-2.060996106006529e+02,0.0
	3.138096731727709e+00,0.0

 47	3.868120546330533e-03,0.000000000000000e+00
	1.000000000000000e+00,0.000000000000000e+00
	1.088261815056367e-10,4.574763523470079e-08
	-5.559255282523689e-11,2.000187980104662e-13
	-5.559255280968045e-11,2.000231216199817e-13
	-5.559255280968045e-11,2.000231216199817e-13
	5.559291265212044e-11,0.0
	-2.050996114317648e+02,0.0
	3.137994649030409e+00,0.0

 48	3.981071705534985e-03,0.000000000000000e+00
	1.000000000000000e+00,0.000000000000000e+00
	1.221049684886861e-10,4.987335127575565e-08
	-6.237583994696190e-11,2.309780472434018e-13
	-6.237583992847306e-11,2.309830400673581e-13
	-6.237583992847306e-11,2.309830400673581e-13
	6.237626760192768e-11,0.0
	-2.040996123121234e+02,0.0
	3.137889585470312e+00,0.0

 49	4.097321098135428e-03,0.000000000000000e+00
	1.000000000000000e+00,0.000000000000000e+00
	1.370040096179480e-10,5.437114118698796e-08
	-6.998680757718882e-11,2.667292177277534e-13
	-6.998680755521478e-11,2.667349833479495e-13
	-6.998680755521478e-11,2.667349833479495e-13
	6.998731584595890e-11,0.0
	-2.030996132446458e+02,0.0
	3.137781454005174e+00,0.0

 50	4.216965034285836e-03,0.000000000000000e+00
	1.000000000000000e+00,0.000000000000000e+00
	1.537210052501777e-10,5.927455999270702e-08
	-7.852644693755172e-11,3.080140096906645e-13
	-7.852644691143554e-11,3.080206677213752e-13
	-7.852644691143554e-11,3.080206677213752e-13
	7.852705101597950e-11,0.0
	-2.020996142324218e+02,0.0
	3.137670165051118e+00,0.0

 51	4.340102636447452e-03,0.000000000000000e+00
	1.000000000000000e+00,0.000000000000000e+00
	1.724777787303715e-10,6.462018881841652e-08
	-8.810807183982261e-11,3.556889245551361e-13
	-8.810807180878347e-11,3.556966131246233e-13
	-8.810807180878347e-11,3.556966131246233e-13
	8.810878978820633e-11,0.0
	-2.010996152787289e+02,0.0
	3.137555626408423e+00,0.0

 52	4.466835921509646e-03,0.000000000000000e+00
	1.000000000000000e+00,0.000000000000000e+00
	1.935232198220629e-10,7.044790779182521e-08
	-9.885882223119354e-11,4.107430339549532e-13
	-9.885882219430347e-11,4.107519125710651e-13
	-9.885882219430347e-11,4.107519125710651e-13
	9.885967551422870e-11,0.0
	-2.000996163870357e+02,0.0
	3.137437743185143e+00,0.0

 53	4.597269885308737e-03,0.000000000000000e+00
	1.000000000000000e+00,0.000000000000000e+00
	2.171365872868223e-10,7.680119355427766e-08
	-1.109213511926106e-10,4.743184990413675e-13
	-1.109213511487667e-10,4.743287519006729e-13
	-1.109213511487667e-10,4.743287519006729e-13
	1.109223653211240e-10,0.0
	-1.990996175610109e+02,0.0
	3.137316417718499e+00,0.0

 54	4.731512589614821e-03,0.000000000000000e+00
	1.000000000000000e+00,0.000000000000000e+00
	2.436312144343249e-10,8.372744360178272e-08
