Title: * sky130 bjt 3-stage unloaded ac response
Date: Fri May 22 19:48:03  2026
Command: ngspice-46, Build Mar 29 2026   15:02:07
Plotname: AC Analysis
Flags: complex
No. Variables: 11
No. Points: 301
Variables:
	0	frequency	frequency grid=3
	1	v(vin)	voltage
	2	v(b1_base)	voltage
	3	v(b1_collector)	voltage
	4	v(b2_collector)	voltage
	5	v(b3_collector)	voltage
	6	v(vout_final)	voltage
	7	gain	notype
	8	gain_vv	notype
	9	gain_db	decibel
	10	phase_deg	phase
Values:
 0	1.000000000000000e+00,0.000000000000000e+00
	1.000000000000000e+00,0.000000000000000e+00
	8.684736687845761e-01,3.381104152177227e-01
	-3.619509026636950e+00,-1.089982240277535e+00
	1.191270679988313e+01,7.887682562960394e+00
	-3.916678934789719e+01,-5.551553835078096e+01
	-3.916678934789719e+01,-5.551553835078096e+01
	-3.916678934789719e+01,-5.551553835078096e+01
	6.794124215967489e+01,0.0
	3.664266965496660e+01,0.0
	-2.185210976394590e+00,0.0

 1	1.047128548050900e+00,0.000000000000000e+00
	1.000000000000000e+00,0.000000000000000e+00
	8.786449663041055e-01,3.266696021587380e-01
	-3.646171257816708e+00,-1.048581947733914e+00
	1.219478088304013e+01,7.643854841066447e+00
	-4.191762132968074e+01,-5.460787741319994e+01
	-4.191762132968074e+01,-5.460787741319994e+01
	-4.191762132968074e+01,-5.460787741319994e+01
	6.884117411486804e+01,0.0
	3.675696537583558e+01,0.0
	-2.225473692280480e+00,0.0

 2	1.096478196143185e+00,0.000000000000000e+00
	1.000000000000000e+00,0.000000000000000e+00
	8.881308073177435e-01,3.153306118670326e-01
	-3.670831395418553e+00,-1.008151126273838e+00
	1.245819337709917e+01,7.398711237587262e+00
	-4.453942952114111e+01,-5.358643041590914e+01
	-4.453942952114111e+01,-5.358643041590914e+01
	-4.453942952114111e+01,-5.358643041590914e+01
	6.967974100689359e+01,0.0
	3.686213055540947e+01,0.0
	-2.264256480115941e+00,0.0

 3	1.148153621496883e+00,0.000000000000000e+00
	1.000000000000000e+00,0.000000000000000e+00
	8.969619537259267e-01,3.041288258718758e-01
	-3.693613572251975e+00,-9.687436319929151e-01
	1.270369734450003e+01,7.153518273133963e+00
	-4.702905336954758e+01,-5.246760788795887e+01
	-4.702905336954758e+01,-5.246760788795887e+01
	-4.702905336954758e+01,-5.246760788795887e+01
	7.045978809448945e+01,0.0
	3.695882665441447e+01,0.0
	-2.301588157469902e+00,0.0

 4	1.202264434617413e+00,0.000000000000000e+00
	1.000000000000000e+00,0.000000000000000e+00
	9.051702388783220e-01,2.930951480616190e-01
	-3.714638460859217e+00,-9.304015979050101e-01
	1.293209739044105e+01,6.909396373574747e+00
	-4.938514715848746e+01,-5.126698810546804e+01
	-4.938514715848746e+01,-5.126698810546804e+01
	-4.938514715848746e+01,-5.126698810546804e+01
	7.118424565359715e+01,0.0
	3.704767774274156e+01,0.0
	-2.337500185129969e+00,0.0

 5	1.258925411794168e+00,0.000000000000000e+00
	1.000000000000000e+00,0.000000000000000e+00
	9.127880761495025e-01,2.822562234503982e-01
	-3.734022601300678e+00,-8.931565852681608e-01
	1.314423191880734e+01,6.667326973561356e+00
	-5.160793169540582e+01,-4.999918239491213e+01
	-5.160793169540582e+01,-4.999918239491213e+01
	-5.160793169540582e+01,-4.999918239491213e+01
	7.185608432163113e+01,0.0
	3.712927094709090e+01,0.0
	-2.372026205375765e+00,0.0

 6	1.318256738556407e+00,0.000000000000000e+00
	1.000000000000000e+00,0.000000000000000e+00
	9.198480331709343e-01,2.716346923693027e-01
	-3.751877894424829e+00,-8.570306968685012e-01
	1.334095786718648e+01,6.428160832051099e+00
	-5.369895426579605e+01,-4.867774581541973e+01
	-5.369895426579605e+01,-4.867774581541973e+01
	-5.369895426579605e+01,-4.867774581541973e+01
	7.247827693116517e+01,0.0
	3.720415720105120e+01,0.0
	-2.405201617721768e+00,0.0

 7	1.380384264602885e+00,0.000000000000000e+00
	1.000000000000000e+00,0.000000000000000e+00
	9.263824695201015e-01,2.612494683431040e-01
	-3.768311239594095e+00,-8.220376386002815e-01
	1.352313778496237e+01,6.192627128371917e+00
	-5.566086221183194e+01,-4.731512669236936e+01
	-5.566086221183194e+01,-4.731512669236936e+01
	-5.566086221183194e+01,-4.731512669236936e+01
	7.305376647428594e+01,0.0
	3.727285224026737e+01,0.0
	-2.437063192417847e+00,0.0

 8	1.445439770745928e+00,0.000000000000000e+00
	1.000000000000000e+00,0.000000000000000e+00
	9.324232343035331e-01,2.511160295733246e-01
	-3.783424296716571e+00,-7.881837197538510e-01
	1.369162907988808e+01,5.961342980245859e+00
	-5.749719378498987e+01,-4.592264853903539e+01
	-5.749719378498987e+01,-4.592264853903539e+01
	-5.749719378498987e+01,-4.592264853903539e+01
	7.358543974176173e+01,0.0
	3.733583779072491e+01,0.0
	-2.467648721223461e+00,0.0

 9	1.513561248436209e+00,0.000000000000000e+00
	1.000000000000000e+00,0.000000000000000e+00
	9.380014191348900e-01,2.412467155970605e-01
	-3.797313353702737e+00,-7.554687858448740e-01
	1.384727523565220e+01,5.734823093047971e+00
	-5.921218848037216e+01,-4.451051823510546e+01
	-5.921218848037216e+01,-4.451051823510546e+01
	-5.921218848037216e+01,-4.451051823510546e+01
	7.407610612196603e+01,0.0
	3.739356290377199e+01,0.0
	-2.496996704364022e+00,0.0

 10	1.584893192461114e+00,0.000000000000000e+00
	1.000000000000000e+00,0.000000000000000e+00
	9.431471614380277e-01,2.316510222602227e-01
	-3.810069282014814e+00,-7.238870806319253e-01
	1.399089879266238e+01,5.513489310882859e+00
	-6.081061788745807e+01,-4.308785484072486e+01
	-6.081061788745807e+01,-4.308785484072486e+01
	-6.081061788745807e+01,-4.308785484072486e+01
	7.452848101652020e+01,0.0
	3.744644539713528e+01,0.0
	-2.525146072117288e+00,0.0

 11	1.659586907437562e+00,0.000000000000000e+00
	1.000000000000000e+00,0.000000000000000e+00
	9.478894927318385e-01,2.223358895884442e-01
	-3.821777564635175e+00,-6.934280362246973e-01
	1.412329588343486e+01,5.297679893977602e+00
	-6.229763717270533e+01,-4.166273403763459e+01
	-6.229763717270533e+01,-4.166273403763459e+01
	-6.229763717270533e+01,-4.166273403763459e+01
	7.494517332552319e+01,0.0
	3.749487336661052e+01,0.0
	-2.552135939144426e+00,0.0

 12	1.737800828749376e+00,0.000000000000000e+00
	1.000000000000000e+00,0.000000000000000e+00
	9.522562265167055e-01,2.133059784295187e-01
	-3.832518382511723e+00,-6.640769919509122e-01
	1.424523212032301e+01,5.087658393247447e+00
	-6.367865661946951e+01,-4.024224384682421e+01
	-6.367865661946951e+01,-4.024224384682421e+01
	-6.367865661946951e+01,-4.024224384682421e+01
	7.532867646977192e+01,0.0
	3.753920673829080e+01,0.0
	-2.578005389460261e+00,0.0

 13	1.819700858609985e+00,0.000000000000000e+00
	1.000000000000000e+00,0.000000000000000e+00
	9.562738805226140e-01,2.045639328683146e-01
	-3.842366747220163e+00,-6.358158439871120e-01
	1.435743964443222e+01,4.883622031935345e+00
	-6.495923215857744e+01,-3.883254793130311e+01
	-6.495923215857744e+01,-3.883254793130311e+01
	-6.495923215857744e+01,-3.883254793130311e+01
	7.568136244458681e+01,0.0
	3.757977883596138e+01,0.0
	-2.602793289804779e+00,0.0

 14	1.905460717963249e+00,0.000000000000000e+00
	1.000000000000000e+00,0.000000000000000e+00
	9.599676283480775e-01,1.961106263737465e-01
	-3.851392669214121e+00,-6.086236287365872e-01
	1.446061515891991e+01,4.685709536376825e+00
	-6.614497349726801e+01,-3.743895342256908e+01
	-6.614497349726801e+01,-3.743895342256908e+01
	-6.614497349726801e+01,-3.743895342256908e+01
	7.600547843630473e+01,0.0
	3.761689794269657e+01,0.0
	-2.626538129123516e+00,0.0

 15	1.995262314968881e+00,0.000000000000000e+00
	1.000000000000000e+00,0.000000000000000e+00
	9.633612758736260e-01,1.879453904362580e-01
	-3.859661352540458e+00,-5.824770436107114e-01
	1.455541878594850e+01,4.494008383920940e+00
	-6.724146826214617e+01,-3.606598078969720e+01
	-6.724146826214617e+01,-3.606598078969720e+01
	-6.724146826214617e+01,-3.606598078969720e+01
	7.630314557324631e+01,0.0
	3.765084883955483e+01,0.0
	-2.649277881867743e+00,0.0

 16	2.089296130854041e+00,0.000000000000000e+00
	1.000000000000000e+00,0.000000000000000e+00
	9.664772582396922e-01,1.800662251040950e-01
	-3.867233408296872e+00,-5.573509093003397e-01
	1.464247360341886e+01,4.308561456561161e+00
	-6.825422048613976e+01,-3.471743379019775e+01
	-6.825422048613976e+01,-3.471743379019775e+01
	-6.825422048613976e+01,-3.471743379019775e+01
	7.657635942735423e+01,0.0
	3.768189430782436e+01,0.0
	-2.671049892876161e+00,0.0

 17	2.187761623949555e+00,0.000000000000000e+00
	1.000000000000000e+00,0.000000000000000e+00
	9.693366536083755e-01,1.724699913442229e-01
	-3.874165080350618e+00,-5.332185778626395e-01
	1.472236573431088e+01,4.129373104613976e+00
	-6.918860176197947e+01,-3.339646799580169e+01
	-6.918860176197947e+01,-3.339646799580169e+01
	-6.918860176197947e+01,-3.339646799580169e+01
	7.682699192583551e+01,0.0
	3.771027658421334e+01,0.0
	-2.691890781681760e+00,0.0

 18	2.290867652767775e+00,0.000000000000000e+00
	1.000000000000000e+00,0.000000000000000e+00
	9.719592103632427e-01,1.651525855498332e-01
	-3.880508477965609e+00,-5.100522910171916e-01
	1.479564487765690e+01,3.956414636583372e+00
	-7.004981343653000e+01,-3.210565677479037e+01
	-7.004981343653000e+01,-3.210565677479037e+01
	-7.004981343653000e+01,-3.210565677479037e+01
	7.705679437553383e+01,0.0
	3.773621876107810e+01,0.0
	-2.711836364200116e+00,0.0

 19	2.398832919019493e+00,0.000000000000000e+00
	1.000000000000000e+00,0.000000000000000e+00
	9.743633848216964e-01,1.581090968178336e-01
	-3.886311810965881e+00,-4.878234930235446e-01
	1.486282518535037e+01,3.789629259882384e+00
	-7.084285831067103e+01,-3.084705393803448e+01
	-7.084285831067103e+01,-3.084705393803448e+01
	-7.084285831067103e+01,-3.084705393803448e+01
	7.726740134288082e+01,0.0
	3.775992612598631e+01,0.0
	-2.730921589876033e+00,0.0

 20	2.511886431509583e+00,0.000000000000000e+00
	1.000000000000000e+00,0.000000000000000e+00
	9.765663869350921e-01,1.513339478298401e-01
	-3.891619623907015e+00,-4.665031023734695e-01
	1.492438640288571e+01,3.628936502819607e+00
	-7.157252042533433e+01,-2.962225252301068e+01
	-7.157252042533433e+01,-2.962225252301068e+01
	-7.157252042533433e+01,-2.962225252301068e+01
	7.746033516950409e+01,0.0
	3.778158743677386e+01,0.0
	-2.749180492503449e+00,0.0

 21	2.630267991895385e+00,0.000000000000000e+00
	1.000000000000000e+00,0.000000000000000e+00
	9.785842318212965e-01,1.448210203153910e-01
	-3.896473026480771e+00,-4.460617463559077e-01
	1.498077520490220e+01,3.474236151947446e+00
	-7.224335164471371e+01,-2.843243940588504e+01
	-7.224335164471371e+01,-2.843243940588504e+01
	-7.224335164471371e+01,-2.843243940588504e+01
	7.763701093828307e+01,0.0
	3.780137612989611e+01,0.0
	-2.766646153071261e+00,0.0

 22	2.754228703338170e+00,0.000000000000000e+00
	1.000000000000000e+00,0.000000000000000e+00
	9.804317953120716e-01,1.385637661615452e-01
	-3.900909917991582e+00,-4.264699623197565e-01
	1.503240666758165e+01,3.325411740726851e+00
	-7.285966388225579e+01,-2.727844560145632e+01
	-7.285966388225579e+01,-2.727844560145632e+01
	-7.285966388225579e+01,-2.727844560145632e+01
	7.779874173447088e+01,0.0
	3.781945146108039e+01,0.0
	-2.783350673127523e+00,0.0

 23	2.884031503126609e+00,0.000000000000000e+00
	1.000000000000000e+00,0.000000000000000e+00
	9.821228720002876e-01,1.325553052747864e-01
	-3.904965204278188e+00,-4.076983692049855e-01
	1.507966582998776e+01,3.182333626106368e+00
	-7.342552594986904e+01,-2.616079224210233e+01
	-7.342552594986904e+01,-2.616079224210233e+01
	-7.342552594986904e+01,-2.616079224210233e+01
	7.794674407407493e+01,0.0
	3.783595957838812e+01,0.0
	-2.799325157291090e+00,0.0

 24	3.019951720402020e+00,0.000000000000000e+00
	1.000000000000000e+00,0.000000000000000e+00
	9.836702345398107e-01,1.267885113087372e-01
	-3.908671005901371e+00,-3.897178126522536e-01
	1.512290930512957e+01,3.044861689219971e+00
	-7.394476413985051e+01,-2.507973232522101e+01
	-7.394476413985051e+01,-2.507973232522101e+01
	-7.394476413985051e+01,-2.507973232522101e+01
	7.808214339529145e+01,0.0
	3.785103452861613e+01,0.0
	-2.814599703671251e+00,0.0

 25	3.162277660168384e+00,0.000000000000000e+00
	1.000000000000000e+00,0.000000000000000e+00
	9.850856931860732e-01,1.212560863503329e-01
	-3.912056856781243e+00,-3.724994867232405e-01
	1.516246690904098e+01,2.912847695283855e+00
	-7.442096577010463e+01,-2.403528838990273e+01
	-7.442096577010463e+01,-2.403528838990273e+01
	-7.442096577010463e+01,-2.403528838990273e+01
	7.820597952932293e+01,0.0
	3.786479919861636e+01,0.0
	-2.829203401081767e+00,0.0

 26	3.311311214825916e+00,0.000000000000000e+00
	1.000000000000000e+00,0.000000000000000e+00
	9.863801547681905e-01,1.159506256199091e-01
	-3.915149892768538e+00,-3.560150350025125e-01
	1.519864328259686e+01,2.786137346184830e+00
	-7.485748503420371e+01,-2.302728633291003e+01
	-7.485748503420371e+01,-2.302728633291003e+01
	-7.485748503420371e+01,-2.302728633291003e+01
	7.831921208428911e+01,0.0
	3.787736619358122e+01,0.0
	-2.843164332051368e+00,0.0

 27	3.467368504525322e+00,0.000000000000000e+00
	1.000000000000000e+00,0.000000000000000e+00
	9.875636804581851e-01,1.108646731874981e-01
	-3.917975029887314e+00,-3.402366335921184e-01
	1.523171948631766e+01,2.664572057289035e+00
	-7.525745059904338e+01,-2.205538560574466e+01
	-7.525745059904338e+01,-2.205538560574466e+01
	-7.525745059904338e+01,-2.205538560574466e+01
	7.842272569150822e+01,0.0
	3.788883865477207e+01,0.0
	-2.856509580743923e+00,0.0

 28	3.630780547701019e+00,0.000000000000000e+00
	1.000000000000000e+00,0.000000000000000e+00
	9.886455418507865e-01,1.059907696475604e-01
	-3.920555132169472e+00,-3.251370582638924e-01
	1.526195455293651e+01,2.547990487862834e+00
	-7.562377448182927e+01,-2.111910605230501e+01
	-7.562377448182927e+01,-2.111910605230501e+01
	-7.562377448182927e+01,-2.111910605230501e+01
	7.851733507530091e+01,0.0
	3.789931101934081e+01,0.0
	-2.869265245000201e+00,0.0

 29	3.801893963205618e+00,0.000000000000000e+00
	1.000000000000000e+00,0.000000000000000e+00
	9.896342749919813e-01,1.013214926282031e-01
	-3.922911169170177e+00,-3.106897378050590e-01
	1.528958698644658e+01,2.436229852261313e+00
	-7.595916181796888e+01,-2.021785165392310e+01
	-7.595916181796888e+01,-2.021785165392310e+01
	-7.595916181796888e+01,-2.021785165392310e+01
	7.860378991873370e+01,0.0
	3.790886972514244e+01,0.0
	-2.881456451806434e+00,0.0

 30	3.981071705534979e+00,0.000000000000000e+00
	1.000000000000000e+00,0.000000000000000e+00
	9.905377320983846e-01,9.684949094285594e-02
	-3.925062363361290e+00,-2.968687953753847e-01
	1.531483619945741e+01,2.329127036779473e+00
	-7.626612119994732e+01,-1.935093144756978e+01
	-7.626612119994732e+01,-1.935093144756978e+01
	-7.626612119994732e+01,-1.935093144756978e+01
	7.868277950589697e+01,0.0
	3.791759386346965e+01,0.0
	-2.893107375577936e+00,0.0

 31	4.168693834703362e+00,0.000000000000000e+00
	1.000000000000000e+00,0.000000000000000e+00
	9.913631307951951e-01,9.256751312426564e-02
	-3.927026327701185e+00,-2.836490794983011e-01
	1.533790388334934e+01,2.226519544844565e+00
	-7.654697532716135e+01,-1.851757787628199e+01
	-7.654697532716135e+01,-1.851757787628199e+01
	-7.654697532716135e+01,-1.851757787628199e+01
	7.875493712867286e+01,0.0
	3.792555578270044e+01,0.0
	-2.904241258722283e+00,0.0

 32	4.365158322401668e+00,0.000000000000000e+00
	1.000000000000000e+00,0.000000000000000e+00
	9.921171007705382e-01,8.846843101398842e-02
	-3.928819193734889e+00,-2.710061861238200e-01
	1.535897530782083e+01,2.128246291104385e+00
	-7.680387175775464e+01,-1.771696281995962e+01
	-7.680387175775464e+01,-1.771696281995962e+01
	-7.680387175775464e+01,-1.771696281995962e+01
	7.882084425166640e+01,0.0
	3.793282164583056e+01,0.0
	-2.914880434014189e+00,0.0

 33	4.570881896148760e+00,0.000000000000000e+00
	1.000000000000000e+00,0.000000000000000e+00
	9.928057278005025e-01,8.454525901652993e-02
	-3.930455730639579e+00,-2.589164730385976e-01
	1.537822054815308e+01,2.034148262931627e+00
	-7.703879359707348e+01,-1.694821154096149e+01
	-7.703879359707348e+01,-1.694821154096149e+01
	-7.703879359707348e+01,-1.694821154096149e+01
	7.888103443369432e+01,0.0
	3.793945194482426e+01,0.0
	-2.925046348375912e+00,0.0

 34	4.786300923226394e+00,0.000000000000000e+00
	1.000000000000000e+00,0.000000000000000e+00
	9.934345951442177e-01,8.079116956647346e-02
	-3.931949455650958e+00,-2.473570677456289e-01
	1.539579563986972e+01,1.944069065974674e+00
	-7.725356999395659e+01,-1.621041476351974e+01
	-7.725356999395659e+01,-1.621041476351974e+01
	-7.725356999395659e+01,-1.621041476351974e+01
	7.893599700780683e+01,0.0
	3.794550197463290e+01,0.0
	-2.934759587711314e+00,0.0

 35	5.011872336272734e+00,0.000000000000000e+00
	1.000000000000000e+00,0.000000000000000e+00
	9.940088223436032e-01,7.719950530024665e-02
	-3.933312736325258e+00,-2.363058698022350e-01
	1.541184366149137e+01,1.857855368614302e+00
	-7.744988634649384e+01,-1.550263908966681e+01
	-7.744988634649384e+01,-1.550263908966681e+01
	-7.744988634649384e+01,-1.550263908966681e+01
	7.898618052437577e+01,0.0
	3.795102226960416e+01,0.0
	-2.944039902490245e+00,0.0

 36	5.248074602497739e+00,0.000000000000000e+00
	1.000000000000000e+00,0.000000000000000e+00
	9.945331014895222e-01,7.376378837165438e-02
	-3.934556885106919e+00,-2.257415484847425e-01
	1.542649574698446e+01,1.775357258576855e+00
	-7.762929414489912e+01,-1.482393593795656e+01
	-7.762929414489912e+01,-1.482393593795656e+01
	-7.762929414489912e+01,-1.482393593795656e+01
	7.903199596446940e+01,0.0
	3.795605900495152e+01,0.0
	-2.952906233822955e+00,0.0

 37	5.495408738576259e+00,0.000000000000000e+00
	1.000000000000000e+00,0.000000000000000e+00
	9.950117310365023e-01,7.047772730143723e-02
	-3.935692246662924e+00,-2.156435365371253e-01
	1.543987203003365e+01,1.696428523458516e+00
	-7.779322039962454e+01,-1.417334917482330e+01
	-7.779322039962454e+01,-1.417334917482330e+01
	-7.779322039962454e+01,-1.417334917482330e+01
	7.907381973179255e+01,0.0
	3.796065436577479e+01,0.0
	-2.961376739802420e+00,0.0

 38	5.754399373371584e+00,0.000000000000000e+00
	1.000000000000000e+00,0.000000000000000e+00
	9.954486472628439e-01,6.733522170732684e-02
	-3.936728278443748e+00,-2.059920206671963e-01
	1.545208252276185e+01,1.620926865576443e+00
	-7.794297662016683e+01,-1.354992159270380e+01
	-7.794297662016683e+01,-1.354992159270380e+01
	-7.794297662016683e+01,-1.354992159270380e+01
	7.911199643278063e+01,0.0
	3.796484688601466e+01,0.0
	-2.969468821925771e+00,0.0

 39	6.025595860743593e+00,0.000000000000000e+00
	1.000000000000000e+00,0.000000000000000e+00
	9.958474534831487e-01,6.433036522052421e-02
	-3.937673624915444e+00,-1.967679293658355e-01
	1.546322793181974e+01,1.548714060340567e+00
	-7.807976732395514e+01,-1.295270037405152e+01
	-7.807976732395514e+01,-1.295270037405152e+01
	-7.807976732395514e+01,-1.295270037405152e+01
	7.914684145525283e+01,0.0
	3.796867175960225e+01,0.0
	-2.977199151435423e+00,0.0

 40	6.309573444801949e+00,0.000000000000000e+00
	1.000000000000000e+00,0.000000000000000e+00
	9.962114471267147e-01,6.145744685820880e-02
	-3.938536185899194e+00,-1.879529185495515e-01
	1.547340041495907e+01,1.479656066241475e+00
	-7.820469806560116e+01,-1.238074166620573e+01
	-7.820469806560116e+01,-1.238074166620573e+01
	-7.820469806560116e+01,-1.238074166620573e+01
	7.917864335625589e+01,0.0
	3.797216112590910e+01,0.0
	-2.984583695446526e+00,0.0

 41	6.606934480075978e+00,0.000000000000000e+00
	1.000000000000000e+00,0.000000000000000e+00
	9.965436447986596e-01,5.871095108910040e-02
	-3.939323179422957e+00,-1.795293554589681e-01
	1.548268428129512e+01,1.413623093567056e+00
	-7.831878298554493e+01,-1.183311437899442e+01
	-7.831878298554493e+01,-1.183311437899442e+01
	-7.831878298554493e+01,-1.183311437899442e+01
	7.920766606991552e+01,0.0
	3.797534433147250e+01,0.0
	-2.991637742749524e+00,0.0

 42	6.918309709189384e+00,0.000000000000000e+00
	1.000000000000000e+00,0.000000000000000e+00
	9.968468054417008e-01,5.608555679977380e-02
	-3.940041199492483e+00,-1.714803011878823e-01
	1.549115663858252e+01,1.350489638086407e+00
	-7.842295188430333e+01,-1.130890330487947e+01
	-7.842295188430333e+01,-1.130890330487947e+01
	-7.842295188430333e+01,-1.130890330487947e+01
	7.923415094646290e+01,0.0
	3.797824816988137e+01,0.0
	-2.998375929196555e+00,0.0

