Title: * sky130 bjt 3-stage high-frequency ch/riso sweep ac: ch=15p, riso=470k
Date: Fri May 22 22:49:31  2026
Command: ngspice-46, Build Mar 29 2026   15:02:07
Plotname: AC Analysis
Flags: complex
No. Variables: 9
No. Points: 721
Variables:
	0	frequency	frequency grid=3
	1	v(vin)	voltage
	2	v(b3_collector)	voltage
	3	v(vout_drv)	voltage
	4	v(vout_final)	voltage
	5	gain	notype
	6	gain_vv	notype
	7	gain_db	decibel
	8	phase_deg	phase
Values:
 0	1.000000000000000e-03,0.000000000000000e+00
	1.000000000000000e+00,0.000000000000000e+00
	4.860830177670129e-13,7.904423276782344e-10
	-2.483247083918799e-13,2.307990052319930e-16
	-2.483247083850640e-13,2.308063385017410e-16
	-2.483247083850640e-13,2.308063385017410e-16
	2.483248156469525e-13,0.0
	-2.520995975654114e+02,0.0
	3.140663200078947e+00,0.0

 1	1.029200527194428e-03,0.000000000000000e+00
	1.000000000000000e+00,0.000000000000000e+00
	5.453941116389337e-13,8.617279548034821e-10
	-2.786248964602983e-13,2.665225289152455e-16
	-2.786248964521976e-13,2.665309972427654e-16
	-2.786248964521976e-13,2.665309972427654e-16
	2.786250239331893e-13,0.0
	-2.510995976241380e+02,0.0
	3.140636059547631e+00,0.0

 2	1.059253725177289e-03,0.000000000000000e+00
	1.000000000000000e+00,0.000000000000000e+00
	6.119422526376847e-13,9.394424380202523e-10
	-3.126222649427062e-13,3.077754095098431e-16
	-3.126222649330784e-13,3.077851885815683e-16
	-3.126222649330784e-13,3.077851885815683e-16
	3.126224164445189e-13,0.0
	-2.500995976863420e+02,0.0
	3.140608126498600e+00,0.0

 3	1.090184492385128e-03,0.000000000000000e+00
	1.000000000000000e+00,0.000000000000000e+00
	6.866104939027068e-13,1.024165560140638e-09
	-3.507679377579296e-13,3.554134916325442e-16
	-3.507679377464869e-13,3.554247843279894e-16
	-3.507679377464869e-13,3.554247843279894e-16
	3.507681178181687e-13,0.0
	-2.490995977522363e+02,0.0
	3.140579377789930e+00,0.0

 4	1.122018454301964e-03,0.000000000000000e+00
	1.000000000000000e+00,0.000000000000000e+00
	7.703896373231917e-13,1.116529391349263e-09
	-3.935680842083648e-13,4.104250891801844e-16
	-3.935680841947652e-13,4.104381297809416e-16
	-3.935680841947652e-13,4.104381297809416e-16
	3.935682982103566e-13,0.0
	-2.480995978220291e+02,0.0
	3.140549789603940e+00,0.0

 5	1.154781984689459e-03,0.000000000000000e+00
	1.000000000000000e+00,0.000000000000000e+00
	8.643913808646796e-13,1.217223004701618e-09
	-4.415906355196993e-13,4.739514891750814e-16
	-4.415906355035362e-13,4.739665482252920e-16
	-4.415906355035362e-13,4.739665482252920e-16
	4.415908898615389e-13,0.0
	-2.470995978959610e+02,0.0
	3.140519337427460e+00,0.0

 6	1.188502227437019e-03,0.000000000000000e+00
	1.000000000000000e+00,0.000000000000000e+00
	9.698630701177514e-13,1.326997616894440e-09
	-4.954728209232013e-13,5.473106292372455e-16
	-4.954728209039914e-13,5.473280191563849e-16
	-4.954728209039914e-13,5.473280191563849e-16
	4.954731232090388e-13,0.0
	-2.460995979742738e+02,0.0
	3.140487996031526e+00,0.0

 7	1.223207119049932e-03,0.000000000000000e+00
	1.000000000000000e+00,0.000000000000000e+00
	1.088204249801705e-12,1.446672192646690e-09
	-5.559296232745179e-13,6.320244398972982e-16
	-5.559296232516870e-13,6.320445214617178e-16
	-5.559296232516870e-13,6.320445214617178e-16
	5.559299825419023e-13,0.0
	-2.450995980572262e+02,0.0
	3.140455739450476e+00,0.0

 8	1.258925411794168e-03,0.000000000000000e+00
	1.000000000000000e+00,0.000000000000000e+00
	1.220985234858003e-12,1.577139554509698e-09
	-6.237632664118633e-13,7.298504190044037e-16
	-6.237632663847286e-13,7.298736088320973e-16
	-6.237632663847286e-13,7.298736088320973e-16
	6.237636934019411e-13,0.0
	-2.440995981450905e+02,0.0
	3.140422540960435e+00,0.0

 9	1.295686697517020e-03,0.000000000000000e+00
	1.000000000000000e+00,0.000000000000000e+00
	1.369967947554582e-12,1.719373043682778e-09
	-6.998738601422424e-13,8.428180932774498e-16
	-6.998738601099927e-13,8.428448724713251e-16
	-6.998738601099927e-13,8.428448724713251e-16
	6.998743676208900e-13,0.0
	-2.430995982381659e+02,0.0
	3.140388373057181e+00,0.0

 10	1.333521432163325e-03,0.000000000000000e+00
	1.000000000000000e+00,0.000000000000000e+00
	1.537129297106646e-12,1.874433781536007e-09
	-7.852713441109208e-13,9.732711234460625e-16
	-7.852713440725921e-13,9.733020475750346e-16
	-7.852713440725921e-13,9.733020475750346e-16
	7.852719472504102e-13,0.0
	-2.420995983367541e+02,0.0
	3.140353207433356e+00,0.0

 11	1.372460961007563e-03,0.000000000000000e+00
	1.000000000000000e+00,0.000000000000000e+00
	1.724687412030999e-12,2.043478585998261e-09
	-8.810888890346558e-13,1.123915926497164e-15
	-8.810888889891019e-13,1.123951637122139e-15
	-8.810888889891019e-13,1.123951637122139e-15
	8.810896058672651e-13,0.0
	-2.410995984411845e+02,0.0
	3.140317014955012e+00,0.0

 12	1.412537544622755e-03,0.000000000000000e+00
	1.000000000000000e+00,0.000000000000000e+00
	1.935131073333143e-12,2.227768601883412e-09
	-9.885979331287894e-13,1.297877823763759e-15
	-9.885979330746486e-13,1.297919061747628e-15
	-9.885979330746486e-13,1.297919061747628e-15
	9.885987850859206e-13,0.0
	-2.400995985518080e+02,0.0
	3.140279765637478e+00,0.0

 13	1.453784385607663e-03,0.000000000000000e+00
	1.000000000000000e+00,0.000000000000000e+00
	2.171252739088292e-12,2.428678709538892e-09
	-1.109225053250586e-12,1.498765879719746e-15
	-1.109225053186239e-12,1.498813500597529e-15
	-1.109225053186239e-12,1.498813500597529e-15
	1.109226065803506e-12,0.0
	-2.390995986689802e+02,0.0
	3.140241428620514e+00,0.0

 14	1.496235656094435e-03,0.000000000000000e+00
	1.000000000000000e+00,0.000000000000000e+00
	2.436185598612219e-12,2.647707781992524e-09
	-1.244570894619436e-12,1.730747776631207e-15
	-1.244570894542960e-12,1.730802768359205e-15
	-1.244570894542960e-12,1.730802768359205e-15
	1.244572098040803e-12,0.0
	-2.380995987930915e+02,0.0
	3.140201972142750e+00,0.0

 15	1.539926526059493e-03,0.000000000000000e+00
	1.000000000000000e+00,0.000000000000000e+00
	2.733445147927400e-12,2.886489867137994e-09
	-1.396431410305102e-12,1.998636278444279e-15
	-1.396431410214210e-12,1.998699781896478e-15
	-1.396431410214210e-12,1.998699781896478e-15
	1.396432840574034e-12,0.0
	-2.370995989245651e+02,0.0
	3.140161363515367e+00,0.0

 16	1.584893192461115e-03,0.000000000000000e+00
	1.000000000000000e+00,0.000000000000000e+00
	3.066975838209254e-12,3.146806378385495e-09
	-1.566821692318572e-12,2.307989077715484e-15
	-1.566821692210547e-12,2.308062410352423e-15
	-1.566821692210547e-12,2.308062410352423e-15
	1.566823392196329e-12,0.0
	-2.360995990638270e+02,0.0
	3.140119569095019e+00,0.0

 17	1.631172909227840e-03,0.000000000000000e+00
	1.000000000000000e+00,0.000000000000000e+00
	3.441203416175390e-12,3.430599384696061e-09
	-1.758002710512720e-12,2.665224097011601e-15
	-1.758002710384332e-12,2.665308780212746e-15
	-1.758002710384332e-12,2.665308780212746e-15
	1.758004730821152e-12,0.0
	-2.350995992113342e+02,0.0
	3.140076554255960e+00,0.0

 18	1.678804018122562e-03,0.000000000000000e+00
	1.000000000000000e+00,0.000000000000000e+00
	3.861093650960456e-12,3.739986099166460e-09
	-1.972511314105806e-12,3.077752636861555e-15
	-1.972511313953216e-12,3.077850427488223e-15
	-1.972511313953216e-12,3.077850427488223e-15
	1.972513715246790e-12,0.0
	-2.340995993675897e+02,0.0
	3.140032283361355e+00,0.0

 19	1.727825980507865e-03,0.000000000000000e+00
	1.000000000000000e+00,0.000000000000000e+00
	4.332218226772839e-12,4.077274674275254e-09
	-2.213193893936181e-12,3.554133132600703e-15
	-2.213193893754828e-12,3.554246059444354e-15
	-2.213193893754828e-12,3.554246059444354e-15
	2.213196747697481e-12,0.0
	-2.330995995331020e+02,0.0
	3.139986719733759e+00,0.0

 20	1.778279410038925e-03,0.000000000000000e+00
	1.000000000000000e+00,0.000000000000000e+00
	4.860828675623361e-12,4.444981421577929e-09
	-2.483244152094576e-12,4.104248709937751e-15
	-2.483244151879037e-12,4.104379115809790e-15
	-2.483244151879037e-12,4.104379115809790e-15
	2.483247543796100e-12,0.0
	-2.320995997084169e+02,0.0
	3.139939825624730e+00,0.0

 21	1.830206106311058e-03,0.000000000000000e+00
	1.000000000000000e+00,0.000000000000000e+00
	5.453939331202790e-12,4.845849584348948e-09
	-2.786245480123331e-12,4.739512222878579e-15
	-2.786245479867163e-12,4.739662813214900e-15
	-2.786245479867163e-12,4.739662813214900e-15
	2.786249511167975e-12,0.0
	-2.310995998941252e+02,0.0
	3.139891562183554e+00,0.0

 22	1.883649089489803e-03,0.000000000000000e+00
	1.000000000000000e+00,0.000000000000000e+00
	6.119420404678554e-12,5.282869803233367e-09
	-3.126218508115312e-12,5.473103027790473e-15
	-3.126218507810855e-12,5.473276926779078e-15
	-3.126218507810855e-12,5.473276926779078e-15
	3.126223299020633e-12,0.0
	-2.300996000908347e+02,0.0
	3.139841889425062e+00,0.0

 23	1.938652635952210e-03,0.000000000000000e+00
	1.000000000000000e+00,0.000000000000000e+00
	6.866102417382435e-12,5.759302427535768e-09
	-3.507674455620752e-12,6.320240405709686e-15
	-3.507674455258905e-12,6.320441221105830e-15
	-3.507674455258905e-12,6.320441221105830e-15
	3.507680149622124e-12,0.0
	-2.290996002992056e+02,0.0
	3.139790766196501e+00,0.0

 24	1.995262314968882e-03,0.000000000000000e+00
	1.000000000000000e+00,0.000000000000000e+00
	7.703893376250982e-12,6.278701838666391e-09
	-3.935674992324921e-12,7.298499305455014e-15
	-3.935674991894863e-12,7.298731203428529e-15
	-3.935674991894863e-12,7.298731203428529e-15
	3.935681759657888e-12,0.0
	-2.280996005199165e+02,0.0
	3.139738150143438e+00,0.0

 25	2.053525026457149e-03,0.000000000000000e+00
	1.000000000000000e+00,0.000000000000000e+00
	8.643910246729106e-12,6.844942967117996e-09
	-4.415899402746300e-12,8.428174957912215e-15
	-4.415899402235177e-12,8.428442749479822e-15
	-4.415899402235177e-12,8.428442749479822e-15
	4.415907445736174e-12,0.0
	-2.270996007537080e+02,0.0
	3.139683997674678e+00,0.0

 26	2.113489039836650e-03,0.000000000000000e+00
	1.000000000000000e+00,0.000000000000000e+00
	9.698626467831960e-12,7.462250200892193e-09
	-4.954719946230165e-12,9.732703925966894e-15
	-4.954719945622695e-12,9.733013166802625e-15
	-4.954719945622695e-12,9.733013166802625e-15
	4.954729505341000e-12,0.0
	-2.260996010013517e+02,0.0
	3.139628263926143e+00,0.0

 27	2.175204034019526e-03,0.000000000000000e+00
	1.000000000000000e+00,0.000000000000000e+00
	1.088203746667790e-11,8.135228900959622e-09
	-5.559286412150210e-12,1.123915032517099e-14
	-5.559286411428230e-12,1.123950743086541e-14
	-5.559286411428230e-12,1.123950743086541e-14
	5.559297773174041e-12,0.0
	-2.250996012636689e+02,0.0
	3.139570902723708e+00,0.0

 28	2.238721138568343e-03,0.000000000000000e+00
	1.000000000000000e+00,0.000000000000000e+00
	1.220984636881907e-11,8.868899758914423e-09
	-6.237620992319346e-12,1.297876730242189e-14
	-6.237620991461271e-12,1.297917968158131e-14
	-6.237620991461271e-12,1.297917968158131e-14
	6.237634494920611e-12,0.0
	-2.240996015415285e+02,0.0
	3.139511866544946e+00,0.0

 29	2.304092976055850e-03,0.000000000000000e+00
	1.000000000000000e+00,0.000000000000000e+00
	1.369967236859070e-11,9.668736253115981e-09
	-6.998724729465533e-12,1.498764542116310e-14
	-6.998724728445709e-12,1.498812162911003e-14
	-6.998724728445709e-12,1.498812162911003e-14
	6.998740777336123e-12,0.0
	-2.230996018358536e+02,0.0
	3.139451106479757e+00,0.0

 30	2.371373705661660e-03,0.000000000000000e+00
	1.000000000000000e+00,0.000000000000000e+00
	1.537128452443071e-11,1.054070548276650e-08
	-7.852696954257035e-12,1.730746140463797e-14
	-7.852696953044973e-12,1.730801132090160e-14
	-7.852696953044973e-12,1.730801132090160e-14
	7.852716027185606e-12,0.0
	-2.220996021476203e+02,0.0
	3.139388572189850e+00,0.0

 31	2.440619068041985e-03,0.000000000000000e+00
	1.000000000000000e+00,0.000000000000000e+00
	1.724686408146850e-11,1.149131268454829e-08
	-8.810869295689404e-12,1.998634277074207e-14
	-8.810869294248866e-12,1.998697780402086e-14
	-8.810869294248866e-12,1.998697780402086e-14
	8.810891963905768e-12,0.0
	-2.210996024778570e+02,0.0
	3.139324211867037e+00,0.0

 32	2.511886431509585e-03,0.000000000000000e+00
	1.000000000000000e+00,0.000000000000000e+00
	1.935129880215931e-11,1.252764976389703e-08
	-9.885956043001743e-12,2.307986629625824e-14
	-9.885956041289660e-12,2.308059962110693e-14
	-9.885956041289660e-12,2.308059962110693e-14
	9.885982984225210e-12,0.0
	-2.200996028276636e+02,0.0
	3.139257972190315e+00,0.0

 33	2.585234839562196e-03,0.000000000000000e+00
	1.000000000000000e+00,0.000000000000000e+00
	2.171251321064751e-11,1.365744820302624e-08
	-1.109222285432385e-11,2.665221102488412e-14
	-1.109222285228903e-11,2.665305785503542e-14
	-1.109222285228903e-11,2.665305785503542e-14
	1.109225487402521e-11,0.0
	-2.190996031981998e+02,0.0
	3.139189798281688e+00,0.0

 34	2.660725059798815e-03,0.000000000000000e+00
	1.000000000000000e+00,0.000000000000000e+00
	2.436183913287087e-11,1.488913674035648e-08
	-1.244567605061205e-11,3.077748973941701e-14
	-1.244567604819367e-11,3.077846764340837e-14
	-1.244567604819367e-11,3.077846764340837e-14
	1.244571410609500e-11,0.0
	-2.180996035906874e+02,0.0
	3.139119633660708e+00,0.0

 35	2.738419634264367e-03,0.000000000000000e+00
	1.000000000000000e+00,0.000000000000000e+00
	2.733443144915482e-11,1.623190425162155e-08
	-1.396427500658520e-11,3.554128652091127e-14
	-1.396427500371095e-11,3.554241578656458e-14
	-1.396427500371095e-11,3.554241578656458e-14
	1.396432023560711e-11,0.0
	-2.170996040064348e+02,0.0
	3.139047420197681e+00,0.0

 36	2.818382931264460e-03,0.000000000000000e+00
	1.000000000000000e+00,0.000000000000000e+00
	3.066973457627818e-11,1.769576830187520e-08
	-1.566817045696520e-11,4.104243229347428e-14
	-1.566817045354915e-11,4.104373634879025e-14
	-1.566817045354915e-11,4.104373634879025e-14
	1.566822421175304e-11,0.0
	-2.160996044468102e+02,0.0
	3.138973098065506e+00,0.0

 37	2.900681198693160e-03,0.000000000000000e+00
	1.000000000000000e+00,0.000000000000000e+00
	3.441200586846420e-11,1.929164987960113e-08
	-1.757997187991581e-11,4.739505518983014e-14
	-1.757997187585583e-11,4.739656108902902e-14
	-1.757997187585583e-11,4.739656108902902e-14
	1.758003576759402e-11,0.0
	-2.150996049132848e+02,0.0
	3.138896605690118e+00,0.0

 38	2.985382618917966e-03,0.000000000000000e+00
	1.000000000000000e+00,0.000000000000000e+00
	3.861090288296644e-11,2.103145487070615e-08
	-1.972504750577911e-11,5.473094827535400e-14
	-1.972504750095381e-11,5.473268726014622e-14
	-1.972504750095381e-11,5.473268726014622e-14
	1.972512343641831e-11,0.0
	-2.140996054074024e+02,0.0
	3.138817879699471e+00,0.0

 39	3.072557365267454e-03,0.000000000000000e+00
	1.000000000000000e+00,0.000000000000000e+00
	4.332214230241502e-11,2.292816287998995e-08
	-2.213186093170414e-11,6.320230375105848e-14
	-2.213186092596926e-11,6.320431189878911e-14
	-2.213186092596926e-11,6.320431189878911e-14
	2.213195117542707e-11,0.0
	-2.130996059307934e+02,0.0
	3.138736854871043e+00,0.0

 40	3.162277660168387e-03,0.000000000000000e+00
	1.000000000000000e+00,0.000000000000000e+00
	4.860823925734674e-11,2.499592406274552e-08
	-2.483234880867488e-11,7.298487035948857e-14
	-2.483234880185896e-11,7.298718933160216e-14
	-2.483234880185896e-11,7.298718933160216e-14
	2.483245606352688e-11,0.0
	-2.120996064851985e+02,0.0
	3.138653464077795e+00,0.0

 41	3.254617834980467e-03,0.000000000000000e+00
	1.000000000000000e+00,0.000000000000000e+00
	5.453933685947503e-11,2.725016468897476e-08
	-2.786234461249945e-11,8.428159949761682e-14
	-2.786234460439871e-11,8.428427740397014e-14
	-2.786234460439871e-11,8.428427740397014e-14
	2.786247208511269e-11,0.0
	-2.110996070724594e+02,0.0
	3.138567638232568e+00,0.0

 42	3.349654391578285e-03,0.000000000000000e+00
	1.000000000000000e+00,0.000000000000000e+00
	6.119413695280453e-11,2.970770222766359e-08
	-3.126205412161953e-11,9.732685567893860e-14
	-3.126205411199178e-11,9.732994807589223e-14
	-3.126205411199178e-11,9.732994807589223e-14
	3.126220562308256e-11,0.0
	-2.100996076945117e+02,0.0
	3.138479306230846e+00,0.0

 43	3.447466065731503e-03,0.000000000000000e+00
	1.000000000000000e+00,0.000000000000000e+00
	6.866094443255853e-11,3.238687080949958e-08
	-3.507658891056741e-11,1.123912786945247e-13
	-3.507658889912483e-11,1.123948497375199e-13
	-3.507658889912483e-11,1.123948497375199e-13
	3.507676897036633e-11,0.0
	-2.090996083534211e+02,0.0
	3.138388394891845e+00,0.0

 44	3.548133892335764e-03,0.000000000000000e+00
	1.000000000000000e+00,0.000000000000000e+00
	7.703883898977235e-11,3.530765800422281e-08
	-3.935656493806326e-11,1.297873983442108e-13
	-3.935656492446373e-11,1.297915221187424e-13
	-3.935656492446373e-11,1.297915221187424e-13
	3.935677893950091e-11,0.0
	-2.080996090513807e+02,0.0
	3.138294828897897e+00,0.0

 45	3.651741272548387e-03,0.000000000000000e+00
	1.000000000000000e+00,0.000000000000000e+00
	8.643898982975439e-11,3.849185393296318e-08
	-4.415877417222697e-11,1.498761182212362e-13
	-4.415877415606390e-11,1.498808802798346e-13
	-4.415877415606390e-11,1.498808802798346e-13
	4.415902851336894e-11,0.0
	-2.070996097906877e+02,0.0
	3.138198530732043e+00,0.0

 46	3.758374042884452e-03,0.000000000000000e+00
	1.000000000000000e+00,0.000000000000000e+00
	9.698613080834352e-11,4.196321382746966e-08
	-4.954693816390584e-11,1.730742030606093e-13
	-4.954693814469600e-11,1.730797021977160e-13
	-4.954693814469600e-11,1.730797021977160e-13
	4.954724044886500e-11,0.0
	-2.060996105738079e+02,0.0
	3.138099420613826e+00,0.0

 47	3.868120546330533e-03,0.000000000000000e+00
	1.000000000000000e+00,0.000000000000000e+00
	1.088202155620144e-10,4.574763524971581e-08
	-5.559255356784051e-11,1.998629249867384e-13
	-5.559255354500958e-11,1.998692752882983e-13
	-5.559255354500958e-11,1.998692752882983e-13
	5.559291283411908e-11,0.0
	-2.050996114033292e+02,0.0
	3.137997416433191e+00,0.0

 48	3.981071705534985e-03,0.000000000000000e+00
	1.000000000000000e+00,0.000000000000000e+00
	1.220982745918148e-10,4.987335129309469e-08
	-6.237584082954720e-11,2.307980480311944e-13
	-6.237584080241259e-11,2.308053812414830e-13
	-6.237584080241259e-11,2.308053812414830e-13
	6.237626781823299e-11,0.0
	-2.040996122820029e+02,0.0
	3.137892433682465e+00,0.0

 49	4.097321098135428e-03,0.000000000000000e+00
	1.000000000000000e+00,0.000000000000000e+00
	1.369964989444689e-10,5.437114120701080e-08
	-6.998680862614344e-11,2.665213580606565e-13
	-6.998680859389389e-11,2.665298263154451e-13
	-6.998680859389389e-11,2.665298263154451e-13
	6.998731610303867e-11,0.0
	-2.030996132127406e+02,0.0
	3.137784385386352e+00,0.0

 50	4.216965034285836e-03,0.000000000000000e+00
	1.000000000000000e+00,0.000000000000000e+00
	1.537125781387128e-10,5.927456001582903e-08
	-7.852644818423580e-11,3.077739773124424e-13
	-7.852644814590715e-11,3.077837562952023e-13
	-7.852644814590715e-11,3.077837562952023e-13
	7.852705132151904e-11,0.0
	-2.020996141986260e+02,0.0
	3.137673182029876e+00,0.0

 51	4.340102636447452e-03,0.000000000000000e+00
	1.000000000000000e+00,0.000000000000000e+00
	1.724683233590990e-10,6.462018884511741e-08
	-8.810807332150870e-11,3.554117397589677e-13
	-8.810807327595504e-11,3.554230323455901e-13
	-8.810807327595504e-11,3.554230323455901e-13
	8.810879015134065e-11,0.0
	-2.010996152429306e+02,0.0
	3.137558731484230e+00,0.0

 52	4.466835921509646e-03,0.000000000000000e+00
	1.000000000000000e+00,0.000000000000000e+00
	1.935126107249340e-10,7.044790782265888e-08
	-9.885882399218057e-11,4.104229462761100e-13
	-9.885882393803996e-11,4.104359867437545e-13
	-9.885882393803996e-11,4.104359867437545e-13
	9.885967594581523e-11,0.0
	-2.000996163491162e+02,0.0
	3.137440938930450e+00,0.0

 53	4.597269885308737e-03,0.000000000000000e+00
	1.000000000000000e+00,0.000000000000000e+00
	2.171246836887702e-10,7.680119358989668e-08
	-1.109213532855645e-10,4.739488679602977e-13
	-1.109213532212183e-10,4.739639268476839e-13
	-1.109213532212183e-10,4.739639268476839e-13
	1.109223658340834e-10,0.0
	-1.990996175208431e+02,0.0
	3.137319706780871e+00,0.0

 54	4.731512589614821e-03,0.000000000000000e+00
	1.000000000000000e+00,0.000000000000000e+00
	2.436178583831481e-10,8.372744364290006e-08
