Title: * sky130 bjt 3-stage cout pole-alignment target-band noise check: cout=10n, rout=10meg/10meg
Date: Fri May 22 21:36:33  2026
Command: ngspice-46, Build Mar 29 2026   15:02:07
Plotname: Noise Spectral Density Curves
Flags: real
No. Variables: 3
No. Points: 265
Variables:
	0	frequency	frequency grid=3
	1	onoise_spectrum	voltage-density
	2	inoise_spectrum	voltage-density
Values:
 0	1.000000000000000e+01
	3.811351135950823e-04
	5.903104153443147e-06

 1	1.029200527194428e+01
	3.722586734539659e-04
	5.654678091042826e-06

 2	1.059253725177289e+01
	3.632835740154231e-04
	5.416977871992723e-06

 3	1.090184492385128e+01
	3.542388022189431e-04
	5.189532563182518e-06

 4	1.122018454301964e+01
	3.451518217618033e-04
	4.971892903591750e-06

 5	1.154781984689458e+01
	3.360485036258113e-04
	4.763630213621906e-06

 6	1.188502227437019e+01
	3.269530781805468e-04
	4.564335367802127e-06

 7	1.223207119049932e+01
	3.178881071784487e-04
	4.373617826437371e-06

 8	1.258925411794168e+01
	3.088744738362022e-04
	4.191104722135770e-06

 9	1.295686697517020e+01
	2.999313891368704e-04
	4.016439997485054e-06

 10	1.333521432163325e+01
	2.910764124638047e-04
	3.849283590449996e-06

 11	1.372460961007563e+01
	2.823254846977737e-04
	3.689310664336569e-06

 12	1.412537544622755e+01
	2.736929719597715e-04
	3.536210879417985e-06

 13	1.453784385607663e+01
	2.651917182597677e-04
	3.389687703543844e-06

 14	1.496235656094434e+01
	2.568331054085913e-04
	3.249457759259486e-06

 15	1.539926526059493e+01
	2.486271186657260e-04
	3.115250205151026e-06

 16	1.584893192461115e+01
	2.405824167177522e-04
	2.986806149301994e-06

 17	1.631172909227840e+01
	2.327064047124140e-04
	2.863878092904831e-06

 18	1.678804018122562e+01
	2.250053092060949e-04
	2.746229402211928e-06

 19	1.727825980507865e+01
	2.174842540123987e-04
	2.633633807143478e-06

 20	1.778279410038925e+01
	2.101473360692483e-04
	2.525874924987602e-06

 21	1.830206106311058e+01
	2.029977005634776e-04
	2.422745807738874e-06

 22	1.883649089489803e+01
	1.960376146684049e-04
	2.324048511722036e-06

 23	1.938652635952210e+01
	1.892685393582922e-04
	2.229593688240256e-06

 24	1.995262314968882e+01
	1.826911988622413e-04
	2.139200194072553e-06

 25	2.053525026457149e+01
	1.763056474116421e-04
	2.052694720724035e-06

 26	2.113489039836650e+01
	1.701113330165531e-04
	1.969911441403900e-06

 27	2.175204034019526e+01
	1.641071580778773e-04
	1.890691674775021e-06

 28	2.238721138568343e+01
	1.582915367081267e-04
	1.814883564578466e-06

 29	2.304092976055849e+01
	1.526624486866201e-04
	1.742341774295750e-06

 30	2.371373705661659e+01
	1.472174900246977e-04
	1.672927196063277e-06

 31	2.440619068041984e+01
	1.419539201556394e-04
	1.606506673103658e-06

 32	2.511886431509584e+01
	1.368687057987842e-04
	1.542952734983608e-06

 33	2.585234839562195e+01
	1.319585615740733e-04
	1.482143345051615e-06

 34	2.660725059798814e+01
	1.272199874668977e-04
	1.423961659447552e-06

 35	2.738419634264367e+01
	1.226493032593083e-04
	1.368295797114018e-06

 36	2.818382931264459e+01
	1.182426800583328e-04
	1.315038620273249e-06

 37	2.900681198693160e+01
	1.139961690606059e-04
	1.264087524866237e-06

 38	2.985382618917966e+01
	1.099057276996397e-04
	1.215344240480457e-06

 39	3.072557365267453e+01
	1.059672433257945e-04
	1.168714639321190e-06

 40	3.162277660168386e+01
	1.021765545699751e-04
	1.124108553807586e-06

 41	3.254617834980466e+01
	9.852947054184650e-05
	1.081439602399397e-06

 42	3.349654391578284e+01
	9.502178801145326e-05
	1.040625023283574e-06

 43	3.447466065731501e+01
	9.164930671926686e-05
	1.001585515571199e-06

 44	3.548133892335763e+01
	8.840784295588323e-05
	9.642450876755357e-07

 45	3.651741272548386e+01
	8.529324154671648e-05
	9.285309125608365e-07

 46	3.758374042884451e+01
	8.230138637210102e-05
	8.943731895685364e-07

 47	3.868120546330531e+01
	7.942820954623594e-05
	8.617050125440381e-07

 48	3.981071705534983e+01
	7.666969937232258e-05
	8.304622440019396e-07

 49	4.097321098135426e+01
	7.402190718482027e-05
	8.005833950810558e-07

 50	4.216965034285834e+01
	7.148095318236663e-05
	7.720095110532868e-07

 51	4.340102636447450e+01
	6.904303134903313e-05
	7.446840621615443e-07

 52	4.466835921509644e+01
	6.670441355435281e-05
	7.185528395720508e-07

 53	4.597269885308735e+01
	6.446145291645183e-05
	6.935638562354424e-07

 54	4.731512589614819e+01
	6.231058650615548e-05
	6.696672524591000e-07

 55	4.869675251658646e+01
	6.024833746387370e-05
	6.468152060000635e-07

 56	5.011872336272738e+01
	5.827131659530232e-05
	6.249618464939468e-07

 57	5.158221650723073e+01
	5.637622350617504e-05
	6.040631740403719e-07

 58	5.308844442309900e+01
	5.455984733112419e-05
	5.840769817697333e-07

 59	5.463865498818559e+01
	5.281906710638268e-05
	5.649627822197358e-07

 60	5.623413251903509e+01
	5.115085183157222e-05
	5.466817373530259e-07

 61	5.787619883491225e+01
	4.955226026078750e-05
	5.291965920496808e-07

 62	5.956621435290124e+01
	4.802044045938130e-05
	5.124716109103688e-07

 63	6.130557921498227e+01
	4.655262915852416e-05
	4.964725182076627e-07

 64	6.309573444801953e+01
	4.514615093603035e-05
	4.811664408246639e-07

 65	6.493816315762135e+01
	4.379841724843083e-05
	4.665218540216037e-07

 66	6.683439175686169e+01
	4.250692533617842e-05
	4.525085298727935e-07

 67	6.878599123088100e+01
	4.126925702080387e-05
	4.390974882183120e-07

 68	7.079457843841404e+01
	4.008307741043930e-05
	4.262609499769913e-07

 69	7.286181745132302e+01
	3.894613352756570e-05
	4.139722926701235e-07

 70	7.498942093324584e+01
	3.785625287072230e-05
	4.022060080086107e-07

 71	7.717915155850152e+01
	3.681134192033942e-05
	3.909376614001376e-07

 72	7.943282347242844e+01
	3.580938459675918e-05
	3.801438532376654e-07

 73	8.175230379436530e+01
	3.484844067765369e-05
	3.698021818356397e-07

 74	8.413951416451982e+01
	3.392664418048160e-05
	3.598912078864188e-07

 75	8.659643233600687e+01
	3.304220171487034e-05
	3.503904203158906e-07

 76	8.912509381337490e+01
	3.219339080900141e-05
	3.412802034244862e-07

 77	9.172759353897833e+01
	3.137855821343888e-05
	3.325418052074504e-07

 78	9.440608762859272e+01
	3.059611818548704e-05
	3.241573067563937e-07

 79	9.716279515771102e+01
	2.984455075678171e-05
	3.161095926525066e-07

 80	1.000000000000004e+02
	2.912239998660975e-05
	3.083823222705321e-07

 81	1.029200527194432e+02
	2.842827220349770e-05
	3.009599019212046e-07

 82	1.059253725177293e+02
	2.776083423736599e-05
	2.938274577685972e-07

 83	1.090184492385132e+02
	2.711881164479118e-05
	2.869708094672267e-07

 84	1.122018454301968e+02
	2.650098692991243e-05
	2.803764444719092e-07

 85	1.154781984689463e+02
	2.590619776351026e-05
	2.740314929813062e-07

 86	1.188502227437024e+02
	2.533333520315665e-05
	2.679237034831135e-07

 87	1.223207119049937e+02
	2.478134191716504e-05
	2.620414188758363e-07

 88	1.258925411794173e+02
	2.424921041533829e-05
	2.563735531479418e-07

 89	1.295686697517025e+02
	2.373598128953323e-05
	2.509095686007613e-07

 90	1.333521432163330e+02
	2.324074146712184e-05
	2.456394536060696e-07

 91	1.372460961007568e+02
	2.276262248040687e-05
	2.405537008933858e-07

 92	1.412537544622761e+02
	2.230079875509964e-05
	2.356432863652351e-07

 93	1.453784385607669e+02
	2.185448592083818e-05
	2.308996484412707e-07

 94	1.496235656094440e+02
	2.142293914670373e-05
	2.263146679341082e-07

 95	1.539926526059499e+02
	2.100545150452897e-05
	2.218806484610592e-07

 96	1.584893192461121e+02
	2.060135236267243e-05
	2.175902973967867e-07

 97	1.631172909227846e+02
	2.021000581273118e-05
	2.134367073721863e-07

 98	1.678804018122568e+02
	1.983080913148467e-05
	2.094133383247040e-07

 99	1.727825980507872e+02
	1.946319128015396e-05
	2.055140001047667e-07

 100	1.778279410038932e+02
	1.910661144279192e-05
	2.017328356422538e-07

 101	1.830206106311065e+02
	1.876055760543531e-05
	1.980643046758406e-07

 102	1.883649089489810e+02
	1.842454517734452e-05
	1.945031680468244e-07

 103	1.938652635952217e+02
	1.809811565549828e-05
	1.910444725576655e-07

 104	1.995262314968890e+02
	1.778083533312899e-05
	1.876835363940345e-07

 105	2.053525026457157e+02
	1.747229405304014e-05
	1.844159351075960e-07

 106	2.113489039836658e+02
	1.717210400600540e-05
	1.812374881553298e-07

 107	2.175204034019534e+02
	1.687989857449895e-05
	1.781442459896201e-07

 108	2.238721138568351e+02
	1.659533122173308e-05
	1.751324776920003e-07

 109	2.304092976055858e+02
	1.631807442576827e-05
	1.721986591420417e-07

 110	2.371373705661668e+02
	1.604781865832108e-05
	1.693394617116413e-07

 111	2.440619068041993e+02
	1.578427140774116e-05
	1.665517414738299e-07

 112	2.511886431509594e+02
	1.552715624543013e-05
	1.638325289141899e-07

 113	2.585234839562205e+02
	1.527621193492596e-05
	1.611790191320784e-07

 114	2.660725059798825e+02
	1.503119158268884e-05
	1.585885625180677e-07

 115	2.738419634264377e+02
	1.479186182957907e-05
	1.560586558933895e-07

 116	2.818382931264470e+02
	1.455800208192197e-05
	1.535869340966128e-07

 117	2.900681198693171e+02
	1.432940378096678e-05
	1.511711620024114e-07

 118	2.985382618917977e+02
	1.410586970955032e-05
	1.488092269569335e-07

 119	3.072557365267465e+02
	1.388721333464057e-05
	1.464991316141736e-07

 120	3.162277660168398e+02
	1.367325818451279e-05
	1.442389871575549e-07

 121	3.254617834980479e+02
	1.346383725922248e-05
	1.420270068910083e-07

 122	3.349654391578297e+02
	1.325879247302466e-05
	1.398615001838778e-07

 123	3.447466065731516e+02
	1.305797412745957e-05
	1.377408667541281e-07

 124	3.548133892335777e+02
	1.286124041373071e-05
	1.356635912745606e-07

 125	3.651741272548400e+02
	1.266845694312587e-05
	1.336282382869831e-07

 126	3.758374042884466e+02
	1.247949630410833e-05
	1.316334474096677e-07

 127	3.868120546330547e+02
	1.229423764492325e-05
	1.296779288236766e-07

 128	3.981071705534999e+02
	1.211256628036582e-05
	1.277604590241546e-07

 129	4.097321098135442e+02
	1.193437332160412e-05
	1.258798768230078e-07

 130	4.216965034285851e+02
	1.175955532781365e-05
	1.240350795898891e-07

 131	4.340102636447468e+02
	1.158801397853573e-05
	1.222250197188478e-07

 132	4.466835921509662e+02
	1.141965576564340e-05
	1.204487013084645e-07

 133	4.597269885308754e+02
	1.125439170385871e-05
	1.187051770437949e-07

 134	4.731512589614838e+02
	1.109213705881389e-05
	1.169935452689002e-07

 135	4.869675251658666e+02
	1.093281109168249e-05
	1.153129472392288e-07

 136	5.011872336272759e+02
	1.077633681943065e-05
	1.136625645436162e-07

 137	5.158221650723094e+02
	1.062264078982531e-05
	1.120416166860882e-07

 138	5.308844442309922e+02
	1.047165287032032e-05
	1.104493588181800e-07

 139	5.463865498818583e+02
	1.032330605003211e-05
	1.088850796128783e-07

 140	5.623413251903534e+02
	1.017753625400659e-05
	1.073480992717988e-07

 141	5.787619883491251e+02
	1.003428216908279e-05
	1.058377676575590e-07

 142	5.956621435290151e+02
	9.893485080610240e-06
	1.043534625438270e-07

 143	6.130557921498255e+02
	9.755088719398199e-06
	1.028945879758304e-07

 144	6.309573444801982e+02
	9.619039118243652e-06
	1.014605727345666e-07

 145	6.493816315762165e+02
	9.485284477479837e-06
	1.000508688982968e-07

 146	6.683439175686200e+02
	9.353775038944447e-06
	9.866495049527457e-08

 147	6.878599123088131e+02
	9.224462967875284e-06
	9.730231224199547e-08

 148	7.079457843841436e+02
	9.097302242215145e-06
	9.596246836160011e-08

 149	7.286181745132336e+02
	8.972248548863179e-06
	9.464495147734354e-08

 150	7.498942093324620e+02
	8.849259186432997e-06
	9.334931157637319e-08

 151	7.717915155850188e+02
	8.728292974088054e-06
	9.207511503933526e-08

 152	7.943282347242881e+02
	8.609310166079718e-06
	9.082194373156707e-08

 153	8.175230379436568e+02
	8.492272371610678e-06
	8.958939415193027e-08

 154	8.413951416452022e+02
	8.377142479661083e-06
	8.837707663556688e-08

 155	8.659643233600727e+02
	8.263884588493767e-06
	8.718461460706377e-08

 156	8.912509381337532e+02
	8.152463939481697e-06
	8.601164388077254e-08

 157	9.172759353897875e+02
	8.042846855009170e-06
	8.485781200520298e-08

 158	9.440608762859316e+02
	7.935000680149235e-06
	8.372277764856761e-08

 159	9.716279515771147e+02
	7.828893727894753e-06
	8.260621002290685e-08

 160	1.000000000000009e+03
	7.724495227674038e-06
	8.150778834408956e-08

 161	1.029200527194437e+03
	7.621775276946664e-06
	8.042720132546249e-08

 162	1.059253725177299e+03
	7.520704795675194e-06
	7.936414670286305e-08

 163	1.090184492385138e+03
	7.421255483451906e-06
	7.831833078896888e-08

 164	1.122018454301974e+03
	7.323399779140567e-06
	7.728946805499088e-08

 165	1.154781984689469e+03
	7.227110822802167e-06
	7.627728073795996e-08

 166	1.188502227437030e+03
	7.132362419809353e-06
	7.528149847186075e-08

 167	1.223207119049943e+03
	7.039129006941688e-06
	7.430185794106439e-08

 168	1.258925411794179e+03
	6.947385620359755e-06
	7.333810255455920e-08

 169	1.295686697517032e+03
	6.857107865304541e-06
	7.238998213961222e-08

 170	1.333521432163337e+03
	6.768271887402204e-06
	7.145725265357949e-08

 171	1.372460961007575e+03
	6.680854345464542e-06
	7.053967591259013e-08

 172	1.412537544622768e+03
	6.594832385663321e-06
	6.963701933613734e-08

 173	1.453784385607676e+03
	6.510183616993477e-06
	6.874905570633122e-08

 174	1.496235656094448e+03
	6.426886087913543e-06
	6.787556294097914e-08

 175	1.539926526059507e+03
	6.344918264073224e-06
	6.701632387952217e-08

 176	1.584893192461129e+03
	6.264259007060623e-06
	6.617112608098507e-08

 177	1.631172909227855e+03
	6.184887554071502e-06
	6.533976163314414e-08

 178	1.678804018122577e+03
	6.106783498429883e-06
	6.452202697219469e-08

 179	1.727825980507881e+03
	6.029926770893838e-06
	6.371772271216010e-08

 180	1.778279410038941e+03
	5.954297621685633e-06
	6.292665348353384e-08

 181	1.830206106311075e+03
	5.879876603162536e-06
	6.214862778039691e-08

 182	1.883649089489820e+03
	5.806644553100906e-06
	6.138345781556525e-08

 183	1.938652635952227e+03
	5.734582578508602e-06
	6.063095938321906e-08

 184	1.995262314968900e+03
	5.663672039930600e-06
	5.989095172849006e-08

 185	2.053525026457167e+03
	5.593894536194501e-06
	5.916325742366953e-08

 186	2.113489039836669e+03
	5.525231889554895e-06
	5.844770225046892e-08

 187	2.175204034019545e+03
	5.457666131178205e-06
	5.774411508807385e-08

 188	2.238721138568363e+03
	5.391179486943531e-06
	5.705232780654320e-08

 189	2.304092976055870e+03
	5.325754363506875e-06
	5.637217516532148e-08

 190	2.371373705661681e+03
	5.261373334603702e-06
	5.570349471643014e-08

 191	2.440619068042006e+03
	5.198019127545445e-06
	5.504612671212448e-08

 192	2.511886431509607e+03
	5.135674609876200e-06
	5.439991401678852e-08

 193	2.585234839562218e+03
	5.074322776170248e-06
	5.376470202271652e-08

 194	2.660725059798838e+03
	5.013946734929031e-06
	5.314033856961470e-08

 195	2.738419634264391e+03
	4.954529695552958e-06
	5.252667386766649e-08

 196	2.818382931264484e+03
	4.896054955362144e-06
	5.192356042381704e-08

 197	2.900681198693185e+03
	4.838505886645949e-06
	5.133085297129106e-08

 198	2.985382618917992e+03
	4.781865923712941e-06
	5.074840840197566e-08

 199	3.072557365267480e+03
	4.726118549919623e-06
	5.017608570172191e-08

 200	3.162277660168414e+03
	4.671247284668064e-06
	4.961374588822211e-08

 201	3.254617834980495e+03
	4.617235670339680e-06
	4.906125195153303e-08

 202	3.349654391578314e+03
	4.564067259162883e-06
	4.851846879694538e-08

 203	3.447466065731532e+03
	4.511725599996073e-06
	4.798526319023189e-08

 204	3.548133892335794e+03
	4.460194225010325e-06
	4.746150370512710e-08

 205	3.651741272548418e+03
	4.409456636271736e-06
	4.694706067289186e-08

 206	3.758374042884484e+03
	4.359496292204895e-06
	4.644180613399492e-08

 207	3.868120546330566e+03
	4.310296593944055e-06
	4.594561379174953e-08

 208	3.981071705535018e+03
	4.261840871559764e-06
	4.545835896787203e-08

 209	4.097321098135462e+03
	4.214112370178199e-06
	4.497991855992428e-08

 210	4.216965034285871e+03
	4.167094235979737e-06
	4.451017100051534e-08

 211	4.340102636447489e+03
	4.120769502097339e-06
	4.404899621829133e-08

 212	4.466835921509683e+03
	4.075121074430423e-06
	4.359627560066257e-08

 213	4.597269885308776e+03
	4.030131717381938e-06
	4.315189195816713e-08

 214	4.731512589614861e+03
	3.985784039549089e-06
	4.271572949050281e-08

 215	4.869675251658689e+03
	3.942060479399851e-06
	4.228767375417291e-08

 216	5.011872336272783e+03
	3.898943290956150e-06
	4.186761163170420e-08

 217	5.158221650723120e+03
	3.856414529543759e-06
	4.145543130248017e-08

 218	5.308844442309948e+03
	3.814456037647340e-06
	4.105102221506090e-08

 219	5.463865498818609e+03
	3.773049430928067e-06
	4.065427506107925e-08

 220	5.623413251903560e+03
	3.732176084479490e-06
	4.026508175066034e-08

 221	5.787619883491278e+03
	3.691817119389206e-06
	3.988333538930485e-08

 222	5.956621435290179e+03
	3.651953389699393e-06
	3.950893025631777e-08

 223	6.130557921498284e+03
	3.612565469863244e-06
	3.914176178471122e-08

 224	6.309573444802011e+03
	3.573633642814223e-06
	3.878172654257152e-08

 225	6.493816315762195e+03
	3.535137888762802e-06
	3.842872221595605e-08

 226	6.683439175686231e+03
	3.497057874875874e-06
	3.808264759322422e-08

 227	6.878599123088164e+03
	3.459372945979347e-06
	3.774340255085364e-08

 228	7.079457843841470e+03
	3.422062116470204e-06
	3.741088804074739e-08

 229	7.286181745132371e+03
	3.385104063613096e-06
	3.708500607900735e-08

 230	7.498942093324656e+03
	3.348477122445641e-06
	3.676565973617870e-08

 231	7.717915155850224e+03
	3.312159282501831e-06
	3.645275312898625e-08

 232	7.943282347242919e+03
	3.276128186616257e-06
	3.614619141352738e-08

 233	8.175230379436608e+03
	3.240361132065678e-06
	3.584588077997660e-08

 234	8.413951416452062e+03
	3.204835074335397e-06
	3.555172844876214e-08

 235	8.659643233600769e+03
	3.169526633822310e-06
	3.526364266823751e-08

 236	8.912509381337575e+03
	3.134412105800002e-06
	3.498153271385324e-08

 237	9.172759353897920e+03
	3.099467473990909e-06
	3.470530888882084e-08

 238	9.440608762859361e+03
	3.064668428111336e-06
	3.443488252630619e-08

 239	9.716279515771193e+03
	3.029990385770262e-06
	3.417016599313208e-08

 240	1.000000000000014e+04
	2.995408519117828e-06
	3.391107269500125e-08

 241	1.029200527194442e+04
	2.960897786646460e-06
	3.365751708327398e-08

 242	1.059253725177303e+04
	2.926432970564419e-06
	3.340941466329222e-08

 243	1.090184492385143e+04
	2.891988720150335e-06
	3.316668200425029e-08

 244	1.122018454301979e+04
	2.857539601504634e-06
	3.292923675067823e-08

 245	1.154781984689474e+04
	2.823060154107185e-06
	3.269699763550015e-08

 246	1.188502227437035e+04
	2.788524954553676e-06
	3.246988449471735e-08

 247	1.223207119049949e+04
	2.753908687851116e-06
	3.224781828372988e-08

 248	1.258925411794185e+04
	2.719186226575222e-06
	3.203072109534328e-08

 249	1.295686697517038e+04
	2.684332718183153e-06
	3.181851617946370e-08

 250	1.333521432163343e+04
	2.649323680697379e-06
	3.161112796451296e-08

 251	1.372460961007581e+04
	2.614135106898958e-06
	3.140848208065075e-08

 252	1.412537544622774e+04
	2.578743577103483e-06
	3.121050538476428e-08

 253	1.453784385607682e+04
	2.543126380465430e-06
	3.101712598737174e-08

 254	1.496235656094455e+04
	2.507261644663560e-06
	3.082827328142109e-08

 255	1.539926526059514e+04
	2.471128473672582e-06
	3.064387797306141e-08

 256	1.584893192461136e+04
	2.434707093189247e-06
	3.046387211448226e-08

 257	1.631172909227862e+04
	2.397979003099022e-06
	3.028818913887185e-08

 258	1.678804018122584e+04
	2.360927136230041e-06
	3.011676389758746e-08

 259	1.727825980507888e+04
	2.323536022413231e-06
	2.994953269963537e-08

 260	1.778279410038948e+04
	2.285791956691869e-06
	2.978643335355566e-08

 261	1.830206106311082e+04
	2.247683170316234e-06
	2.962740521185525e-08

 262	1.883649089489827e+04
	2.209200002943767e-06
	2.947238921806043e-08

 263	1.938652635952235e+04
	2.170335074266019e-06
	2.932132795660811e-08

 264	1.995262314968908e+04
	2.131083453075520e-06
	2.917416570565152e-08

