Title: * sky130 bjt 3-stage load-buffer/filter fallback noise: ideal opamp follower plus two rc poles, r=10k, c=150p
Date: Fri May 22 23:09:15  2026
Command: ngspice-46, Build Mar 29 2026   15:02:07
Plotname: Noise Spectral Density Curves
Flags: real
No. Variables: 3
No. Points: 265
Variables:
	0	frequency	frequency grid=3
	1	onoise_spectrum	voltage-density
	2	inoise_spectrum	voltage-density
Values:
 0	1.000000000000000e+01
	3.814666002389454e-04
	5.903104160167679e-06

 1	1.029200527194428e+01
	3.725840419675098e-04
	5.654678097795123e-06

 2	1.059253725177289e+01
	3.636025881070814e-04
	5.416977878784709e-06

 3	1.090184492385128e+01
	3.545512580347507e-04
	5.189532570025771e-06

 4	1.122018454301964e+01
	3.454575467841780e-04
	4.971892910497704e-06

 5	1.154781984689458e+01
	3.363473554200502e-04
	4.763630220601870e-06

 6	1.188502227437019e+01
	3.272449430184562e-04
	4.564335374867284e-06

 7	1.223207119049932e+01
	3.181728985638260e-04
	4.373617833598899e-06

 8	1.258925411794168e+01
	3.091521309594313e-04
	4.191104729404755e-06

 9	1.295686697517020e+01
	3.002018752800650e-04
	4.016440004872652e-06

 10	1.333521432163325e+01
	2.913397133780101e-04
	3.849283597967416e-06

 11	1.372460961007563e+01
	2.825816069714895e-04
	3.689310671995098e-06

 12	1.412537544622755e+01
	2.739419413945460e-04
	3.536210887229021e-06

 13	1.453784385607663e+01
	2.654335782677372e-04
	3.389687711518927e-06

 14	1.496235656094434e+01
	2.570679154444373e-04
	3.249457767410324e-06

 15	1.539926526059493e+01
	2.488549527035227e-04
	3.115250213489512e-06

 16	1.584893192461115e+01
	2.408033617808450e-04
	2.986806157840239e-06

 17	1.631172909227840e+01
	2.329205594637353e-04
	2.863878101655162e-06

 18	1.678804018122562e+01
	2.252127826036568e-04
	2.746229411186962e-06

 19	1.727825980507865e+01
	2.176851640343658e-04
	2.633633816356080e-06

 20	1.778279410038925e+01
	2.103418085107999e-04
	2.525874934450955e-06

 21	1.830206106311058e+01
	2.031858679070793e-04
	2.422745817466466e-06

 22	1.883649089489803e+01
	1.962196150280084e-04
	2.324048521727658e-06

 23	1.938652635952210e+01
	1.894445154969558e-04
	2.229593698538082e-06

 24	1.995262314968882e+01
	1.828612972824018e-04
	2.139200204677089e-06

 25	2.053525026457149e+01
	1.764700175162500e-04
	2.052694731650150e-06

 26	2.113489039836650e+01
	1.702701263386508e-04
	1.969911452666869e-06

 27	2.175204034019526e+01
	1.642605275768805e-04
	1.890691686390506e-06

 28	2.238721138568343e+01
	1.584396361291314e-04
	1.814883576562519e-06

 29	2.304092976055849e+01
	1.528054319803397e-04
	1.742341786664854e-06

 30	2.371373705661659e+01
	1.473555108245895e-04
	1.672927208834328e-06

 31	2.440619068041984e+01
	1.420871313089861e-04
	1.606506686293977e-06

 32	2.511886431509584e+01
	1.369972589484872e-04
	1.542952748610948e-06

 33	2.585234839562195e+01
	1.320826067878746e-04
	1.482143359134157e-06

 34	2.660725059798814e+01
	1.273396729106598e-04
	1.423961674003912e-06

 35	2.738419634264367e+01
	1.227647749112939e-04
	1.368295812163255e-06

 36	2.818382931264459e+01
	1.183540814613755e-04
	1.315038635834830e-06

 37	2.900681198693160e+01
	1.141036411090546e-04
	1.264087540960082e-06

 38	2.985382618917966e+01
	1.100094084584414e-04
	1.215344257126888e-06

 39	3.072557365267453e+01
	1.060672678787157e-04
	1.168714656540955e-06

 40	3.162277660168386e+01
	1.022730548946903e-04
	1.124108571621822e-06

 41	3.254617834980466e+01
	9.862257540918869e-05
	1.081439620829632e-06

 42	3.349654391578284e+01
	9.511162290662093e-05
	1.040625042351715e-06

 43	3.447466065731501e+01
	9.173599378304358e-05
	1.001585535299494e-06

 44	3.548133892335763e+01
	8.849150094343637e-05
	9.642451080865894e-07

 45	3.651741272548386e+01
	8.537398580263870e-05
	9.285309336775473e-07

 46	3.758374042884451e+01
	8.237932881958111e-05
	8.943732114140947e-07

 47	3.868120546330531e+01
	7.950345868892338e-05
	8.617050351419128e-07

 48	3.981071705534983e+01
	7.674236030751296e-05
	8.304622673758044e-07

 49	4.097321098135426e+01
	7.409208162642282e-05
	8.005834192547937e-07

 50	4.216965034285834e+01
	7.154873949267872e-05
	7.720095360509533e-07

 51	4.340102636447450e+01
	6.910852457802032e-05
	7.446840880073207e-07

 52	4.466835921509644e+01
	6.676770548547320e-05
	7.185528662902058e-07

 53	4.597269885308735e+01
	6.452263211816421e-05
	6.935638838503065e-07

 54	4.731512589614819e+01
	6.236973838826851e-05
	6.696672809950143e-07

 55	4.869675251658646e+01
	6.030554433792956e-05
	6.468152354813373e-07

 56	5.011872336272738e+01
	5.832665773840121e-05
	6.249618769448275e-07

 57	5.158221650723073e+01
	5.642977522763886e-05
	6.040632054849770e-07

 58	5.308844442309900e+01
	5.461168304138845e-05
	5.840770142320427e-07

 59	5.463865498818559e+01
	5.286925738776275e-05
	5.649628157235132e-07

 60	5.623413251903509e+01
	5.119946451036724e-05
	5.466817719218067e-07

 61	5.787619883491225e+01
	4.959936048043750e-05
	5.291966277067121e-07

 62	5.956621435290124e+01
	4.806609075430250e-05
	5.124716476785739e-07

 63	6.130557921498227e+01
	4.659688952833003e-05
	4.964725561096101e-07

 64	6.309573444801953e+01
	4.518907891990372e-05
	4.811664798825283e-07

 65	6.493816315762135e+01
	4.384006799946765e-05
	4.665218942571215e-07

 66	6.683439175686169e+01
	4.254735169534067e-05
	4.525085713072553e-07

 67	6.878599123088100e+01
	4.130850959056134e-05
	4.390975308725169e-07

 68	7.079457843841404e+01
	4.012120462773048e-05
	4.262609938712238e-07

 69	7.286181745132302e+01
	3.898318173602983e-05
	4.139723378241509e-07

 70	7.498942093324584e+01
	3.789226639215289e-05
	4.022060544416440e-07

 71	7.717915155850152e+01
	3.684636312511244e-05
	3.909377091308453e-07

 72	7.943282347242844e+01
	3.584345397328332e-05
	3.801439022841391e-07

 73	8.175230379436530e+01
	3.488159690071061e-05
	3.698022322154103e-07

 74	8.413951416451982e+01
	3.395892417833701e-05
	3.598912596164480e-07

 75	8.659643233600687e+01
	3.307364073517915e-05
	3.503904734125784e-07

 76	8.912509381337490e+01
	3.222402248339185e-05
	3.412802579036820e-07

 77	9.172759353897833e+01
	3.140841462077571e-05
	3.325418610844642e-07

 78	9.440608762859272e+01
	3.062522991371234e-05
	3.241573640460169e-07

 79	9.716279515771102e+01
	2.987294696334293e-05
	3.161096513690206e-07

 80	1.000000000000004e+02
	2.915010845741484e-05
	3.083823824277443e-07

 81	1.029200527194432e+02
	2.845531941035511e-05
	3.009599635324705e-07

 82	1.059253725177293e+02
	2.778724539394621e-05
	2.938275208468515e-07

 83	1.090184492385132e+02
	2.714461076101479e-05
	2.869708740250043e-07

 84	1.122018454301968e+02
	2.652619686474104e-05
	2.803765105213982e-07

 85	1.154781984689463e+02
	2.593084027623596e-05
	2.740315605343626e-07

 86	1.188502227437024e+02
	2.535743100303795e-05
	2.679237725513134e-07

 87	1.223207119049937e+02
	2.480491071147828e-05
	2.620414894705022e-07

 88	1.258925411794173e+02
	2.427227095584954e-05
	2.563736252801861e-07

 89	1.295686697517025e+02
	2.375855141734825e-05
	2.509096422815238e-07

 90	1.333521432163330e+02
	2.326283815594682e-05
	2.456395288461537e-07

 91	1.372460961007568e+02
	2.278426187822367e-05
	2.405537777034949e-07

 92	1.412537544622761e+02
	2.232199622424893e-05
	2.356433647560132e-07

 93	1.453784385607669e+02
	2.187525607655976e-05
	2.308997284233392e-07

 94	1.496235656094440e+02
	2.144329589410955e-05
	2.263147495180991e-07

 95	1.539926526059499e+02
	2.102540807407093e-05
	2.218807316576469e-07

 96	1.584893192461121e+02
	2.062092134409777e-05
	2.175903822167301e-07

 97	1.631172909227846e+02
	2.022919918757613e-05
	2.134367938263533e-07

 98	1.678804018122568e+02
	1.984963830411598e-05
	2.094134264240975e-07

 99	1.727825980507872e+02
	1.948166710740002e-05
	2.055140898605607e-07

 100	1.778279410038932e+02
	1.912474426218938e-05
	2.017329270658217e-07

 101	1.830206106311065e+02
	1.877835726215612e-05
	1.980643977787731e-07

 102	1.883649089489810e+02
	1.844202104978891e-05
	1.945032628409569e-07

 103	1.938652635952217e+02
	1.811527667963639e-05
	1.910445690551020e-07

 104	1.995262314968890e+02
	1.779769002562782e-05
	1.876836346071609e-07

 105	2.053525026457157e+02
	1.748885053316421e-05
	1.844160350491088e-07

 106	2.113489039836658e+02
	1.718837001641158e-05
	1.812375898382409e-07

 107	2.175204034019534e+02
	1.689588150091101e-05
	1.781443494272803e-07

 108	2.238721138568351e+02
	1.661103811153892e-05
	1.751325828981155e-07

 109	2.304092976055858e+02
	1.633351200560800e-05
	1.721987661306786e-07

 110	2.371373705661668e+02
	1.606299335069536e-05
	1.693395704972384e-07

 111	2.440619068041993e+02
	1.579918934666173e-05
	1.665518520712126e-07

 112	2.511886431509594e+02
	1.554182329118296e-05
	1.638326413385739e-07

 113	2.585234839562205e+02
	1.529063368795637e-05
	1.611791333990817e-07

 114	2.660725059798825e+02
	1.504537339666788e-05
	1.585886786437123e-07

 115	2.738419634264377e+02
	1.480580882368071e-05
	1.560587738941119e-07

 116	2.818382931264470e+02
	1.457171915234800e-05
	1.535870539892625e-07

 117	2.900681198693171e+02
	1.434289561175184e-05
	1.511712838042524e-07

 118	2.985382618917977e+02
	1.411914078267396e-05
	1.488093506856594e-07

 119	3.072557365267465e+02
	1.390026793949968e-05
	1.464992572878963e-07

 120	3.162277660168398e+02
	1.368610042676494e-05
	1.442391147948119e-07

 121	3.254617834980479e+02
	1.347647106904315e-05
	1.420271365107613e-07

 122	3.349654391578297e+02
	1.327122161280036e-05
	1.398616318055124e-07

 123	3.447466065731516e+02
	1.307020219893394e-05
	1.377410003974573e-07

 124	3.548133892335777e+02
	1.287327086467216e-05
	1.356637269598128e-07

 125	3.651741272548400e+02
	1.268029307346215e-05
	1.336283760348143e-07

 126	3.758374042884466e+02
	1.249114127165608e-05
	1.316335872411469e-07

 127	3.868120546330547e+02
	1.230569447062414e-05
	1.296780707602947e-07

 128	3.981071705534999e+02
	1.212383785314589e-05
	1.277606030878126e-07

 129	4.097321098135442e+02
	1.194546240280883e-05
	1.258800230360149e-07

 130	4.216965034285851e+02
	1.177046455527477e-05
	1.240352279749652e-07

 131	4.340102636447468e+02
	1.159874587026672e-05
	1.222251702991128e-07

 132	4.466835921509662e+02
	1.143021272319383e-05
	1.204488541074393e-07

 133	4.597269885308754e+02
	1.126477601533310e-05
	1.187053320853897e-07

 134	4.731512589614838e+02
	1.110235090157065e-05
	1.169937025774193e-07

 135	4.869675251658666e+02
	1.094285653472166e-05
	1.153131068393644e-07

 136	5.011872336272759e+02
	1.078621582550100e-05
	1.136627264604374e-07

 137	5.158221650723094e+02
	1.063235521723679e-05
	1.120417809450401e-07

 138	5.308844442309922e+02
	1.048120447448242e-05
	1.104495254450762e-07

 139	5.463865498818583e+02
	1.033269648472872e-05
	1.088852486339019e-07

 140	5.623413251903534e+02
	1.018676707242038e-05
	1.073482707134857e-07

 141	5.787619883491251e+02
	1.004335482455461e-05
	1.058379415468043e-07

 142	5.956621435290151e+02
	9.902400927158414e-06
	1.043536389078717e-07

 143	6.130557921498255e+02
	9.763849012008764e-06
	1.028947668422559e-07

 144	6.309573444801982e+02
	9.627645012914334e-06
	1.014607541312915e-07

 145	6.493816315762165e+02
	9.493737031036646e-06
	1.000510528535674e-07

 146	6.683439175686200e+02
	9.362075208626864e-06
	9.866513703766149e-08

 147	6.878599123088131e+02
	9.232611610699329e-06
	9.730250140038503e-08

 148	7.079457843841436e+02
	9.105300114105166e-06
	9.596266016519016e-08

 149	7.286181745132336e+02
	8.980096303567587e-06
	9.464514595563063e-08

 150	7.498942093324620e+02
	8.856957374201569e-06
	9.334950875915736e-08

 151	7.717915155850188e+02
	8.735842040138493e-06
	9.207531495670026e-08

 152	7.943282347242881e+02
	8.616710448826971e-06
	9.082214641388837e-08

 153	8.175230379436568e+02
	8.499524100661842e-06
	8.958959962984180e-08

 154	8.413951416452022e+02
	8.384245773596058e-06
	8.837728493997627e-08

 155	8.659643233600727e+02
	8.270839452387165e-06
	8.718482576914110e-08

 156	8.912509381337532e+02
	8.159270262195333e-06
	8.601185793193989e-08

 157	9.172759353897875e+02
	8.049504406231695e-06
	8.485802897711851e-08

 158	9.440608762859316e+02
	7.941509107194615e-06
	8.372299757314502e-08

 159	9.716279515771147e+02
	7.835252552225576e-06
	8.260643293228080e-08

 160	1.000000000000009e+03
	7.730703841167356e-06
	8.150801427061800e-08

 161	1.029200527194437e+03
	7.627832937885400e-06
	8.042743030171325e-08

 162	1.059253725177299e+03
	7.526610624448650e-06
	7.936437876161558e-08

 163	1.090184492385138e+03
	7.427008457972661e-06
	7.831856596319552e-08

 164	1.122018454301974e+03
	7.328998729939277e-06
	7.728970637785952e-08

 165	1.154781984689469e+03
	7.232554427829278e-06
	7.627752224281885e-08

 166	1.188502227437030e+03
	7.137649198890210e-06
	7.528174319223268e-08

 167	1.223207119049943e+03
	7.044257315894999e-06
	7.430210591064108e-08

 168	1.258925411794179e+03
	6.952353644767091e-06
	7.333835380720056e-08

 169	1.295686697517032e+03
	6.861913613899794e-06
	7.239023670931554e-08

 170	1.333521432163337e+03
	6.772913185079764e-06
	7.145751057448616e-08

 171	1.372460961007575e+03
	6.685328825880506e-06
	7.053993721899844e-08

 172	1.412537544622768e+03
	6.599137483421665e-06
	6.963728406246807e-08

 173	1.453784385607676e+03
	6.514316559384120e-06
	6.874932388713162e-08

 174	1.496235656094448e+03
	6.430843886188371e-06
	6.787583461091882e-08

 175	1.539926526059507e+03
	6.348697704251098e-06
	6.701659907338349e-08

 176	1.584893192461129e+03
	6.267856640213839e-06
	6.617140483366866e-08

 177	1.631172909227855e+03
	6.188299686094632e-06
	6.534004397964307e-08

 178	1.678804018122577e+03
	6.110006179247267e-06
	6.452231294760286e-08

 179	1.727825980507881e+03
	6.032955783094401e-06
	6.371801235168783e-08

 180	1.778279410038941e+03
	5.957128468546082e-06
	6.292694682247947e-08

 181	1.830206106311075e+03
	5.882504496037686e-06
	6.214892485415762e-08

 182	1.883649089489820e+03
	5.809064398142815e-06
	6.138375865964246e-08

 183	1.938652635952227e+03
	5.736788962693280e-06
	6.063126403318994e-08

 184	1.995262314968900e+03
	5.665659216348438e-06
	5.989126022005603e-08

 185	2.053525026457167e+03
	5.595656408580279e-06
	5.916356979262665e-08

 186	2.113489039836669e+03
	5.526761996008084e-06
	5.844801853273315e-08

 187	2.175204034019545e+03
	5.458957627050203e-06
	5.774443531965788e-08

 188	2.238721138568363e+03
	5.392225126838322e-06
	5.705265202360651e-08

 189	2.304092976055870e+03
	5.326546482366584e-06
	5.637250340416188e-08

 190	2.371373705661681e+03
	5.261903827828053e-06
	5.570382701347755e-08

 191	2.440619068042006e+03
	5.198279430098080e-06
	5.504646310399661e-08

 192	2.511886431509607e+03
	5.135655674350278e-06
	5.440025454028818e-08

 193	2.585234839562218e+03
	5.074015049739435e-06
	5.376504671483542e-08

 194	2.660725059798838e+03
	5.013340135154709e-06
	5.314068746759592e-08

 195	2.738419634264391e+03
	4.953613584987395e-06
	5.252702700900768e-08

 196	2.818382931264484e+03
	4.894818114903162e-06
	5.192391784630671e-08

 197	2.900681198693185e+03
	4.836936487582078e-06
	5.133121471304556e-08

 198	2.985382618917992e+03
	4.779951498408431e-06
	5.074877450147843e-08

 199	3.072557365267480e+03
	4.723845961083300e-06
	5.017645619786859e-08

 200	3.162277660168414e+03
	4.668602693150586e-06
	4.961412082036981e-08

 201	3.254617834980495e+03
	4.614204501399661e-06
	4.906163135955499e-08

 202	3.349654391578314e+03
	4.560634167150138e-06
	4.851885272129059e-08

 203	3.447466065731532e+03
	4.507874431384056e-06
	4.798565167199322e-08

 204	3.548133892335794e+03
	4.455907979733156e-06
	4.746189678611268e-08

 205	3.651741272548418e+03
	4.404717427298601e-06
	4.694745839570848e-08

 206	3.758374042884484e+03
	4.354285303303237e-06
	4.644220854213323e-08

 207	3.868120546330566e+03
	4.304594035573523e-06
	4.594602092968188e-08

 208	3.981071705535018e+03
	4.255625934853009e-06
	4.545877088116385e-08

 209	4.097321098135462e+03
	4.207363178948940e-06
	4.498033529532929e-08

 210	4.216965034285871e+03
	4.159787796724604e-06
	4.451059260611472e-08

 211	4.340102636447489e+03
	4.112881651949138e-06
	4.404942274363802e-08

 212	4.466835921509683e+03
	4.066626427027936e-06
	4.359670709691293e-08

 213	4.597269885308776e+03
	4.021003606635648e-06
	4.315232847824540e-08

 214	4.731512589614861e+03
	3.975994461280584e-06
	4.271617108927925e-08

 215	4.869675251658689e+03
	3.931580030853851e-06
	4.228812048863195e-08

 216	5.011872336272783e+03
	3.887741108188005e-06
	4.186806356118202e-08

 217	5.158221650723120e+03
	3.844458222707158e-06
	4.145588848884405e-08

 218	5.308844442309948e+03
	3.801711624214917e-06
	4.105148472298005e-08

 219	5.463865498818609e+03
	3.759481266904938e-06
	4.065474295826601e-08

 220	5.623413251903560e+03
	3.717746793684028e-06
	4.026555510813314e-08

 221	5.787619883491278e+03
	3.676487520910705e-06
	3.988381428171432e-08

 222	5.956621435290179e+03
	3.635682423657078e-06
	3.950941476225476e-08

 223	6.130557921498284e+03
	3.595310121641903e-06
	3.914225198703666e-08

 224	6.309573444802011e+03
	3.555348865962372e-06
	3.878222252882117e-08

 225	6.493816315762195e+03
	3.515776526812804e-06
	3.842922407872846e-08

 226	6.683439175686231e+03
	3.476570582362890e-06
	3.808315543060176e-08

 227	6.878599123088164e+03
	3.437708109007039e-06
	3.774391646689865e-08

 228	7.079457843841470e+03
	3.399165773219365e-06
	3.741140814598837e-08

 229	7.286181745132371e+03
	3.360919825260901e-06
	3.708553249098583e-08

 230	7.498942093324656e+03
	3.322946095023165e-06
	3.676619258004476e-08

 231	7.717915155850224e+03
	3.285219990316067e-06
	3.645329253810954e-08

 232	7.943282347242919e+03
	3.247716497929078e-06
	3.614673753020774e-08

 233	8.175230379436608e+03
	3.210410187830362e-06
	3.584643375616412e-08

 234	8.413951416452062e+03
	3.173275220895452e-06
	3.555228844685543e-08

 235	8.659643233600769e+03
	3.136285360588349e-06
	3.526420986194302e-08

 236	8.912509381337575e+03
	3.099413989040778e-06
	3.498210728911304e-08

 237	9.172759353897920e+03
	3.062634128014107e-06
	3.470589104481526e-08

 238	9.440608762859361e+03
	3.025918465251190e-06
	3.443547247654374e-08

 239	9.716279515771193e+03
	2.989239386748149e-06
	3.417076396660809e-08

 240	1.000000000000014e+04
	2.952569015507668e-06
	3.391167893749328e-08

 241	1.029200527194442e+04
	2.915879257343357e-06
	3.365813185870530e-08

 242	1.059253725177303e+04
	2.879141854334572e-06
	3.341003825523163e-08

 243	1.090184492385143e+04
	2.842328446523657e-06
	3.316731471753751e-08

 244	1.122018454301979e+04
	2.805410642459146e-06
	3.292987891319092e-08

 245	1.154781984689474e+04
	2.768360099179040e-06
	3.269764960006071e-08

 246	1.188502227437035e+04
	2.731148612201306e-06
	3.247054664120452e-08

 247	1.223207119049949e+04
	2.693748216071491e-06
	3.224849102134378e-08

 248	1.258925411794185e+04
	2.656131295958453e-06
	3.203140486509360e-08

 249	1.295686697517038e+04
	2.618270710728729e-06
	3.181921145688499e-08

 250	1.333521432163343e+04
	2.580139927855576e-06
	3.161183526263780e-08

 251	1.372460961007581e+04
	2.541713170405544e-06
	3.140920195324420e-08

 252	1.412537544622774e+04
	2.502965576230907e-06
	3.121123842990836e-08

 253	1.453784385607682e+04
	2.463873369334288e-06
	3.101787285135909e-08

 254	1.496235656094455e+04
	2.424414043206819e-06
	3.082903466305608e-08

 255	1.539926526059514e+04
	2.384566555725767e-06
	3.064465462837552e-08

 256	1.584893192461136e+04
	2.344311534982762e-06
	3.046466486194747e-08

 257	1.631172909227862e+04
	2.303631495127228e-06
	3.028899886513302e-08

 258	1.678804018122584e+04
	2.262511061052572e-06
	3.011759156381360e-08

 259	1.727825980507888e+04
	2.220937200414238e-06
	2.995037934851829e-08

 260	1.778279410038948e+04
	2.178899461150464e-06
	2.978730011708155e-08

 261	1.830206106311082e+04
	2.136390212308620e-06
	2.962829331990377e-08

 262	1.883649089489827e+04
	2.093404885623798e-06
	2.947330000797775e-08

 263	1.938652635952235e+04
	2.049942214915432e-06
	2.932226288383162e-08

 264	1.995262314968908e+04
	2.006004470000292e-06
	2.917512635556632e-08

