Title: * sky130 bjt 3-stage explicit output low-pass section ac: rlp=47k, clp=47p, cload=10p
Date: Fri May 22 22:54:42  2026
Command: ngspice-46, Build Mar 29 2026   15:02:07
Plotname: AC Analysis
Flags: complex
No. Variables: 9
No. Points: 721
Variables:
	0	frequency	frequency grid=3
	1	v(vin)	voltage
	2	v(b3_collector)	voltage
	3	v(vout_drv)	voltage
	4	v(vout_final)	voltage
	5	gain	notype
	6	gain_vv	notype
	7	gain_db	decibel
	8	phase_deg	phase
Values:
 0	1.000000000000000e-03,0.000000000000000e+00
	1.000000000000000e+00,0.000000000000000e+00
	4.861096667803552e-13,7.904423276608954e-10
	-2.483247079271530e-13,2.311740406070222e-16
	-2.483247079232617e-13,2.311782205707708e-16
	-2.483247079232617e-13,2.311782205707708e-16
	2.483248155310759e-13,0.0
	-2.520995975694646e+02,0.0
	3.140661702514811e+00,0.0

 1	1.029200527194428e-03,0.000000000000000e+00
	1.000000000000000e+00,0.000000000000000e+00
	5.454240123230073e-13,8.617279547834594e-10
	-2.786248959079684e-13,2.669556129859815e-16
	-2.786248959033436e-13,2.669604399326583e-16
	-2.786248959033436e-13,2.669604399326583e-16
	2.786250237954687e-13,0.0
	-2.510995976284313e+02,0.0
	3.140634518253842e+00,0.0

 2	1.059253725177289e-03,0.000000000000000e+00
	1.000000000000000e+00,0.000000000000000e+00
	6.119758017561969e-13,9.394424379971301e-10
	-3.126222642862628e-13,3.082755271632704e-16
	-3.126222642807662e-13,3.082811012341421e-16
	-3.126222642807662e-13,3.082811012341421e-16
	3.126224162808396e-13,0.0
	-2.500995976908897e+02,0.0
	3.140606540198231e+00,0.0

 3	1.090184492385128e-03,0.000000000000000e+00
	1.000000000000000e+00,0.000000000000000e+00
	6.866481366318348e-13,1.024165560113937e-09
	-3.507679369777426e-13,3.559910184530821e-16
	-3.507679369712097e-13,3.559974552894716e-16
	-3.507679369712097e-13,3.559974552894716e-16
	3.507681176236329e-13,0.0
	-2.490995977570535e+02,0.0
	3.140577745168764e+00,0.0

 4	1.122018454301964e-03,0.000000000000000e+00
	1.000000000000000e+00,0.000000000000000e+00
	7.704318731587927e-13,1.116529391318429e-09
	-3.935680832811090e-13,4.110920067043483e-16
	-3.935680832733447e-13,4.110994398467626e-16
	-3.935680832733447e-13,4.110994398467626e-16
	3.935682979791485e-13,0.0
	-2.480995978271317e+02,0.0
	3.140548109309387e+00,0.0

 5	1.154781984689459e-03,0.000000000000000e+00
	1.000000000000000e+00,0.000000000000000e+00
	8.644387702502898e-13,1.217223004666012e-09
	-4.415906344176563e-13,4.747216334636062e-16
	-4.415906344084285e-13,4.747302171222049e-16
	-4.415906344084285e-13,4.747302171222049e-16
	4.415908895867501e-13,0.0
	-2.470995979013659e+02,0.0
	3.140517608067434e+00,0.0

 6	1.188502227437019e-03,0.000000000000000e+00
	1.000000000000000e+00,0.000000000000000e+00
	9.699162418813190e-13,1.326997616853322e-09
	-4.954728196134183e-13,5.481999779216082e-16
	-4.954728196024509e-13,5.482098901754917e-16
	-4.954728196024509e-13,5.482098901754917e-16
	4.954731228824492e-13,0.0
	-2.460995979799991e+02,0.0
	3.140486216173290e+00,0.0

 7	1.223207119049932e-03,0.000000000000000e+00
	1.000000000000000e+00,0.000000000000000e+00
	1.088263909499744e-12,1.446672192599208e-09
	-5.559296217178391e-13,6.330514436558253e-16
	-5.559296217048045e-13,6.330628901475128e-16
	-5.559296217048045e-13,6.330628901475128e-16
	5.559299821537510e-13,0.0
	-2.450995980632907e+02,0.0
	3.140453907619456e+00,0.0

 8	1.258925411794168e-03,0.000000000000000e+00
	1.000000000000000e+00,0.000000000000000e+00
	1.221052174137886e-12,1.577139554454867e-09
	-6.237632645617358e-13,7.310363843447387e-16
	-6.237632645462439e-13,7.310496025464850e-16
	-6.237632645462439e-13,7.310496025464850e-16
	6.237636929406110e-13,0.0
	-2.440995981515145e+02,0.0
	3.140420655639000e+00,0.0

 9	1.295686697517020e-03,0.000000000000000e+00
	1.000000000000000e+00,0.000000000000000e+00
	1.370043054659199e-12,1.719373043619459e-09
	-6.998738579433571e-13,8.441876245668027e-16
	-6.998738579249450e-13,8.442028887072639e-16
	-6.998738579249450e-13,8.442028887072639e-16
	6.998743670725936e-13,0.0
	-2.430995982449706e+02,0.0
	3.140386432683385e+00,0.0

 10	1.333521432163325e-03,0.000000000000000e+00
	1.000000000000000e+00,0.000000000000000e+00
	1.537213568660832e-12,1.874433781462887e-09
	-7.852713414975461e-13,9.748526333595470e-16
	-7.852713414756635e-13,9.748702601130027e-16
	-7.852713414756635e-13,9.748702601130027e-16
	7.852719465987640e-13,0.0
	-2.420995983439620e+02,0.0
	3.140351210399642e+00,0.0

 11	1.372460961007563e-03,0.000000000000000e+00
	1.000000000000000e+00,0.000000000000000e+00
	1.724781966266116e-12,2.043478585913826e-09
	-8.810888859286713e-13,1.125742225474157e-15
	-8.810888859026636e-13,1.125762580530322e-15
	-8.810888859026636e-13,1.125762580530322e-15
	8.810896050927992e-13,0.0
	-2.410995984488193e+02,0.0
	3.140314959606883e+00,0.0

 12	1.412537544622755e-03,0.000000000000000e+00
	1.000000000000000e+00,0.000000000000000e+00
	1.935237164925296e-12,2.227768601785907e-09
	-9.885979294373079e-13,1.299986800701176e-15
	-9.885979294063978e-13,1.300010306351894e-15
	-9.885979294063978e-13,1.300010306351894e-15
	9.885987841654540e-13,0.0
	-2.400995985598953e+02,0.0
	3.140277650272123e+00,0.0

 13	1.453784385607663e-03,0.000000000000000e+00
	1.000000000000000e+00,0.000000000000000e+00
	2.171371775807090e-12,2.428678709426294e-09
	-1.109225048863250e-12,1.501201288024274e-15
	-1.109225048826513e-12,1.501228431924503e-15
	-1.109225048826513e-12,1.501228431924503e-15
	1.109226064709528e-12,0.0
	-2.390995986775467e+02,0.0
	3.140239251485402e+00,0.0

 14	1.496235656094435e-03,0.000000000000000e+00
	1.000000000000000e+00,0.000000000000000e+00
	2.436319160000979e-12,2.647707781862501e-09
	-1.244570889405083e-12,1.733560141937698e-15
	-1.244570889361421e-12,1.733591487222526e-15
	-1.244570889361421e-12,1.733591487222526e-15
	1.244572096740612e-12,0.0
	-2.380995988021655e+02,0.0
	3.140199731434172e+00,0.0

 15	1.539926526059493e-03,0.000000000000000e+00
	1.000000000000000e+00,0.000000000000000e+00
	2.733595006262683e-12,2.886489866987844e-09
	-1.396431404107812e-12,2.001883946832168e-15
	-1.396431404055920e-12,2.001920143799762e-15
	-1.396431404055920e-12,2.001920143799762e-15
	1.396432839028734e-12,0.0
	-2.370995989341770e+02,0.0
	3.140159057376949e+00,0.0

 16	1.584893192461115e-03,0.000000000000000e+00
	1.000000000000000e+00,0.000000000000000e+00
	3.067143982017833e-12,3.146806378212106e-09
	-1.566821684953077e-12,2.311739426169870e-15
	-1.566821684891403e-12,2.311781225772730e-15
	-1.566821684891403e-12,2.311781225772730e-15
	1.566823390359734e-12,0.0
	-2.360995990740084e+02,0.0
	3.140117195616177e+00,0.0

 17	1.631172909227840e-03,0.000000000000000e+00
	1.000000000000000e+00,0.000000000000000e+00
	3.441392076620731e-12,3.430599384495833e-09
	-1.758002701758836e-12,2.669554931241034e-15
	-1.758002701685536e-12,2.669603200665447e-15
	-1.758002701685536e-12,2.669603200665447e-15
	1.758004728638377e-12,0.0
	-2.350995992221187e+02,0.0
	3.140074111470320e+00,0.0

 18	1.678804018122562e-03,0.000000000000000e+00
	1.000000000000000e+00,0.000000000000000e+00
	3.861305331448816e-12,3.739986098935241e-09
	-1.972511303701792e-12,3.082753805471943e-15
	-1.972511303614675e-12,3.082809546128853e-15
	-1.972511303614675e-12,3.082809546128853e-15
	1.972513712652554e-12,0.0
	-2.340995993790133e+02,0.0
	3.140029769245126e+00,0.0

 19	1.727825980507865e-03,0.000000000000000e+00
	1.000000000000000e+00,0.000000000000000e+00
	4.332455736171853e-12,4.077274674008245e-09
	-2.213193881570996e-12,3.559908391113588e-15
	-2.213193881467458e-12,3.559972759414111e-15
	-2.213193881467458e-12,3.559972759414111e-15
	2.213196744614234e-12,0.0
	-2.330995995452025e+02,0.0
	3.139984132204055e+00,0.0

 20	1.778279410038925e-03,0.000000000000000e+00
	1.000000000000000e+00,0.000000000000000e+00
	4.861095165533889e-12,4.444981421269588e-09
	-2.483244137398526e-12,4.110917873323492e-15
	-2.483244137275471e-12,4.110992204670118e-15
	-2.483244137275471e-12,4.110992204670118e-15
	2.483247540131653e-12,0.0
	-2.320995997212344e+02,0.0
	3.139937162537841e+00,0.0

 21	1.830206106311058e-03,0.000000000000000e+00
	1.000000000000000e+00,0.000000000000000e+00
	5.454238337778615e-12,4.845849583992883e-09
	-2.786245462657084e-12,4.747213651261659e-15
	-2.786245462510833e-12,4.747299487752827e-15
	-2.786245462510833e-12,4.747299487752827e-15
	2.786249506812811e-12,0.0
	-2.310995999077020e+02,0.0
	3.139888821333177e+00,0.0

 22	1.883649089489803e-03,0.000000000000000e+00
	1.000000000000000e+00,0.000000000000000e+00
	6.119755895548832e-12,5.282869802822192e-09
	-3.126218487356536e-12,5.481996496894739e-15
	-3.126218487182716e-12,5.482095619317589e-15
	-3.126218487182716e-12,5.482095619317589e-15
	3.126223293844406e-12,0.0
	-2.300996001052163e+02,0.0
	3.139839068540465e+00,0.0

 23	1.938652635952210e-03,0.000000000000000e+00
	1.000000000000000e+00,0.000000000000000e+00
	6.866478844299525e-12,5.759302427060950e-09
	-3.507674430948954e-12,6.330510421596149e-15
	-3.507674430742369e-12,6.330624886371150e-15
	-3.507674430742369e-12,6.330624886371150e-15
	3.507680143470218e-12,0.0
	-2.290996003144393e+02,0.0
	3.139787862940647e+00,0.0

 24	1.995262314968882e-03,0.000000000000000e+00
	1.000000000000000e+00,0.000000000000000e+00
	7.704315734162267e-12,6.278701838118083e-09
	-3.935674963002518e-12,7.310358932316598e-15
	-3.935674962756992e-12,7.310491114160524e-15
	-3.935674962756992e-12,7.310491114160524e-15
	3.935681752346419e-12,0.0
	-2.280996005360527e+02,0.0
	3.139735162111050e+00,0.0

 25	2.053525026457149e-03,0.000000000000000e+00
	1.000000000000000e+00,0.000000000000000e+00
	8.644384140056646e-12,6.844942966484818e-09
	-4.415899367896494e-12,8.441870238339576e-15
	-4.415899367604685e-12,8.442022879531915e-15
	-4.415899367604685e-12,8.442022879531915e-15
	4.415907437046406e-12,0.0
	-2.270996007708004e+02,0.0
	3.139680922390242e+00,0.0

 26	2.113489039836650e-03,0.000000000000000e+00
	1.000000000000000e+00,0.000000000000000e+00
	9.699158184839434e-12,7.462250200161009e-09
	-4.954719904811086e-12,9.748518985388776e-15
	-4.954719904464269e-12,9.748695252663678e-15
	-4.954719904464269e-12,9.748695252663678e-15
	4.954729495013179e-12,0.0
	-2.260996010194568e+02,0.0
	3.139625098841859e+00,0.0

 27	2.175204034019526e-03,0.000000000000000e+00
	1.000000000000000e+00,0.000000000000000e+00
	1.088263406291167e-11,8.135228900115258e-09
	-5.559286362923520e-12,1.125741326636340e-14
	-5.559286362511328e-12,1.125761681660743e-14
	-5.559286362511328e-12,1.125761681660743e-14
	5.559297760899376e-12,0.0
	-2.250996012828470e+02,0.0
	3.139567645217381e+00,0.0

 28	2.238721138568343e-03,0.000000000000000e+00
	1.000000000000000e+00,0.000000000000000e+00
	1.221051576073054e-11,8.868899757939372e-09
	-6.237620933813404e-12,1.299985701237613e-14
	-6.237620933323515e-12,1.300009206849481e-14
	-6.237620933323515e-12,1.300009206849481e-14
	6.237634480332228e-12,0.0
	-2.240996015618428e+02,0.0
	3.139508513917812e+00,0.0

 29	2.304092976055850e-03,0.000000000000000e+00
	1.000000000000000e+00,0.000000000000000e+00
	1.370042343858226e-11,9.668736251990014e-09
	-6.998724659931023e-12,1.501199943152532e-14
	-6.998724659348786e-12,1.501227087005240e-14
	-6.998724659348786e-12,1.501227087005240e-14
	6.998740759997719e-12,0.0
	-2.230996018573717e+02,0.0
	3.139447655954246e+00,0.0

 30	2.371373705661660e-03,0.000000000000000e+00
	1.000000000000000e+00,0.000000000000000e+00
	1.537212723871916e-11,1.054070548146625e-08
	-7.852696871615199e-12,1.733558496879657e-14
	-7.852696870923212e-12,1.733589842106356e-14
	-7.852696870923212e-12,1.733589842106356e-14
	7.852716006578950e-12,0.0
	-2.220996021704133e+02,0.0
	3.139385020907287e+00,0.0

 31	2.440619068041985e-03,0.000000000000000e+00
	1.000000000000000e+00,0.000000000000000e+00
	1.724780962232997e-11,1.149131268304678e-08
	-8.810869197469421e-12,2.001881934587059e-14
	-8.810869196646992e-12,2.001918131483549e-14
	-8.810869196646992e-12,2.001918131483549e-14
	8.810891939414723e-12,0.0
	-2.210996025020006e+02,0.0
	3.139320556885273e+00,0.0

 32	2.511886431509585e-03,0.000000000000000e+00
	1.000000000000000e+00,0.000000000000000e+00
	1.935235971630790e-11,1.252764976216156e-08
	-9.885955926265531e-12,2.311736964777401e-14
	-9.885955925288072e-12,2.311778764293285e-14
	-9.885955925288072e-12,2.311778764293285e-14
	9.885982955115988e-12,0.0
	-2.200996028532391e+02,0.0
	3.139254210481289e+00,0.0

 33	2.585234839562196e-03,0.000000000000000e+00
	1.000000000000000e+00,0.000000000000000e+00
	2.171370357573319e-11,1.365744820102509e-08
	-1.109222271558540e-11,2.669551920446420e-14
	-1.109222271442369e-11,2.669600189764445e-14
	-1.109222271442369e-11,2.669600189764445e-14
	1.109225483943162e-11,0.0
	-2.190996032252886e+02,0.0
	3.139185926728922e+00,0.0

 34	2.660725059798815e-03,0.000000000000000e+00
	1.000000000000000e+00,0.000000000000000e+00
	2.436317474425758e-11,1.488913673804428e-08
	-1.244567588571969e-11,3.082750122648381e-14
	-1.244567588433899e-11,3.082805863175155e-14
	-1.244567588433899e-11,3.082805863175155e-14
	1.244571406497900e-11,0.0
	-2.180996036193824e+02,0.0
	3.139115649056719e+00,0.0

 35	2.738419634264367e-03,0.000000000000000e+00
	1.000000000000000e+00,0.000000000000000e+00
	2.733593002953532e-11,1.623190424895146e-08
	-1.396427481061038e-11,3.559903886257673e-14
	-1.396427480896942e-11,3.559968254399014e-14
	-1.396427480896942e-11,3.559968254399014e-14
	1.396432018674074e-11,0.0
	-2.170996040368300e+02,0.0
	3.139043319241327e+00,0.0

 36	2.818382931264460e-03,0.000000000000000e+00
	1.000000000000000e+00,0.000000000000000e+00
	3.067141601082877e-11,1.769576829879037e-08
	-1.566817022404774e-11,4.110912362952316e-14
	-1.566817022209745e-11,4.110986694104229e-14
	-1.566817022209745e-11,4.110986694104229e-14
	1.566822415367426e-11,0.0
	-2.160996044790069e+02,0.0
	3.138968877359253e+00,0.0

 37	2.900681198693160e-03,0.000000000000000e+00
	1.000000000000000e+00,0.000000000000000e+00
	3.441389246871909e-11,1.929164987604051e-08
	-1.757997160309432e-11,4.747206910938223e-14
	-1.757997160077640e-11,4.747292747191217e-14
	-1.757997160077640e-11,4.747292747191217e-14
	1.758003569856864e-11,0.0
	-2.150996049473887e+02,0.0
	3.138892261737223e+00,0.0

 38	2.985382618917966e-03,0.000000000000000e+00
	1.000000000000000e+00,0.000000000000000e+00
	3.861301968286009e-11,2.103145486659439e-08
	-1.972504717677651e-11,5.481988252081195e-14
	-1.972504717402166e-11,5.482087374212709e-14
	-1.972504717402166e-11,5.482087374212709e-14
	1.972512335438178e-11,0.0
	-2.140996054435269e+02,0.0
	3.138813408901086e+00,0.0

 39	3.072557365267454e-03,0.000000000000000e+00
	1.000000000000000e+00,0.000000000000000e+00
	4.332451739047457e-11,2.292816287524177e-08
	-2.213186054068329e-11,6.330500336487731e-14
	-2.213186053740913e-11,6.330614800906366e-14
	-2.213186053740913e-11,6.330614800906366e-14
	2.213195107792586e-11,0.0
	-2.130996059690586e+02,0.0
	3.138732253523231e+00,0.0

 40	3.162277660168387e-03,0.000000000000000e+00
	1.000000000000000e+00,0.000000000000000e+00
	4.861090414940353e-11,2.499592405726243e-08
	-2.483234834394634e-11,7.310346596140057e-14
	-2.483234834005501e-11,7.310478777548074e-14
	-2.483234834005501e-11,7.310478777548074e-14
	2.483245594764699e-11,0.0
	-2.120996065257309e+02,0.0
	3.138648728368467e+00,0.0

 41	3.254617834980467e-03,0.000000000000000e+00
	1.000000000000000e+00,0.000000000000000e+00
	5.454232691685615e-11,2.725016468264298e-08
	-2.786234406016787e-11,8.441855148637216e-14
	-2.786234405554301e-11,8.442007789296348e-14
	-2.786234405554301e-11,8.442007789296348e-14
	2.786247194738838e-11,0.0
	-2.110996071153938e+02,0.0
	3.138562764238322e+00,0.0

 42	3.349654391578285e-03,0.000000000000000e+00
	1.000000000000000e+00,0.000000000000000e+00
	6.119749185155105e-11,2.970770222035175e-08
	-3.126205346517337e-11,9.748500527561434e-14
	-3.126205345967671e-11,9.748676794184115e-14
	-3.126205345967671e-11,9.748676794184115e-14
	3.126220545939791e-11,0.0
	-2.100996077399898e+02,0.0
	3.138474289913714e+00,0.0

 43	3.447466065731503e-03,0.000000000000000e+00
	1.000000000000000e+00,0.000000000000000e+00
	6.866470868989636e-11,3.238687080105600e-08
	-3.507658813037945e-11,1.125739068862461e-13
	-3.507658812384667e-11,1.125759423807084e-13
	-3.507658812384667e-11,1.125759423807084e-13
	3.507676877582632e-11,0.0
	-2.090996084015941e+02,0.0
	3.138383232095954e+00,0.0

 44	3.548133892335764e-03,0.000000000000000e+00
	1.000000000000000e+00,0.000000000000000e+00
	7.704306255481468e-11,3.530765799446937e-08
	-3.935656401080552e-11,1.299982939511809e-13
	-3.935656400304129e-11,1.300006445026089e-13
	-3.935656400304129e-11,1.300006445026089e-13
	3.935677870828679e-11,0.0
	-2.080996091024087e+02,0.0
	3.138289515346020e+00,0.0

 45	3.651741272548387e-03,0.000000000000000e+00
	1.000000000000000e+00,0.000000000000000e+00
	8.644372874631522e-11,3.849185392170351e-08
	-4.415877307018297e-11,1.501196564991483e-13
	-4.415877306095517e-11,1.501223708724821e-13
	-4.415877306095517e-11,1.501223708724821e-13
	4.415902823857400e-11,0.0
	-2.070996098447387e+02,0.0
	3.138193062022060e+00,0.0

 46	3.758374042884452e-03,0.000000000000000e+00
	1.000000000000000e+00,0.000000000000000e+00
	9.699144795855299e-11,4.196321381446720e-08
	-4.954693685412342e-11,1.733554364689672e-13
	-4.954693684315617e-11,1.733585709770356e-13
	-4.954693684315617e-11,1.733585709770356e-13
	4.954724012226954e-11,0.0
	-2.060996106310618e+02,0.0
	3.138093792215075e+00,0.0

 47	3.868120546330533e-03,0.000000000000000e+00
	1.000000000000000e+00,0.000000000000000e+00
	1.088261815007422e-10,4.574763523470081e-08
	-5.559255201116236e-11,2.001876880063263e-13
	-5.559255199812775e-11,2.001913076781146e-13
	-5.559255199812775e-11,2.001913076781146e-13
	5.559291244596031e-11,0.0
	-2.050996114639755e+02,0.0
	3.137991623682716e+00,0.0

 48	3.981071705534985e-03,0.000000000000000e+00
	1.000000000000000e+00,0.000000000000000e+00
	1.221049684828690e-10,4.987335127575565e-08
	-6.237583897943420e-11,2.311730782049697e-13
	-6.237583896394254e-11,2.311772581347110e-13
	-6.237583896394254e-11,2.311772581347110e-13
	6.237626735690724e-11,0.0
	-2.040996123462425e+02,0.0
	3.137886471781153e+00,0.0

 49	4.097321098135428e-03,0.000000000000000e+00
	1.000000000000000e+00,0.000000000000000e+00
	1.370040096110344e-10,5.437114118698798e-08
	-6.998680642727998e-11,2.669544357691800e-13
	-6.998680640886813e-11,2.669592626742588e-13
	-6.998680640886813e-11,2.669592626742588e-13
	6.998731555475115e-11,0.0
	-2.030996132807866e+02,0.0
	3.137778249394958e+00,0.0

 50	4.216965034285836e-03,0.000000000000000e+00
	1.000000000000000e+00,0.000000000000000e+00
	1.537210052419609e-10,5.927455999270705e-08
	-7.852644557088238e-11,3.082740871835634e-13
	-7.852644554899985e-11,3.082796612035522e-13
	-7.852644554899985e-11,3.082796612035522e-13
	7.852705066987776e-11,0.0
	-2.020996142707042e+02,0.0
	3.137666866864930e+00,0.0

 51	4.340102636447452e-03,0.000000000000000e+00
	1.000000000000000e+00,0.000000000000000e+00
	1.724777787206058e-10,6.462018881841655e-08
	-8.810807021553320e-11,3.559892570601373e-13
	-8.810807018952577e-11,3.559956938342866e-13
	-8.810807018952577e-11,3.559956938342866e-13
	8.810878937686312e-11,0.0
	-2.010996153192797e+02,0.0
	3.137552231913826e+00,0.0

 52	4.466835921509646e-03,0.000000000000000e+00
	1.000000000000000e+00,0.000000000000000e+00
	1.935232198104563e-10,7.044790779182524e-08
	-9.885882030072490e-11,4.110898521561285e-13
	-9.885882026981504e-11,4.110972852224101e-13
	-9.885882026981504e-11,4.110972852224101e-13
	9.885967502534849e-11,0.0
	-2.000996164299891e+02,0.0
	3.137434249569914e+00,0.0

 53	4.597269885308737e-03,0.000000000000000e+00
	1.000000000000000e+00,0.000000000000000e+00
	2.171365872730279e-10,7.680119355427770e-08
	-1.109213488982431e-10,4.747189980055306e-13
	-1.109213488615067e-10,4.747275815710032e-13
	-1.109213488615067e-10,4.747275815710032e-13
	1.109223647400865e-10,0.0
	-1.990996176065096e+02,0.0
	3.137312822088298e+00,0.0

 54	4.731512589614821e-03,0.000000000000000e+00
	1.000000000000000e+00,0.000000000000000e+00
	2.436312144179303e-10,8.372744360178277e-08
