Title: * sky130 bjt 3-stage high-frequency fourth-pole ac: chout=22p
Date: Fri May 22 21:56:32  2026
Command: ngspice-46, Build Mar 29 2026   15:02:07
Plotname: AC Analysis
Flags: complex
No. Variables: 8
No. Points: 721
Variables:
	0	frequency	frequency grid=3
	1	v(vin)	voltage
	2	v(b3_collector)	voltage
	3	v(vout_final)	voltage
	4	gain	notype
	5	gain_vv	notype
	6	gain_db	decibel
	7	phase_deg	phase
Values:
 0	1.000000000000000e-03,0.000000000000000e+00
	1.000000000000000e+00,0.000000000000000e+00
	4.861096667818163e-13,7.904423276608954e-10
	-2.483247081701880e-13,2.309790069145484e-16
	-2.483247081701880e-13,2.309790069145484e-16
	2.483248155926239e-13,0.0
	-2.520995975673117e+02,0.0
	3.140662504745548e+00,0.0

 1	1.029200527194428e-03,0.000000000000000e+00
	1.000000000000000e+00,0.000000000000000e+00
	5.454240123247438e-13,8.617279547834594e-10
	-2.786248961968167e-13,2.667303916040906e-16
	-2.786248961968167e-13,2.667303916040906e-16
	2.786250238686193e-13,0.0
	-2.510995976261509e+02,0.0
	3.140635343910135e+00,0.0

 2	1.059253725177289e-03,0.000000000000000e+00
	1.000000000000000e+00,0.000000000000000e+00
	6.119758017582608e-13,9.394424379971301e-10
	-3.126222646295575e-13,3.080154455842864e-16
	-3.126222646295575e-13,3.080154455842864e-16
	3.126224163677771e-13,0.0
	-2.500995976884742e+02,0.0
	3.140607389964117e+00,0.0

 3	1.090184492385128e-03,0.000000000000000e+00
	1.000000000000000e+00,0.000000000000000e+00
	6.866481366342878e-13,1.024165560113937e-09
	-3.507679373857525e-13,3.556906809499557e-16
	-3.507679373857525e-13,3.556906809499557e-16
	3.507681177269617e-13,0.0
	-2.490995977544948e+02,0.0
	3.140578619748256e+00,0.0

 4	1.122018454301964e-03,0.000000000000000e+00
	1.000000000000000e+00,0.000000000000000e+00
	7.704318731617084e-13,1.116529391318429e-09
	-3.935680837660303e-13,4.107451823894447e-16
	-3.935680837660303e-13,4.107451823894447e-16
	3.935682981019558e-13,0.0
	-2.480995978244214e+02,0.0
	3.140549009427055e+00,0.0

 5	1.154781984689459e-03,0.000000000000000e+00
	1.000000000000000e+00,0.000000000000000e+00
	8.644387702537550e-13,1.217223004666012e-09
	-4.415906349939846e-13,4.743211270210738e-16
	-4.415906349939846e-13,4.743211270210738e-16
	4.415908897327051e-13,0.0
	-2.470995978984951e+02,0.0
	3.140518534469005e+00,0.0

 6	1.188502227437019e-03,0.000000000000000e+00
	1.000000000000000e+00,0.000000000000000e+00
	9.699162418854376e-13,1.326997616853322e-09
	-4.954728202983873e-13,5.477374803314839e-16
	-4.954728202983873e-13,5.477374803314839e-16
	4.954731230559185e-13,0.0
	-2.460995979769581e+02,0.0
	3.140487169626268e+00,0.0

 7	1.223207119049932e-03,0.000000000000000e+00
	1.000000000000000e+00,0.000000000000000e+00
	1.088263909504638e-12,1.446672192599208e-09
	-5.559296225319256e-13,6.325173598129402e-16
	-5.559296225319256e-13,6.325173598129402e-16
	5.559299823599189e-13,0.0
	-2.450995980600695e+02,0.0
	3.140454888913756e+00,0.0

 8	1.258925411794168e-03,0.000000000000000e+00
	1.000000000000000e+00,0.000000000000000e+00
	1.221052174143703e-12,1.577139554454867e-09
	-6.237632655292919e-13,7.304196339962434e-16
	-6.237632655292919e-13,7.304196339962434e-16
	6.237636931856548e-13,0.0
	-2.440995981481023e+02,0.0
	3.140421665587602e+00,0.0

 9	1.295686697517020e-03,0.000000000000000e+00
	1.000000000000000e+00,0.000000000000000e+00
	1.370043054666113e-12,1.719373043619459e-09
	-6.998738590933034e-13,8.434754124383892e-16
	-6.998738590933034e-13,8.434754124383892e-16
	6.998743673638323e-13,0.0
	-2.430995982413561e+02,0.0
	3.140387472123009e+00,0.0

 10	1.333521432163325e-03,0.000000000000000e+00
	1.000000000000000e+00,0.000000000000000e+00
	1.537213568669049e-12,1.874433781462887e-09
	-7.852713428642542e-13,9.740301837015209e-16
	-7.852713428642542e-13,9.740301837015209e-16
	7.852719469448961e-13,0.0
	-2.420995983401334e+02,0.0
	3.140352280191440e+00,0.0

 11	1.372460961007563e-03,0.000000000000000e+00
	1.000000000000000e+00,0.000000000000000e+00
	1.724781966275882e-12,2.043478585913826e-09
	-8.810888875529917e-13,1.124792475520101e-15
	-8.810888875529917e-13,1.124792475520101e-15
	8.810896055041629e-13,0.0
	-2.410995984447640e+02,0.0
	3.140316060637154e+00,0.0

 12	1.412537544622755e-03,0.000000000000000e+00
	1.000000000000000e+00,0.000000000000000e+00
	1.935237164936902e-12,2.227768601785907e-09
	-9.885979313678262e-13,1.298890046679725e-15
	-9.885979313678262e-13,1.298890046679725e-15
	9.885987846543706e-13,0.0
	-2.400995985555996e+02,0.0
	3.140278783453045e+00,0.0

 13	1.453784385607663e-03,0.000000000000000e+00
	1.000000000000000e+00,0.000000000000000e+00
	2.171371775820884e-12,2.428678709426294e-09
	-1.109225051157678e-12,1.499934776379874e-15
	-1.109225051157678e-12,1.499934776379874e-15
	1.109226065290609e-12,0.0
	-2.390995986729964e+02,0.0
	3.140240417755791e+00,0.0

 14	1.496235656094435e-03,0.000000000000000e+00
	1.000000000000000e+00,0.000000000000000e+00
	2.436319160017374e-12,2.647707781862501e-09
	-1.244570892132010e-12,1.732097597280055e-15
	-1.244570892132010e-12,1.732097597280055e-15
	1.244572097431224e-12,0.0
	-2.380995987973457e+02,0.0
	3.140200931760257e+00,0.0

 15	1.539926526059493e-03,0.000000000000000e+00
	1.000000000000000e+00,0.000000000000000e+00
	2.733595006282169e-12,2.886489866987844e-09
	-1.396431407348793e-12,2.000195026821033e-15
	-1.396431407348793e-12,2.000195026821033e-15
	1.396432839849549e-12,0.0
	-2.370995989290715e+02,0.0
	3.140160292753171e+00,0.0

 16	1.584893192461115e-03,0.000000000000000e+00
	1.000000000000000e+00,0.000000000000000e+00
	3.067143982040992e-12,3.146806378212106e-09
	-1.566821688804991e-12,2.309789092025864e-15
	-1.566821688804991e-12,2.309789092025864e-15
	1.566823391335276e-12,0.0
	-2.360995990686003e+02,0.0
	3.140118467066018e+00,0.0

 17	1.631172909227840e-03,0.000000000000000e+00
	1.000000000000000e+00,0.000000000000000e+00
	3.441392076648254e-12,3.430599384495833e-09
	-1.758002706336824e-12,2.667302720823484e-15
	-1.758002706336824e-12,2.667302720823484e-15
	1.758004729797790e-12,0.0
	-2.350995992163904e+02,0.0
	3.140075420047148e+00,0.0

 18	1.678804018122562e-03,0.000000000000000e+00
	1.000000000000000e+00,0.000000000000000e+00
	3.861305331481529e-12,3.739986098935241e-09
	-1.972511309142745e-12,3.080152993842712e-15
	-1.972511309142745e-12,3.080152993842712e-15
	1.972513714030524e-12,0.0
	-2.340995993729455e+02,0.0
	3.140031116033067e+00,0.0

 19	1.727825980507865e-03,0.000000000000000e+00
	1.000000000000000e+00,0.000000000000000e+00
	4.332455736210731e-12,4.077274674008245e-09
	-2.213193888037569e-12,3.556905021171535e-15
	-2.213193888037569e-12,3.556905021171535e-15
	2.213196746251942e-12,0.0
	-2.330995995387751e+02,0.0
	3.139985518318889e+00,0.0

 20	1.778279410038925e-03,0.000000000000000e+00
	1.000000000000000e+00,0.000000000000000e+00
	4.861095165580095e-12,4.444981421269588e-09
	-2.483244145084064e-12,4.107449636399607e-15
	-2.483244145084064e-12,4.107449636399607e-15
	2.483247542078075e-12,0.0
	-2.320995997144262e+02,0.0
	3.139938589127935e+00,0.0

 21	1.830206106311058e-03,0.000000000000000e+00
	1.000000000000000e+00,0.000000000000000e+00
	5.454238337833533e-12,4.845849583992883e-09
	-2.786245471791324e-12,4.743208594450925e-15
	-2.786245471791324e-12,4.743208594450925e-15
	2.786249509126100e-12,0.0
	-2.310995999004905e+02,0.0
	3.139890289580425e+00,0.0

 22	1.883649089489803e-03,0.000000000000000e+00
	1.000000000000000e+00,0.000000000000000e+00
	6.119755895614101e-12,5.282869802822192e-09
	-3.126218498212706e-12,5.477371530307940e-15
	-3.126218498212706e-12,5.477371530307940e-15
	3.126223296593861e-12,0.0
	-2.300996000975773e+02,0.0
	3.139840579661277e+00,0.0

 23	1.938652635952210e-03,0.000000000000000e+00
	1.000000000000000e+00,0.000000000000000e+00
	6.866478844377099e-12,5.759302427060950e-09
	-3.507674443851488e-12,6.325169594560691e-15
	-3.507674443851488e-12,6.325169594560691e-15
	3.507680146737904e-12,0.0
	-2.290996003063476e+02,0.0
	3.139789418186951e+00,0.0

 24	1.995262314968882e-03,0.000000000000000e+00
	1.000000000000000e+00,0.000000000000000e+00
	7.704315734254462e-12,6.278701838118083e-09
	-3.935674978337130e-12,7.304191442767740e-15
	-3.935674978337130e-12,7.304191442767740e-15
	3.935681756229993e-12,0.0
	-2.280996005274818e+02,0.0
	3.139736762771331e+00,0.0

 25	2.053525026457149e-03,0.000000000000000e+00
	1.000000000000000e+00,0.000000000000000e+00
	8.644384140166221e-12,6.844942966484818e-09
	-4.415899386121774e-12,8.434748134102263e-15
	-4.415899386121774e-12,8.434748134102263e-15
	4.415907441662104e-12,0.0
	-2.270996007617215e+02,0.0
	3.139682569790608e+00,0.0

 26	2.113489039836650e-03,0.000000000000000e+00
	1.000000000000000e+00,0.000000000000000e+00
	9.699158184969661e-12,7.462250200161009e-09
	-4.954719926471878e-12,9.740294509660413e-15
	-4.954719926471878e-12,9.740294509660413e-15
	4.954729500498955e-12,0.0
	-2.260996010098400e+02,0.0
	3.139626794347142e+00,0.0

 27	2.175204034019526e-03,0.000000000000000e+00
	1.000000000000000e+00,0.000000000000000e+00
	1.088263406306645e-11,8.135228900115258e-09
	-5.559286388667440e-12,1.124791579232935e-14
	-5.559286388667440e-12,1.124791579232935e-14
	5.559297767419258e-12,0.0
	-2.250996012726603e+02,0.0
	3.139569390232266e+00,0.0

 28	2.238721138568343e-03,0.000000000000000e+00
	1.000000000000000e+00,0.000000000000000e+00
	1.221051576091449e-11,8.868899757939372e-09
	-6.237620964410031e-12,1.298888950336098e-14
	-6.237620964410031e-12,1.298888950336098e-14
	6.237634488081043e-12,0.0
	-2.240996015510526e+02,0.0
	3.139510309888001e+00,0.0

 29	2.304092976055850e-03,0.000000000000000e+00
	1.000000000000000e+00,0.000000000000000e+00
	1.370042343880089e-11,9.668736251990014e-09
	-6.998724696295254e-12,1.499933435324477e-14
	-6.998724696295254e-12,1.499933435324477e-14
	6.998740769207282e-12,0.0
	-2.230996018459420e+02,0.0
	3.139449504367656e+00,0.0

 30	2.371373705661660e-03,0.000000000000000e+00
	1.000000000000000e+00,0.000000000000000e+00
	1.537212723897900e-11,1.054070548146625e-08
	-7.852696914834084e-12,1.732095956890180e-14
	-7.852696914834084e-12,1.732095956890180e-14
	7.852716017524454e-12,0.0
	-2.220996021583065e+02,0.0
	3.139386923295284e+00,0.0

 31	2.440619068041985e-03,0.000000000000000e+00
	1.000000000000000e+00,0.000000000000000e+00
	1.724780962263879e-11,1.149131268304678e-08
	-8.810869248835138e-12,2.000193020286009e-14
	-8.810869248835138e-12,2.000193020286009e-14
	8.810891952423461e-12,0.0
	-2.210996024891764e+02,0.0
	3.139322514823938e+00,0.0

 32	2.511886431509585e-03,0.000000000000000e+00
	1.000000000000000e+00,0.000000000000000e+00
	1.935235971667494e-11,1.252764976216156e-08
	-9.885955987314134e-12,2.309786637618116e-14
	-9.885955987314134e-12,2.309786637618116e-14
	9.885982970577246e-12,0.0
	-2.200996028396548e+02,0.0
	3.139256225592725e+00,0.0

 33	2.585234839562196e-03,0.000000000000000e+00
	1.000000000000000e+00,0.000000000000000e+00
	2.171370357616941e-11,1.365744820102509e-08
	-1.109222278814141e-11,2.667299718572552e-14
	-1.109222278814141e-11,2.667299718572552e-14
	1.109225485780698e-11,0.0
	-2.190996032108996e+02,0.0
	3.139188000682596e+00,0.0

 34	2.660725059798815e-03,0.000000000000000e+00
	1.000000000000000e+00,0.000000000000000e+00
	2.436317474477603e-11,1.488913673804428e-08
	-1.244567597195299e-11,3.080149321469937e-14
	-1.244567597195299e-11,3.080149321469937e-14
	1.244571408681849e-11,0.0
	-2.180996036041406e+02,0.0
	3.139117783570849e+00,0.0

 35	2.738419634264367e-03,0.000000000000000e+00
	1.000000000000000e+00,0.000000000000000e+00
	2.733593003015150e-11,1.623190424895146e-08
	-1.396427491309875e-11,3.556900529099092e-14
	-1.396427491309875e-11,3.556900529099092e-14
	1.396432021269694e-11,0.0
	-2.170996040206850e+02,0.0
	3.139045516084303e+00,0.0

 36	2.818382931264460e-03,0.000000000000000e+00
	1.000000000000000e+00,0.000000000000000e+00
	3.067141601156110e-11,1.769576829879037e-08
	-1.566817034585506e-11,4.107444141665151e-14
	-1.566817034585506e-11,4.107444141665151e-14
	1.566822418452294e-11,0.0
	-2.160996044619056e+02,0.0
	3.138971138351102e+00,0.0

 37	2.900681198693160e-03,0.000000000000000e+00
	1.000000000000000e+00,0.000000000000000e+00
	3.441389246958948e-11,1.929164987604051e-08
	-1.757997174786274e-11,4.743201873254584e-14
	-1.757997174786274e-11,4.743201873254584e-14
	1.758003573523255e-11,0.0
	-2.150996049292739e+02,0.0
	3.138894588751116e+00,0.0

 38	2.985382618917966e-03,0.000000000000000e+00
	1.000000000000000e+00,0.000000000000000e+00
	3.861301968389454e-11,2.103145486659439e-08
	-1.972504734883375e-11,5.477363308890430e-14
	-1.972504734883375e-11,5.477363308890430e-14
	1.972512339795661e-11,0.0
	-2.140996054243389e+02,0.0
	3.138815803864893e+00,0.0

 39	3.072557365267454e-03,0.000000000000000e+00
	1.000000000000000e+00,0.000000000000000e+00
	4.332451739170399e-11,2.292816287524177e-08
	-2.213186074517430e-11,6.325159538070813e-14
	-2.213186074517430e-11,6.325159538070813e-14
	2.213195112971527e-11,0.0
	-2.130996059487333e+02,0.0
	3.138734718421113e+00,0.0

 40	3.162277660168387e-03,0.000000000000000e+00
	1.000000000000000e+00,0.000000000000000e+00
	4.861090415086472e-11,2.499592405726243e-08
	-2.483234858698381e-11,7.304179141597592e-14
	-2.483234858698381e-11,7.304179141597592e-14
	2.483245600919833e-11,0.0
	-2.120996065042015e+02,0.0
	3.138651265242526e+00,0.0

 41	3.254617834980467e-03,0.000000000000000e+00
	1.000000000000000e+00,0.000000000000000e+00
	5.454232691859278e-11,2.725016468264298e-08
	-2.786234434901913e-11,8.434733087220113e-14
	-2.786234434901913e-11,8.434733087220113e-14
	2.786247202054304e-11,0.0
	-2.110996070925884e+02,0.0
	3.138565375190286e+00,0.0

 42	3.349654391578285e-03,0.000000000000000e+00
	1.000000000000000e+00,0.000000000000000e+00
	6.119749185361502e-11,2.970770222035174e-08
	-3.126205380847276e-11,9.740276104210661e-14
	-3.126205380847276e-11,9.740276104210661e-14
	3.126220554634150e-11,0.0
	-2.100996077158334e+02,0.0
	3.138476977106684e+00,0.0

 43	3.447466065731503e-03,0.000000000000000e+00
	1.000000000000000e+00,0.000000000000000e+00
	6.866470869234940e-11,3.238687080105600e-08
	-3.507658853839188e-11,1.124789327865931e-13
	-3.507658853839188e-11,1.124789327865931e-13
	3.507676887915941e-11,0.0
	-2.090996083760062e+02,0.0
	3.138385997756192e+00,0.0

 44	3.548133892335764e-03,0.000000000000000e+00
	1.000000000000000e+00,0.000000000000000e+00
	7.704306255773013e-11,3.530765799446936e-08
	-3.935656449572860e-11,1.298886196447228e-13
	-3.935656449572860e-11,1.298886196447228e-13
	3.935677883109793e-11,0.0
	-2.080996090753048e+02,0.0
	3.138292361764794e+00,0.0

 45	3.651741272548387e-03,0.000000000000000e+00
	1.000000000000000e+00,0.000000000000000e+00
	8.644372874978024e-11,3.849185392170351e-08
	-4.415877364651544e-11,1.499930066749619e-13
	-4.415877364651544e-11,1.499930066749619e-13
	4.415902838453579e-11,0.0
	-2.070996098160286e+02,0.0
	3.138195991557545e+00,0.0

 46	3.758374042884452e-03,0.000000000000000e+00
	1.000000000000000e+00,0.000000000000000e+00
	9.699144796267118e-11,4.196321381446719e-08
	-4.954693753909661e-11,1.732091836426159e-13
	-4.954693753909661e-11,1.732091836426159e-13
	4.954724029574643e-11,0.0
	-2.060996106006504e+02,0.0
	3.138096807294303e+00,0.0

 47	3.868120546330533e-03,0.000000000000000e+00
	1.000000000000000e+00,0.000000000000000e+00
	1.088261815056367e-10,4.574763523470079e-08
	-5.559255282525369e-11,2.000187980105471e-13
	-5.559255282525369e-11,2.000187980105471e-13
	5.559291265213741e-11,0.0
	-2.050996114317622e+02,0.0
	3.137994726803587e+00,0.0

 48	3.981071705534985e-03,0.000000000000000e+00
	1.000000000000000e+00,0.000000000000000e+00
	1.221049684886861e-10,4.987335127575565e-08
	-6.237583994698170e-11,2.309780472434999e-13
	-6.237583994698170e-11,2.309780472434999e-13
	6.237626760194767e-11,0.0
	-2.040996123121206e+02,0.0
	3.137889665514508e+00,0.0

 49	4.097321098135428e-03,0.000000000000000e+00
	1.000000000000000e+00,0.000000000000000e+00
	1.370040096179480e-10,5.437114118698796e-08
	-6.998680757721252e-11,2.667292177278744e-13
	-6.998680757721252e-11,2.667292177278744e-13
	6.998731584598284e-11,0.0
	-2.030996132446429e+02,0.0
	3.137781536386702e+00,0.0

 50	4.216965034285836e-03,0.000000000000000e+00
	1.000000000000000e+00,0.000000000000000e+00
	1.537210052501777e-10,5.927455999270702e-08
	-7.852644693757976e-11,3.080140096908117e-13
	-7.852644693757976e-11,3.080140096908117e-13
	7.852705101600783e-11,0.0
	-2.020996142324186e+02,0.0
	3.137670249838230e+00,0.0

 51	4.340102636447452e-03,0.000000000000000e+00
	1.000000000000000e+00,0.000000000000000e+00
	1.724777787303715e-10,6.462018881841652e-08
	-8.810807183985593e-11,3.556889245553163e-13
	-8.810807183985593e-11,3.556889245553163e-13
	8.810878978824000e-11,0.0
	-2.010996152787256e+02,0.0
	3.137555713671364e+00,0.0

 52	4.466835921509646e-03,0.000000000000000e+00
	1.000000000000000e+00,0.000000000000000e+00
	1.935232198220629e-10,7.044790779182521e-08
	-9.885882223123370e-11,4.107430339551766e-13
	-9.885882223123370e-11,4.107430339551766e-13
	9.885967551426926e-11,0.0
	-2.000996163870322e+02,0.0
	3.137437832996208e+00,0.0

 53	4.597269885308737e-03,0.000000000000000e+00
	1.000000000000000e+00,0.000000000000000e+00
	2.171365872868223e-10,7.680119355427766e-08
	-1.109213511926579e-10,4.743184990416381e-13
	-1.109213511926579e-10,4.743184990416381e-13
	1.109223653211717e-10,0.0
	-1.990996175610072e+02,0.0
	3.137316510152094e+00,0.0

 54	4.731512589614821e-03,0.000000000000000e+00
	1.000000000000000e+00,0.000000000000000e+00
	2.436312144343249e-10,8.372744360178272e-08
	-1.244557177732867e-10,5.477342657688953e-13
	-1.244557177732867e-10,5.477342657688953e-13
	1.244569230669387e-10,0.0
	-1.980996188045479e+02,0.0
	3.137191644626677e+00,0.0

 55	4.869675251658647e-03,0.000000000000000e+00
	1.000000000000000e+00,0.000000000000000e+00
	2.733586668141945e-10,9.127832987563138e-08
	-1.396415107760841e-10,6.325134277383778e-13
	-1.396415107760841e-10,6.325134277383778e-13
	1.396429432698390e-10,0.0
	-1.970996201217663e+02,0.0
	3.137063132972670e+00,0.0

 56	5.011872336272740e-03,0.000000000000000e+00
	1.000000000000000e+00,0.000000000000000e+00
	3.067134072144294e-10,9.951018423925056e-08
	-1.566802316714415e-10,7.304148242553917e-13
	-1.566802316714415e-10,7.304148242553917e-13
	1.566819341929123e-10,0.0
	-1.960996215170400e+02,0.0
	3.136930868722150e+00,0.0

 57	5.158221650723075e-03,0.000000000000000e+00
	1.000000000000000e+00,0.000000000000000e+00
	3.441380298714339e-10,1.084844187181303e-07
	-1.757979682571063e-10,8.434695291311133e-13
	-1.757979682571063e-10,8.434695291311133e-13
	1.757999917069768e-10,0.0
	-1.950996229949849e+02,0.0
	3.136794742298361e+00,0.0

 58	5.308844442309902e-03,0.000000000000000e+00
	1.000000000000000e+00,0.000000000000000e+00
	3.861291333384075e-10,1.182679836359780e-07
	-1.972483945355743e-10,9.740229871999597e-13
	-1.972483945355743e-10,9.740229871999597e-13
	1.972507994093843e-10,0.0
	-1.940996245605072e+02,0.0
	3.136654640924942e+00,0.0

 59	5.463865498818562e-03,0.000000000000000e+00
	1.000000000000000e+00,0.000000000000000e+00
	4.332439099443830e-10,1.289338670660304e-07
	-2.213161366127811e-10,1.124783672710579e-12
	-2.213161366127811e-10,1.124783672710579e-12
	2.213189948095680e-10,0.0
	-1.930996262187917e+02,0.0
	3.136510448532503e+00,0.0

 60	5.623413251903512e-03,0.000000000000000e+00
	1.000000000000000e+00,0.000000000000000e+00
	4.861075392744895e-10,1.405616393218420e-07
	-2.483205492735328e-10,1.298879279024312e-12
	-2.483205492735328e-10,1.298879279024312e-12
	2.483239462454044e-10,0.0
	-1.920996279753368e+02,0.0
	3.136362045662482e+00,0.0

 61	5.787619883491228e-03,0.000000000000000e+00
	1.000000000000000e+00,0.000000000000000e+00
	5.454214837782961e-10,1.532380465499799e-07
	-2.786199533409121e-10,1.499921605311737e-12
	-2.786199533409121e-10,1.499921605311737e-12
	2.786239906478158e-10,0.0
	-1.910996298359589e+02,0.0
	3.136209309368181e+00,0.0

 62	5.956621435290127e-03,0.000000000000000e+00
	1.000000000000000e+00,0.000000000000000e+00
	6.119727965754607e-10,1.670576578513274e-07
	-3.126163900365885e-10,1.732081486339736e-12
