Title: * sky130 bjt 3-stage high-frequency output-isolation ac: riso=220k, cload=10p
Date: Fri May 22 22:02:50  2026
Command: ngspice-46, Build Mar 29 2026   15:02:07
Plotname: AC Analysis
Flags: complex
No. Variables: 9
No. Points: 721
Variables:
	0	frequency	frequency grid=3
	1	v(vin)	voltage
	2	v(b3_collector)	voltage
	3	v(vout_drv)	voltage
	4	v(vout_final)	voltage
	5	gain	notype
	6	gain_vv	notype
	7	gain_db	decibel
	8	phase_deg	phase
Values:
 0	1.000000000000000e-03,0.000000000000000e+00
	1.000000000000000e+00,0.000000000000000e+00
	4.861096667831021e-13,7.904423276608954e-10
	-2.483247083838009e-13,2.308073772647704e-16
	-2.483247083806104e-13,2.308108098591204e-16
	-2.483247083806104e-13,2.308108098591204e-16
	2.483248156466550e-13,0.0
	-2.520995975654218e+02,0.0
	3.140663182072854e+00,0.0

 1	1.029200527194428e-03,0.000000000000000e+00
	1.000000000000000e+00,0.000000000000000e+00
	5.454240123262721e-13,8.617279547834594e-10
	-2.786248964506971e-13,2.665321967875366e-16
	-2.786248964469052e-13,2.665361606855246e-16
	-2.786248964469052e-13,2.665361606855246e-16
	2.786250239328363e-13,0.0
	-2.510995976241490e+02,0.0
	3.140636041015751e+00,0.0

 2	1.059253725177289e-03,0.000000000000000e+00
	1.000000000000000e+00,0.000000000000000e+00
	6.119758017600773e-13,9.394424379971301e-10
	-3.126222649312937e-13,3.077865737941822e-16
	-3.126222649267870e-13,3.077911512320109e-16
	-3.126222649267870e-13,3.077911512320109e-16
	3.126224164440979e-13,0.0
	-2.500995976863537e+02,0.0
	3.140608107425579e+00,0.0

 3	1.090184492385128e-03,0.000000000000000e+00
	1.000000000000000e+00,0.000000000000000e+00
	6.866481366364465e-13,1.024165560113937e-09
	-3.507679377443673e-13,3.554263839464695e-16
	-3.507679377390111e-13,3.554316698890182e-16
	-3.507679377390111e-13,3.554316698890182e-16
	3.507681178176699e-13,0.0
	-2.490995977522487e+02,0.0
	3.140579358159967e+00,0.0

 4	1.122018454301964e-03,0.000000000000000e+00
	1.000000000000000e+00,0.000000000000000e+00
	7.704318731642739e-13,1.116529391318429e-09
	-3.935680841922448e-13,4.104399769914291e-16
	-3.935680841858789e-13,4.104460811024218e-16
	-3.935680841858789e-13,4.104460811024218e-16
	3.935682982097625e-13,0.0
	-2.480995978220422e+02,0.0
	3.140549769400772e+00,0.0

 5	1.154781984689459e-03,0.000000000000000e+00
	1.000000000000000e+00,0.000000000000000e+00
	8.644387702568041e-13,1.217223004666012e-09
	-4.415906355005413e-13,4.739686813505464e-16
	-4.415906354929755e-13,4.739757302676661e-16
	-4.415906354929755e-13,4.739757302676661e-16
	4.415908898608336e-13,0.0
	-2.470995978959749e+02,0.0
	3.140519316634349e+00,0.0

 6	1.188502227437019e-03,0.000000000000000e+00
	1.000000000000000e+00,0.000000000000000e+00
	9.699162418890615e-13,1.326997616853322e-09
	-4.954728209004321e-13,5.473304824508295e-16
	-4.954728208914401e-13,5.473386224129797e-16
	-4.954728208914401e-13,5.473386224129797e-16
	4.954731232082006e-13,0.0
	-2.460995979742885e+02,0.0
	3.140487974631246e+00,0.0

 7	1.223207119049932e-03,0.000000000000000e+00
	1.000000000000000e+00,0.000000000000000e+00
	1.088263909508945e-12,1.446672192599208e-09
	-5.559296232474559e-13,6.320473660295552e-16
	-5.559296232367689e-13,6.320567659107727e-16
	-5.559296232367689e-13,6.320567659107727e-16
	5.559299825409052e-13,0.0
	-2.450995980572418e+02,0.0
	3.140455717425295e+00,0.0

 8	1.258925411794168e-03,0.000000000000000e+00
	1.000000000000000e+00,0.000000000000000e+00
	1.221052174148822e-12,1.577139554454867e-09
	-6.237632663797030e-13,7.298768936875393e-16
	-6.237632663670014e-13,7.298877485005020e-16
	-6.237632663670014e-13,7.298877485005020e-16
	6.237636934007591e-13,0.0
	-2.440995981451070e+02,0.0
	3.140422518292108e+00,0.0

 9	1.295686697517020e-03,0.000000000000000e+00
	1.000000000000000e+00,0.000000000000000e+00
	1.370043054672197e-12,1.719373043619459e-09
	-6.998738601040193e-13,8.428486657628996e-16
	-6.998738600889234e-13,8.428612007047133e-16
	-6.998738600889234e-13,8.428612007047133e-16
	6.998743676194847e-13,0.0
	-2.430995982381833e+02,0.0
	3.140388349726927e+00,0.0

 10	1.333521432163325e-03,0.000000000000000e+00
	1.000000000000000e+00,0.000000000000000e+00
	1.537213568676280e-12,1.874433781462887e-09
	-7.852713440654860e-13,9.733064279994149e-16
	-7.852713440475444e-13,9.733209031236141e-16
	-7.852713440475444e-13,9.733209031236141e-16
	7.852719472487332e-13,0.0
	-2.420995983367727e+02,0.0
	3.140353183421846e+00,0.0

 11	1.372460961007563e-03,0.000000000000000e+00
	1.000000000000000e+00,0.000000000000000e+00
	1.724781966284475e-12,2.043478585913826e-09
	-8.810888889806587e-13,1.123956695556833e-15
	-8.810888889593351e-13,1.123973411168522e-15
	-8.810888889593351e-13,1.123973411168522e-15
	8.810896058652744e-13,0.0
	-2.410995984412041e+02,0.0
	3.140316990242354e+00,0.0

 12	1.412537544622755e-03,0.000000000000000e+00
	1.000000000000000e+00,0.000000000000000e+00
	1.935237164947117e-12,2.227768601785907e-09
	-9.885979330646122e-13,1.297924903136310e-15
	-9.885979330392691e-13,1.297944206022376e-15
	-9.885979330392691e-13,1.297944206022376e-15
	9.885987850835529e-13,0.0
	-2.400995985518288e+02,0.0
	3.140279740203197e+00,0.0

 13	1.453784385607663e-03,0.000000000000000e+00
	1.000000000000000e+00,0.000000000000000e+00
	2.171371775833023e-12,2.428678709426294e-09
	-1.109225053174316e-12,1.498820246127253e-15
	-1.109225053144195e-12,1.498842536750895e-15
	-1.109225053144195e-12,1.498842536750895e-15
	1.109226065800697e-12,0.0
	-2.390995986690021e+02,0.0
	3.140241402443539e+00,0.0

 14	1.496235656094435e-03,0.000000000000000e+00
	1.000000000000000e+00,0.000000000000000e+00
	2.436319160031802e-12,2.647707781862501e-09
	-1.244570894528789e-12,1.730810557974552e-15
	-1.244570894492991e-12,1.730836298783401e-15
	-1.244570894492991e-12,1.730836298783401e-15
	1.244572098037465e-12,0.0
	-2.380995987931148e+02,0.0
	3.140201945201393e+00,0.0

 15	1.539926526059493e-03,0.000000000000000e+00
	1.000000000000000e+00,0.000000000000000e+00
	2.733595006299316e-12,2.886489866987844e-09
	-1.396431410197367e-12,1.998708777202901e-15
	-1.396431410154821e-12,1.998738502223078e-15
	-1.396431410154821e-12,1.998738502223078e-15
	1.396432840570065e-12,0.0
	-2.370995989245898e+02,0.0
	3.140161335787308e+00,0.0

 16	1.584893192461115e-03,0.000000000000000e+00
	1.000000000000000e+00,0.000000000000000e+00
	3.067143982061371e-12,3.146806378212106e-09
	-1.566821692190530e-12,2.308072797968950e-15
	-1.566821692139964e-12,2.308107123884111e-15
	-1.566821692139964e-12,2.308107123884111e-15
	1.566823392191613e-12,0.0
	-2.360995990638531e+02,0.0
	3.140119540557287e+00,0.0

 17	1.631172909227840e-03,0.000000000000000e+00
	1.000000000000000e+00,0.000000000000000e+00
	3.441392076672475e-12,3.430599384495833e-09
	-1.758002710360547e-12,2.665320775643620e-15
	-1.758002710300449e-12,2.665360414588834e-15
	-1.758002710300449e-12,2.665360414588834e-15
	1.758004730815553e-12,0.0
	-2.350995992113618e+02,0.0
	3.140076524884910e+00,0.0

 18	1.678804018122562e-03,0.000000000000000e+00
	1.000000000000000e+00,0.000000000000000e+00
	3.861305331510314e-12,3.739986098935241e-09
	-1.972511313924949e-12,3.077864279593786e-15
	-1.972511313853524e-12,3.077910053929671e-15
	-1.972511313853524e-12,3.077910053929671e-15
	1.972513715240138e-12,0.0
	-2.340995993676190e+02,0.0
	3.140032253132655e+00,0.0

 19	1.727825980507865e-03,0.000000000000000e+00
	1.000000000000000e+00,0.000000000000000e+00
	4.332455736244943e-12,4.077274674008245e-09
	-2.213193893721213e-12,3.554262055603923e-15
	-2.213193893636323e-12,3.554314914977543e-15
	-2.213193893636323e-12,3.554314914977543e-15
	2.213196747689555e-12,0.0
	-2.330995995331331e+02,0.0
	3.139986688622366e+00,0.0

 20	1.778279410038925e-03,0.000000000000000e+00
	1.000000000000000e+00,0.000000000000000e+00
	4.861095165620758e-12,4.444981421269588e-09
	-2.483244151839096e-12,4.104397587883845e-15
	-2.483244151738204e-12,4.104458628930328e-15
	-2.483244151738204e-12,4.104458628930328e-15
	2.483247543786690e-12,0.0
	-2.320995997084498e+02,0.0
	3.139939793604867e+00,0.0

 21	1.830206106311058e-03,0.000000000000000e+00
	1.000000000000000e+00,0.000000000000000e+00
	5.454238337881860e-12,4.845849583992883e-09
	-2.786245479819696e-12,4.739684144429740e-15
	-2.786245479699785e-12,4.739754633523333e-15
	-2.786245479699785e-12,4.739754633523333e-15
	2.786249511156793e-12,0.0
	-2.310995998941600e+02,0.0
	3.139891529228695e+00,0.0

 22	1.883649089489803e-03,0.000000000000000e+00
	1.000000000000000e+00,0.000000000000000e+00
	6.119755895671539e-12,5.282869802822192e-09
	-3.126218507754443e-12,5.473301559677406e-15
	-3.126218507611929e-12,5.473382959203982e-15
	-3.126218507611929e-12,5.473382959203982e-15
	3.126223299007346e-12,0.0
	-2.300996000908716e+02,0.0
	3.139841855507904e+00,0.0

 23	1.938652635952210e-03,0.000000000000000e+00
	1.000000000000000e+00,0.000000000000000e+00
	6.866478844445362e-12,5.759302427060950e-09
	-3.507674455191858e-12,6.320469666727805e-15
	-3.507674455022480e-12,6.320563665423866e-15
	-3.507674455022480e-12,6.320563665423866e-15
	3.507680149606332e-12,0.0
	-2.290996002992447e+02,0.0
	3.139790731288944e+00,0.0

 24	1.995262314968882e-03,0.000000000000000e+00
	1.000000000000000e+00,0.000000000000000e+00
	7.704315734335597e-12,6.278701838118083e-09
	-3.935674991815197e-12,7.298764051913956e-15
	-3.935674991613891e-12,7.298872599901552e-15
	-3.935674991613891e-12,7.298872599901552e-15
	3.935681759639140e-12,0.0
	-2.280996005199580e+02,0.0
	3.139738114216562e+00,0.0

 25	2.053525026457149e-03,0.000000000000000e+00
	1.000000000000000e+00,0.000000000000000e+00
	8.644384140262646e-12,6.844942966484818e-09
	-4.415899402140487e-12,8.428480682311164e-15
	-4.415899401901234e-12,8.428606031555568e-15
	-4.415899401901234e-12,8.428606031555568e-15
	4.415907445713883e-12,0.0
	-2.270996007537519e+02,0.0
	3.139683960698718e+00,0.0

 26	2.113489039836650e-03,0.000000000000000e+00
	1.000000000000000e+00,0.000000000000000e+00
	9.699158185084264e-12,7.462250200161009e-09
	-4.954719945510150e-12,9.733056970943274e-15
	-4.954719945225797e-12,9.733201721972754e-15
	-4.954719945225797e-12,9.733201721972754e-15
	4.954729505314501e-12,0.0
	-2.260996010013981e+02,0.0
	3.139628225870466e+00,0.0

 27	2.175204034019526e-03,0.000000000000000e+00
	1.000000000000000e+00,0.000000000000000e+00
	1.088263406320265e-11,8.135228900115258e-09
	-5.559286411294440e-12,1.123955801508608e-14
	-5.559286410956485e-12,1.123972517094303e-14
	-5.559286410956485e-12,1.123972517094303e-14
	5.559297773142517e-12,0.0
	-2.250996012637182e+02,0.0
	3.139570863556786e+00,0.0

 28	2.238721138568343e-03,0.000000000000000e+00
	1.000000000000000e+00,0.000000000000000e+00
	1.221051576107637e-11,8.868899757939371e-09
	-6.237620991302274e-12,1.297923809531372e-14
	-6.237620990900614e-12,1.297943112385641e-14
	-6.237620990900614e-12,1.297943112385641e-14
	6.237634494883157e-12,0.0
	-2.240996015415807e+02,0.0
	3.139511826234329e+00,0.0

 29	2.304092976055850e-03,0.000000000000000e+00
	1.000000000000000e+00,0.000000000000000e+00
	1.370042343899328e-11,9.668736251990014e-09
	-6.998724728256758e-12,1.498818908421837e-14
	-6.998724727779384e-12,1.498841199006585e-14
	-6.998724727779384e-12,1.498841199006585e-14
	6.998740777291627e-12,0.0
	-2.230996018359088e+02,0.0
	3.139451064992048e+00,0.0

 30	2.371373705661660e-03,0.000000000000000e+00
	1.000000000000000e+00,0.000000000000000e+00
	1.537212723920766e-11,1.054070548146625e-08
	-7.852696952820405e-12,1.730808921682399e-14
	-7.852696952253046e-12,1.730834662443673e-14
	-7.852696952253046e-12,1.730834662443673e-14
	7.852716027132724e-12,0.0
	-2.220996021476788e+02,0.0
	3.139388529490679e+00,0.0

 31	2.440619068041985e-03,0.000000000000000e+00
	1.000000000000000e+00,0.000000000000000e+00
	1.724780962291055e-11,1.149131268304678e-08
	-8.810869293981934e-12,1.998706775680236e-14
	-8.810869293307625e-12,1.998736500642219e-14
	-8.810869293307625e-12,1.998736500642219e-14
	8.810891963842885e-12,0.0
	-2.210996024779189e+02,0.0
	3.139324167921028e+00,0.0

 32	2.511886431509585e-03,0.000000000000000e+00
	1.000000000000000e+00,0.000000000000000e+00
	1.935235971699792e-11,1.252764976216156e-08
	-9.885956040971200e-12,2.308070349692349e-14
	-9.885956040169785e-12,2.308104675536326e-14
	-9.885956040169785e-12,2.308104675536326e-14
	9.885982984149263e-12,0.0
	-2.200996028277303e+02,0.0
	3.139257926961059e+00,0.0

 33	2.585234839562196e-03,0.000000000000000e+00
	1.000000000000000e+00,0.000000000000000e+00
	2.171370357655329e-11,1.365744820102509e-08
	-1.109222285191295e-11,2.665317780892348e-14
	-1.109222285096047e-11,2.665357419750490e-14
	-1.109222285096047e-11,2.665357419750490e-14
	1.109225487393736e-11,0.0
	-2.190996031982685e+02,0.0
	3.139189751731715e+00,0.0

 34	2.660725059798815e-03,0.000000000000000e+00
	1.000000000000000e+00,0.000000000000000e+00
	2.436317474523227e-11,1.488913673804427e-08
	-1.244567604774553e-11,3.077860616394627e-14
	-1.244567604661350e-11,3.077906390624004e-14
	-1.244567604661350e-11,3.077906390624004e-14
	1.244571410598942e-11,0.0
	-2.180996035907611e+02,0.0
	3.139119585751451e+00,0.0

 35	2.738419634264367e-03,0.000000000000000e+00
	1.000000000000000e+00,0.000000000000000e+00
	2.733593003069374e-11,1.623190424895146e-08
	-1.396427500317839e-11,3.554257574752763e-14
	-1.396427500183297e-11,3.554310433996102e-14
	-1.396427500183297e-11,3.554310433996102e-14
	1.396432023548169e-11,0.0
	-2.170996040065128e+02,0.0
	3.139047370889449e+00,0.0

 36	2.818382931264460e-03,0.000000000000000e+00
	1.000000000000000e+00,0.000000000000000e+00
	3.067141601220555e-11,1.769576829879037e-08
	-1.566817045291491e-11,4.104392106875326e-14
	-1.566817045131588e-11,4.104453147762447e-14
	-1.566817045131588e-11,4.104453147762447e-14
	1.566822421160267e-11,0.0
	-2.160996044468936e+02,0.0
	3.138973047317448e+00,0.0

 37	2.900681198693160e-03,0.000000000000000e+00
	1.000000000000000e+00,0.000000000000000e+00
	3.441389247035540e-11,1.929164987604051e-08
	-1.757997187510356e-11,4.739677440023042e-14
	-1.757997187320310e-11,4.739747928921702e-14
	-1.757997187320310e-11,4.739747928921702e-14
	1.758003576741683e-11,0.0
	-2.150996049133724e+02,0.0
	3.138896553460190e+00,0.0

 38	2.985382618917966e-03,0.000000000000000e+00
	1.000000000000000e+00,0.000000000000000e+00
	3.861301968480485e-11,2.103145486659438e-08
	-1.972504750005968e-11,5.473293358797093e-14
	-1.972504749780098e-11,5.473374758085225e-14
	-1.972504749780098e-11,5.473374758085225e-14
	1.972512343620767e-11,0.0
	-2.140996054074952e+02,0.0
	3.138817825944403e+00,0.0

 39	3.072557365267454e-03,0.000000000000000e+00
	1.000000000000000e+00,0.000000000000000e+00
	4.332451739278590e-11,2.292816287524177e-08
	-2.213186092490663e-11,6.320459635359183e-14
	-2.213186092222217e-11,6.320553633763581e-14
	-2.213186092222217e-11,6.320553633763581e-14
	2.213195117517677e-11,0.0
	-2.130996059308916e+02,0.0
	3.138736799546297e+00,0.0

 40	3.162277660168387e-03,0.000000000000000e+00
	1.000000000000000e+00,0.000000000000000e+00
	4.861090415215055e-11,2.499592405726243e-08
	-2.483234880059599e-11,7.298751781472252e-14
	-2.483234879740549e-11,7.298860329103081e-14
	-2.483234879740549e-11,7.298860329103081e-14
	2.483245606322936e-11,0.0
	-2.120996064853026e+02,0.0
	3.138653407137538e+00,0.0

 41	3.254617834980467e-03,0.000000000000000e+00
	1.000000000000000e+00,0.000000000000000e+00
	5.454232692012102e-11,2.725016468264297e-08
	-2.786234460289771e-11,8.428465673016300e-14
	-2.786234459910580e-11,8.428591021824304e-14
	-2.786234459910580e-11,8.428591021824304e-14
	2.786247208475913e-11,0.0
	-2.110996070725696e+02,0.0
	3.138567579629627e+00,0.0

 42	3.349654391578285e-03,0.000000000000000e+00
	1.000000000000000e+00,0.000000000000000e+00
	6.119749185543132e-11,2.970770222035174e-08
	-3.126205411020787e-11,9.733038611470518e-14
	-3.126205410570118e-11,9.733183361966190e-14
	-3.126205410570118e-11,9.733183361966190e-14
	3.126220562266239e-11,0.0
	-2.100996076946284e+02,0.0
	3.138479245916669e+00,0.0

 43	3.447466065731503e-03,0.000000000000000e+00
	1.000000000000000e+00,0.000000000000000e+00
	6.866470869450808e-11,3.238687080105599e-08
	-3.507658889700470e-11,1.123953555765551e-13
	-3.507658889164849e-11,1.123970271285950e-13
	-3.507658889164849e-11,1.123970271285950e-13
	3.507676896986702e-11,0.0
	-2.090996083535447e+02,0.0
	3.138388332816463e+00,0.0

 44	3.548133892335764e-03,0.000000000000000e+00
	1.000000000000000e+00,0.000000000000000e+00
	7.704306256029573e-11,3.530765799446936e-08
	-3.935656492194059e-11,1.297921062521751e-13
	-3.935656491557472e-11,1.297940365296149e-13
	-3.935656491557472e-11,1.297940365296149e-13
	3.935677893890411e-11,0.0
	-2.080996090515124e+02,0.0
	3.138294765009881e+00,0.0

 45	3.651741272548387e-03,0.000000000000000e+00
	1.000000000000000e+00,0.000000000000000e+00
	8.644372875282946e-11,3.849185392170350e-08
	-4.415877415306923e-11,1.498815548261720e-13
	-4.415877414550339e-11,1.498837838748771e-13
	-4.415877414550339e-11,1.498837838748771e-13
	4.415902851266372e-11,0.0
	-2.070996097908264e+02,0.0
	3.138198464978464e+00,0.0

 46	3.758374042884452e-03,0.000000000000000e+00
	1.000000000000000e+00,0.000000000000000e+00
	9.699144796629517e-11,4.196321381446718e-08
	-4.954693814113682e-11,1.730804811511348e-13
	-4.954693813214481e-11,1.730830552153117e-13
	-4.954693813214481e-11,1.730830552153117e-13
	4.954724044802686e-11,0.0
	-2.060996105739548e+02,0.0
	3.138099352940209e+00,0.0

 47	3.868120546330533e-03,0.000000000000000e+00
	1.000000000000000e+00,0.000000000000000e+00
	1.088261815099438e-10,4.574763523470079e-08
	-5.559255354077952e-11,1.998701748090134e-13
	-5.559255353009250e-11,1.998731472905937e-13
	-5.559255353009250e-11,1.998731472905937e-13
	5.559291283312295e-11,0.0
	-2.050996114034848e+02,0.0
	3.137997346783469e+00,0.0

 48	3.981071705534985e-03,0.000000000000000e+00
	1.000000000000000e+00,0.000000000000000e+00
	1.221049684938051e-10,4.987335127575563e-08
	-6.237584079738554e-11,2.308064199909943e-13
	-6.237584078468397e-11,2.308098525575114e-13
	-6.237584078468397e-11,2.308098525575114e-13
	6.237626781704948e-11,0.0
	-2.040996122821677e+02,0.0
	3.137892361998936e+00,0.0

 49	4.097321098135428e-03,0.000000000000000e+00
	1.000000000000000e+00,0.000000000000000e+00
	1.370040096240320e-10,5.437114118698794e-08
	-6.998680858791870e-11,2.665310258436774e-13
	-6.998680857282287e-11,2.665349897076198e-13
	-6.998680857282287e-11,2.665349897076198e-13
	6.998731610163153e-11,0.0
	-2.030996132129152e+02,0.0
	3.137784311609627e+00,0.0

 50	4.216965034285836e-03,0.000000000000000e+00
	1.000000000000000e+00,0.000000000000000e+00
	1.537210052574085e-10,5.927455999270701e-08
	-7.852644813880581e-11,3.077851414875881e-13
	-7.852644812086439e-11,3.077897188837722e-13
	-7.852644812086439e-11,3.077897188837722e-13
	7.852705131984683e-11,0.0
	-2.020996141988110e+02,0.0
	3.137673106098833e+00,0.0

 51	4.340102636447452e-03,0.000000000000000e+00
	1.000000000000000e+00,0.000000000000000e+00
	1.724777787389653e-10,6.462018881841649e-08
	-8.810807326751489e-11,3.554246319393243e-13
	-8.810807324619148e-11,3.554299178309330e-13
	-8.810807324619148e-11,3.554299178309330e-13
	8.810879014935305e-11,0.0
	-2.010996152431265e+02,0.0
	3.137558653335962e+00,0.0

 52	4.466835921509646e-03,0.000000000000000e+00
	1.000000000000000e+00,0.000000000000000e+00
	1.935232198322767e-10,7.044790779182517e-08
	-9.885882392800864e-11,4.104378339239733e-13
	-9.885882390266574e-11,4.104439379726557e-13
	-9.885882390266574e-11,4.104439379726557e-13
	9.885967594345276e-11,0.0
	-2.000996163493238e+02,0.0
	3.137440858500212e+00,0.0

 53	4.597269885308737e-03,0.000000000000000e+00
	1.000000000000000e+00,0.000000000000000e+00
	2.171365872989614e-10,7.680119355427763e-08
	-1.109213532092777e-10,4.739660599358316e-13
	-1.109213531791576e-10,4.739731087767332e-13
	-1.109213531791576e-10,4.739731087767332e-13
	1.109223658312572e-10,0.0
	-1.990996175210644e+02,0.0
	3.137319624002029e+00,0.0

 54	4.731512589614821e-03,0.000000000000000e+00
	1.000000000000000e+00,0.000000000000000e+00
	2.436312144487523e-10,8.372744360178267e-08
