Title: * sky130 bjt 3-stage high-frequency output-isolation ac: riso=68k, cload=10p
Date: Fri May 22 22:02:47  2026
Command: ngspice-46, Build Mar 29 2026   15:02:07
Plotname: AC Analysis
Flags: complex
No. Variables: 9
No. Points: 721
Variables:
	0	frequency	frequency grid=3
	1	v(vin)	voltage
	2	v(b3_collector)	voltage
	3	v(vout_drv)	voltage
	4	v(vout_final)	voltage
	5	gain	notype
	6	gain_vv	notype
	7	gain_db	decibel
	8	phase_deg	phase
Values:
 0	1.000000000000000e-03,0.000000000000000e+00
	1.000000000000000e+00,0.000000000000000e+00
	4.861096667831021e-13,7.904423276608954e-10
	-2.483247083838017e-13,2.308073772647715e-16
	-2.483247083828156e-13,2.308084382484797e-16
	-2.483247083828156e-13,2.308084382484797e-16
	2.483248156466557e-13,0.0
	-2.520995975654218e+02,0.0
	3.140663191623296e+00,0.0

 1	1.029200527194428e-03,0.000000000000000e+00
	1.000000000000000e+00,0.000000000000000e+00
	5.454240123262721e-13,8.617279547834594e-10
	-2.786248964506955e-13,2.665321967875346e-16
	-2.786248964495235e-13,2.665334219923673e-16
	-2.786248964495235e-13,2.665334219923673e-16
	2.786250239328347e-13,0.0
	-2.510995976241491e+02,0.0
	3.140636050845070e+00,0.0

 2	1.059253725177289e-03,0.000000000000000e+00
	1.000000000000000e+00,0.000000000000000e+00
	6.119758017600773e-13,9.394424379971301e-10
	-3.126222649312949e-13,3.077865737941837e-16
	-3.126222649299019e-13,3.077879886386036e-16
	-3.126222649299019e-13,3.077879886386036e-16
	3.126224164440992e-13,0.0
	-2.500995976863537e+02,0.0
	3.140608117541920e+00,0.0

 3	1.090184492385128e-03,0.000000000000000e+00
	1.000000000000000e+00,0.000000000000000e+00
	6.866481366364465e-13,1.024165560113937e-09
	-3.507679377443670e-13,3.554263839464690e-16
	-3.507679377427115e-13,3.554280177832568e-16
	-3.507679377427115e-13,3.554280177832568e-16
	3.507681178176696e-13,0.0
	-2.490995977522487e+02,0.0
	3.140579368571711e+00,0.0

 4	1.122018454301964e-03,0.000000000000000e+00
	1.000000000000000e+00,0.000000000000000e+00
	7.704318731642739e-13,1.116529391318429e-09
	-3.935680841922426e-13,4.104399769914261e-16
	-3.935680841902750e-13,4.104418637166420e-16
	-3.935680841902750e-13,4.104418637166420e-16
	3.935682982097604e-13,0.0
	-2.480995978220422e+02,0.0
	3.140549780116543e+00,0.0

 5	1.154781984689459e-03,0.000000000000000e+00
	1.000000000000000e+00,0.000000000000000e+00
	8.644387702568041e-13,1.217223004666012e-09
	-4.415906355005387e-13,4.739686813505424e-16
	-4.415906354982002e-13,4.739708601067431e-16
	-4.415906354982002e-13,4.739708601067431e-16
	4.415908898608309e-13,0.0
	-2.470995978959749e+02,0.0
	3.140519327663027e+00,0.0

 6	1.188502227437019e-03,0.000000000000000e+00
	1.000000000000000e+00,0.000000000000000e+00
	9.699162418890615e-13,1.326997616853322e-09
	-4.954728209004289e-13,5.473304824508248e-16
	-4.954728208976496e-13,5.473329984391258e-16
	-4.954728208976496e-13,5.473329984391258e-16
	4.954731232081973e-13,0.0
	-2.460995979742885e+02,0.0
	3.140487985981967e+00,0.0

 7	1.223207119049932e-03,0.000000000000000e+00
	1.000000000000000e+00,0.000000000000000e+00
	1.088263909508945e-12,1.446672192599208e-09
	-5.559296232474544e-13,6.320473660295526e-16
	-5.559296232441511e-13,6.320502714473835e-16
	-5.559296232441511e-13,6.320502714473835e-16
	5.559299825409036e-13,0.0
	-2.450995980572418e+02,0.0
	3.140455729107464e+00,0.0

 8	1.258925411794168e-03,0.000000000000000e+00
	1.000000000000000e+00,0.000000000000000e+00
	1.221052174148822e-12,1.577139554454867e-09
	-6.237632663796987e-13,7.298768936875326e-16
	-6.237632663757729e-13,7.298802488115392e-16
	-6.237632663757729e-13,7.298802488115392e-16
	6.237636934007549e-13,0.0
	-2.440995981451070e+02,0.0
	3.140422530315401e+00,0.0

 9	1.295686697517020e-03,0.000000000000000e+00
	1.000000000000000e+00,0.000000000000000e+00
	1.370043054672197e-12,1.719373043619459e-09
	-6.998738601040153e-13,8.428486657628929e-16
	-6.998738600993494e-13,8.428525401994535e-16
	-6.998738600993494e-13,8.428525401994535e-16
	6.998743676194809e-13,0.0
	-2.430995982381833e+02,0.0
	3.140388362101307e+00,0.0

 10	1.333521432163325e-03,0.000000000000000e+00
	1.000000000000000e+00,0.000000000000000e+00
	1.537213568676280e-12,1.874433781462887e-09
	-7.852713440654889e-13,9.733064279994194e-16
	-7.852713440599434e-13,9.733109021287176e-16
	-7.852713440599434e-13,9.733109021287176e-16
	7.852719472487365e-13,0.0
	-2.420995983367726e+02,0.0
	3.140353196157565e+00,0.0

 11	1.372460961007563e-03,0.000000000000000e+00
	1.000000000000000e+00,0.000000000000000e+00
	1.724781966284475e-12,2.043478585913826e-09
	-8.810888889806613e-13,1.123956695556837e-15
	-8.810888889740705e-13,1.123961862200451e-15
	-8.810888889740705e-13,1.123961862200451e-15
	8.810896058652772e-13,0.0
	-2.410995984412041e+02,0.0
	3.140317003349962e+00,0.0

 12	1.412537544622755e-03,0.000000000000000e+00
	1.000000000000000e+00,0.000000000000000e+00
	1.935237164947117e-12,2.227768601785907e-09
	-9.885979330646166e-13,1.297924903136318e-15
	-9.885979330567835e-13,1.297930869482920e-15
	-9.885979330567835e-13,1.297930869482920e-15
	9.885987850835578e-13,0.0
	-2.400995985518287e+02,0.0
	3.140279753693554e+00,0.0

 13	1.453784385607663e-03,0.000000000000000e+00
	1.000000000000000e+00,0.000000000000000e+00
	2.171371775833023e-12,2.428678709426294e-09
	-1.109225053174318e-12,1.498820246127258e-15
	-1.109225053165008e-12,1.498827135956384e-15
	-1.109225053165008e-12,1.498827135956384e-15
	1.109226065800700e-12,0.0
	-2.390995986690021e+02,0.0
	3.140241416327822e+00,0.0

 14	1.496235656094435e-03,0.000000000000000e+00
	1.000000000000000e+00,0.000000000000000e+00
	2.436319160031802e-12,2.647707781862501e-09
	-1.244570894528787e-12,1.730810557974548e-15
	-1.244570894517722e-12,1.730818514224556e-15
	-1.244570894517722e-12,1.730818514224556e-15
	1.244572098037463e-12,0.0
	-2.380995987931148e+02,0.0
	3.140201959491104e+00,0.0

 15	1.539926526059493e-03,0.000000000000000e+00
	1.000000000000000e+00,0.000000000000000e+00
	2.733595006299316e-12,2.886489866987844e-09
	-1.396431410197375e-12,1.998708777202916e-15
	-1.396431410184224e-12,1.998717964936426e-15
	-1.396431410184224e-12,1.998717964936426e-15
	1.396432840570074e-12,0.0
	-2.370995989245898e+02,0.0
	3.140161350494286e+00,0.0

 16	1.584893192461115e-03,0.000000000000000e+00
	1.000000000000000e+00,0.000000000000000e+00
	3.067143982061371e-12,3.146806378212106e-09
	-1.566821692190539e-12,2.308072797968967e-15
	-1.566821692174909e-12,2.308083407797290e-15
	-1.566821692174909e-12,2.308083407797290e-15
	1.566823392191623e-12,0.0
	-2.360995990638530e+02,0.0
	3.140119555693717e+00,0.0

 17	1.631172909227840e-03,0.000000000000000e+00
	1.000000000000000e+00,0.000000000000000e+00
	3.441392076672475e-12,3.430599384495833e-09
	-1.758002710360543e-12,2.665320775643611e-15
	-1.758002710341967e-12,2.665333027681224e-15
	-1.758002710341967e-12,2.665333027681224e-15
	1.758004730815549e-12,0.0
	-2.350995992113619e+02,0.0
	3.140076540463332e+00,0.0

 18	1.678804018122562e-03,0.000000000000000e+00
	1.000000000000000e+00,0.000000000000000e+00
	3.861305331510314e-12,3.739986098935241e-09
	-1.972511313924958e-12,3.077864279593802e-15
	-1.972511313902881e-12,3.077878428024895e-15
	-1.972511313902881e-12,3.077878428024895e-15
	1.972513715240147e-12,0.0
	-2.340995993676189e+02,0.0
	3.140032269165975e+00,0.0

 19	1.727825980507865e-03,0.000000000000000e+00
	1.000000000000000e+00,0.000000000000000e+00
	4.332455736244943e-12,4.077274674008245e-09
	-2.213193893721233e-12,3.554262055603966e-15
	-2.213193893694995e-12,3.554278393955813e-15
	-2.213193893694995e-12,3.554278393955813e-15
	2.213196747689575e-12,0.0
	-2.330995995331330e+02,0.0
	3.139986705123867e+00,0.0

 20	1.778279410038925e-03,0.000000000000000e+00
	1.000000000000000e+00,0.000000000000000e+00
	4.861095165620758e-12,4.444981421269588e-09
	-2.483244151839115e-12,4.104397587883886e-15
	-2.483244151807930e-12,4.104416455116436e-15
	-2.483244151807930e-12,4.104416455116436e-15
	2.483247543786709e-12,0.0
	-2.320995997084498e+02,0.0
	3.139939810588221e+00,0.0

 21	1.830206106311058e-03,0.000000000000000e+00
	1.000000000000000e+00,0.000000000000000e+00
	5.454238337881860e-12,4.845849583992883e-09
	-2.786245479819712e-12,4.739684144429778e-15
	-2.786245479782650e-12,4.739705931967798e-15
	-2.786245479782650e-12,4.739705931967798e-15
	2.786249511156811e-12,0.0
	-2.310995998941600e+02,0.0
	3.139891546707972e+00,0.0

 22	1.883649089489803e-03,0.000000000000000e+00
	1.000000000000000e+00,0.000000000000000e+00
	6.119755895671539e-12,5.282869802822192e-09
	-3.126218507754488e-12,5.473301559677510e-15
	-3.126218507710439e-12,5.473326719531181e-15
	-3.126218507710439e-12,5.473326719531181e-15
	3.126223299007392e-12,0.0
	-2.300996000908715e+02,0.0
	3.139841873497585e+00,0.0

 23	1.938652635952210e-03,0.000000000000000e+00
	1.000000000000000e+00,0.000000000000000e+00
	6.866478844445362e-12,5.759302427060950e-09
	-3.507674455191894e-12,6.320469666727889e-15
	-3.507674455139541e-12,6.320498720870309e-15
	-3.507674455139541e-12,6.320498720870309e-15
	3.507680149606369e-12,0.0
	-2.290996002992446e+02,0.0
	3.139790749803932e+00,0.0

 24	1.995262314968882e-03,0.000000000000000e+00
	1.000000000000000e+00,0.000000000000000e+00
	7.704315734335597e-12,6.278701838118083e-09
	-3.935674991815226e-12,7.298764051914025e-15
	-3.935674991753004e-12,7.298797603110193e-15
	-3.935674991753004e-12,7.298797603110193e-15
	3.935681759639169e-12,0.0
	-2.280996005199579e+02,0.0
	3.139738133272199e+00,0.0

 25	2.053525026457149e-03,0.000000000000000e+00
	1.000000000000000e+00,0.000000000000000e+00
	8.644384140262646e-12,6.844942966484818e-09
	-4.415899402140511e-12,8.428480682311224e-15
	-4.415899402066560e-12,8.428519426623133e-15
	-4.415899402066560e-12,8.428519426623133e-15
	4.415907445713908e-12,0.0
	-2.270996007537518e+02,0.0
	3.139683980310789e+00,0.0

 26	2.113489039836650e-03,0.000000000000000e+00
	1.000000000000000e+00,0.000000000000000e+00
	9.699158185084264e-12,7.462250200161009e-09
	-4.954719945510212e-12,9.733056970943438e-15
	-4.954719945422322e-12,9.733101712170735e-15
	-4.954719945422322e-12,9.733101712170735e-15
	4.954729505314566e-12,0.0
	-2.260996010013980e+02,0.0
	3.139628246055220e+00,0.0

 27	2.175204034019526e-03,0.000000000000000e+00
	1.000000000000000e+00,0.000000000000000e+00
	1.088263406320265e-11,8.135228900115258e-09
	-5.559286411294533e-12,1.123955801508633e-14
	-5.559286411190076e-12,1.123960968144212e-14
	-5.559286411190076e-12,1.123960968144212e-14
	5.559297773142613e-12,0.0
	-2.250996012637181e+02,0.0
	3.139570884330944e+00,0.0

 28	2.238721138568343e-03,0.000000000000000e+00
	1.000000000000000e+00,0.000000000000000e+00
	1.221051576107637e-11,8.868899757939371e-09
	-6.237620991302378e-12,1.297923809531401e-14
	-6.237620991178231e-12,1.297929775868175e-14
	-6.237620991178231e-12,1.297929775868175e-14
	6.237634494883266e-12,0.0
	-2.240996015415805e+02,0.0
	3.139511847615104e+00,0.0

 29	2.304092976055850e-03,0.000000000000000e+00
	1.000000000000000e+00,0.000000000000000e+00
	1.370042343899328e-11,9.668736251990014e-09
	-6.998724728256817e-12,1.498818908421854e-14
	-6.998724728109267e-12,1.498825798238958e-14
	-6.998724728109267e-12,1.498825798238958e-14
	6.998740777291690e-12,0.0
	-2.230996018359087e+02,0.0
	3.139451086997154e+00,0.0

 30	2.371373705661660e-03,0.000000000000000e+00
	1.000000000000000e+00,0.000000000000000e+00
	1.537212723920766e-11,1.054070548146625e-08
	-7.852696952820491e-12,1.730808921682425e-14
	-7.852696952645128e-12,1.730816877917728e-14
	-7.852696952645128e-12,1.730816877917728e-14
	7.852716027132815e-12,0.0
	-2.220996021476786e+02,0.0
	3.139388552138345e+00,0.0

 31	2.440619068041985e-03,0.000000000000000e+00
	1.000000000000000e+00,0.000000000000000e+00
	1.724780962291055e-11,1.149131268304678e-08
	-8.810869293982084e-12,1.998706775680282e-14
	-8.810869293773665e-12,1.998715963395805e-14
	-8.810869293773665e-12,1.998715963395805e-14
	8.810891963843041e-12,0.0
	-2.210996024779188e+02,0.0
	3.139324191230018e+00,0.0

 32	2.511886431509585e-03,0.000000000000000e+00
	1.000000000000000e+00,0.000000000000000e+00
	1.935235971699792e-11,1.252764976216156e-08
	-9.885956040971216e-12,2.308070349692354e-14
	-9.885956040723508e-12,2.308080959498675e-14
	-9.885956040723508e-12,2.308080959498675e-14
	9.885982984149284e-12,0.0
	-2.200996028277303e+02,0.0
	3.139257950950684e+00,0.0

 33	2.585234839562196e-03,0.000000000000000e+00
	1.000000000000000e+00,0.000000000000000e+00
	2.171370357655329e-11,1.365744820102509e-08
	-1.109222285191294e-11,2.665317780892345e-14
	-1.109222285161854e-11,2.665330032903044e-14
	-1.109222285161854e-11,2.665330032903044e-14
	1.109225487393735e-11,0.0
	-2.190996031982685e+02,0.0
	3.139189776421849e+00,0.0

 34	2.660725059798815e-03,0.000000000000000e+00
	1.000000000000000e+00,0.000000000000000e+00
	2.436317474523227e-11,1.488913673804427e-08
	-1.244567604774568e-11,3.077860616394677e-14
	-1.244567604739578e-11,3.077874764792849e-14
	-1.244567604739578e-11,3.077874764792849e-14
	1.244571410598958e-11,0.0
	-2.180996035907610e+02,0.0
	3.139119611162551e+00,0.0

 35	2.738419634264367e-03,0.000000000000000e+00
	1.000000000000000e+00,0.000000000000000e+00
	2.733593003069374e-11,1.623190424895146e-08
	-1.396427500317861e-11,3.554257574752837e-14
	-1.396427500276275e-11,3.554273913064416e-14
	-1.396427500276275e-11,3.554273913064416e-14
	1.396432023548191e-11,0.0
	-2.170996040065127e+02,0.0
	3.139047397042566e+00,0.0

 36	2.818382931264460e-03,0.000000000000000e+00
	1.000000000000000e+00,0.000000000000000e+00
	3.067141601220555e-11,1.769576829879037e-08
	-1.566817045291502e-11,4.104392106875367e-14
	-1.566817045242078e-11,4.104410974058660e-14
	-1.566817045242078e-11,4.104410974058660e-14
	1.566822421160280e-11,0.0
	-2.160996044468935e+02,0.0
	3.138973074234249e+00,0.0

 37	2.900681198693160e-03,0.000000000000000e+00
	1.000000000000000e+00,0.000000000000000e+00
	3.441389247035540e-11,1.929164987604051e-08
	-1.757997187510385e-11,4.739677440023148e-14
	-1.757997187451644e-11,4.739699227500916e-14
	-1.757997187451644e-11,4.739699227500916e-14
	1.758003576741713e-11,0.0
	-2.150996049133722e+02,0.0
	3.138896581162976e+00,0.0

 38	2.985382618917966e-03,0.000000000000000e+00
	1.000000000000000e+00,0.000000000000000e+00
	3.861301968480485e-11,2.103145486659438e-08
	-1.972504750006004e-11,5.473293358797225e-14
	-1.972504749936190e-11,5.473318518577195e-14
	-1.972504749936190e-11,5.473318518577195e-14
	1.972512343620804e-11,0.0
	-2.140996054074950e+02,0.0
	3.138817854456125e+00,0.0

 39	3.072557365267454e-03,0.000000000000000e+00
	1.000000000000000e+00,0.000000000000000e+00
	4.332451739278590e-11,2.292816287524177e-08
	-2.213186092490705e-11,6.320459635359346e-14
	-2.213186092407732e-11,6.320488689411617e-14
	-2.213186092407732e-11,6.320488689411617e-14
	2.213195117517721e-11,0.0
	-2.130996059308914e+02,0.0
	3.138736828890577e+00,0.0

 40	3.162277660168387e-03,0.000000000000000e+00
	1.000000000000000e+00,0.000000000000000e+00
	4.861090415215055e-11,2.499592405726243e-08
	-2.483234880059644e-11,7.298751781472430e-14
	-2.483234879961030e-11,7.298785332558326e-14
	-2.483234879961030e-11,7.298785332558326e-14
	2.483245606322983e-11,0.0
	-2.120996064853024e+02,0.0
	3.138653437338687e+00,0.0

 41	3.254617834980467e-03,0.000000000000000e+00
	1.000000000000000e+00,0.000000000000000e+00
	5.454232692012102e-11,2.725016468264297e-08
	-2.786234460289839e-11,8.428465673016572e-14
	-2.786234460172635e-11,8.428504417193595e-14
	-2.786234460172635e-11,8.428504417193595e-14
	2.786247208475983e-11,0.0
	-2.110996070725694e+02,0.0
	3.138567610712665e+00,0.0

 42	3.349654391578285e-03,0.000000000000000e+00
	1.000000000000000e+00,0.000000000000000e+00
	6.119749185543132e-11,2.970770222035174e-08
	-3.126205411020881e-11,9.733038611470908e-14
	-3.126205410881585e-11,9.733083352533211e-14
	-3.126205410881585e-11,9.733083352533211e-14
	3.126220562266336e-11,0.0
	-2.100996076946282e+02,0.0
	3.138479277907347e+00,0.0

 43	3.447466065731503e-03,0.000000000000000e+00
	1.000000000000000e+00,0.000000000000000e+00
	6.866470869450808e-11,3.238687080105599e-08
	-3.507658889700553e-11,1.123953555765587e-13
	-3.507658889534999e-11,1.123958722380983e-13
	-3.507658889534999e-11,1.123958722380983e-13
	3.507676896986788e-11,0.0
	-2.090996083535445e+02,0.0
	3.138388365741287e+00,0.0

 44	3.548133892335764e-03,0.000000000000000e+00
	1.000000000000000e+00,0.000000000000000e+00
	7.704306256029573e-11,3.530765799446936e-08
	-3.935656492194160e-11,1.297921062521796e-13
	-3.935656491997399e-11,1.297927028833883e-13
	-3.935656491997399e-11,1.297927028833883e-13
	3.935677893890517e-11,0.0
	-2.080996090515122e+02,0.0
	3.138294798896127e+00,0.0

 45	3.651741272548387e-03,0.000000000000000e+00
	1.000000000000000e+00,0.000000000000000e+00
	8.644372875282946e-11,3.849185392170350e-08
	-4.415877415307085e-11,1.498815548261794e-13
	-4.415877415073234e-11,1.498822438048701e-13
	-4.415877415073234e-11,1.498822438048701e-13
	4.415902851266538e-11,0.0
	-2.070996097908261e+02,0.0
	3.138198499854207e+00,0.0

 46	3.758374042884452e-03,0.000000000000000e+00
	1.000000000000000e+00,0.000000000000000e+00
	9.699144796629517e-11,4.196321381446718e-08
	-4.954693814113853e-11,1.730804811511428e-13
	-4.954693813835921e-11,1.730812767709794e-13
	-4.954693813835921e-11,1.730812767709794e-13
	4.954724044802862e-11,0.0
	-2.060996105739545e+02,0.0
	3.138099388834341e+00,0.0

 47	3.868120546330533e-03,0.000000000000000e+00
	1.000000000000000e+00,0.000000000000000e+00
	1.088261815099438e-10,4.574763523470079e-08
	-5.559255354078137e-11,1.998701748090223e-13
	-5.559255353747814e-11,1.998710935760564e-13
	-5.559255353747814e-11,1.998710935760564e-13
	5.559291283312487e-11,0.0
	-2.050996114034845e+02,0.0
	3.137997383725728e+00,0.0

 48	3.981071705534985e-03,0.000000000000000e+00
	1.000000000000000e+00,0.000000000000000e+00
	1.221049684938051e-10,4.987335127575563e-08
	-6.237584079738776e-11,2.308064199910053e-13
	-6.237584079346187e-11,2.308074809661107e-13
	-6.237584079346187e-11,2.308074809661107e-13
	6.237626781705180e-11,0.0
	-2.040996122821674e+02,0.0
	3.137892400019929e+00,0.0

 49	4.097321098135428e-03,0.000000000000000e+00
	1.000000000000000e+00,0.000000000000000e+00
	1.370040096240320e-10,5.437114118698794e-08
	-6.998680858792210e-11,2.665310258436947e-13
	-6.998680858325618e-11,2.665322510380043e-13
	-6.998680858325618e-11,2.665322510380043e-13
	6.998731610163505e-11,0.0
	-2.030996132129147e+02,0.0
	3.137784350740853e+00,0.0

 50	4.216965034285836e-03,0.000000000000000e+00
	1.000000000000000e+00,0.000000000000000e+00
	1.537210052574085e-10,5.927455999270701e-08
	-7.852644813880989e-11,3.077851414876095e-13
	-7.852644813326444e-11,3.077865563191576e-13
	-7.852644813326444e-11,3.077865563191576e-13
	7.852705131985106e-11,0.0
	-2.020996141988105e+02,0.0
	3.137673146372712e+00,0.0

 51	4.340102636447452e-03,0.000000000000000e+00
	1.000000000000000e+00,0.000000000000000e+00
	1.724777787389653e-10,6.462018881841649e-08
	-8.810807326751834e-11,3.554246319393429e-13
	-8.810807326092752e-11,3.554262657603858e-13
	-8.810807326092752e-11,3.554262657603858e-13
	8.810879014935662e-11,0.0
	-2.010996152431262e+02,0.0
	3.137558694785858e+00,0.0

 52	4.466835921509646e-03,0.000000000000000e+00
	1.000000000000000e+00,0.000000000000000e+00
	1.935232198322767e-10,7.044790779182517e-08
	-9.885882392801360e-11,4.104378339240009e-13
	-9.885882392018041e-11,4.104397206299575e-13
	-9.885882392018041e-11,4.104397206299575e-13
	9.885967594345788e-11,0.0
	-2.000996163493233e+02,0.0
	3.137440901160468e+00,0.0

 53	4.597269885308737e-03,0.000000000000000e+00
	1.000000000000000e+00,0.000000000000000e+00
	2.171365872989614e-10,7.680119355427763e-08
	-1.109213532092833e-10,4.739660599358640e-13
	-1.109213531999736e-10,4.739682386685067e-13
	-1.109213531999736e-10,4.739682386685067e-13
	1.109223658312631e-10,0.0
	-1.990996175210639e+02,0.0
	3.137319667907987e+00,0.0

 54	4.731512589614821e-03,0.000000000000000e+00
	1.000000000000000e+00,0.000000000000000e+00
	2.436312144487523e-10,8.372744360178267e-08
