Title: * sky130 bjt 3-stage explicit output low-pass section ac: rlp=150k, clp=22p, cload=10p
Date: Fri May 22 22:54:43  2026
Command: ngspice-46, Build Mar 29 2026   15:02:07
Plotname: AC Analysis
Flags: complex
No. Variables: 9
No. Points: 721
Variables:
	0	frequency	frequency grid=3
	1	v(vin)	voltage
	2	v(b3_collector)	voltage
	3	v(vout_drv)	voltage
	4	v(vout_final)	voltage
	5	gain	notype
	6	gain_vv	notype
	7	gain_db	decibel
	8	phase_deg	phase
Values:
 0	1.000000000000000e-03,0.000000000000000e+00
	1.000000000000000e+00,0.000000000000000e+00
	4.861096667818163e-13,7.904423276608954e-10
	-2.483247081701799e-13,2.309790069145382e-16
	-2.483247081632135e-13,2.309864962112953e-16
	-2.483247081632135e-13,2.309864962112953e-16
	2.483248155926157e-13,0.0
	-2.520995975673120e+02,0.0
	3.140662474586259e+00,0.0

 1	1.029200527194428e-03,0.000000000000000e+00
	1.000000000000000e+00,0.000000000000000e+00
	5.454240123247438e-13,8.617279547834594e-10
	-2.786248961968077e-13,2.667303916040791e-16
	-2.786248961885281e-13,2.667390401087719e-16
	-2.786248961885281e-13,2.667390401087719e-16
	2.786250238686102e-13,0.0
	-2.510995976261512e+02,0.0
	3.140635312870178e+00,0.0

 2	1.059253725177289e-03,0.000000000000000e+00
	1.000000000000000e+00,0.000000000000000e+00
	6.119758017582608e-13,9.394424379971301e-10
	-3.126222646295472e-13,3.080154455842728e-16
	-3.126222646197069e-13,3.080254327213439e-16
	-3.126222646197069e-13,3.080254327213439e-16
	3.126224163677667e-13,0.0
	-2.500995976884745e+02,0.0
	3.140607358017777e+00,0.0

 3	1.090184492385128e-03,0.000000000000000e+00
	1.000000000000000e+00,0.000000000000000e+00
	6.866481366342878e-13,1.024165560113937e-09
	-3.507679373857405e-13,3.556906809499395e-16
	-3.507679373740453e-13,3.557022139154884e-16
	-3.507679373740453e-13,3.557022139154884e-16
	3.507681177269495e-13,0.0
	-2.490995977544952e+02,0.0
	3.140578586869067e+00,0.0

 4	1.122018454301964e-03,0.000000000000000e+00
	1.000000000000000e+00,0.000000000000000e+00
	7.704318731617084e-13,1.116529391318429e-09
	-3.935680837660148e-13,4.107451823894231e-16
	-3.935680837521150e-13,4.107585004497559e-16
	-3.935680837521150e-13,4.107585004497559e-16
	3.935682981019400e-13,0.0
	-2.480995978244218e+02,0.0
	3.140548975587776e+00,0.0

 5	1.154781984689459e-03,0.000000000000000e+00
	1.000000000000000e+00,0.000000000000000e+00
	8.644387702537550e-13,1.217223004666012e-09
	-4.415906349939668e-13,4.743211270210483e-16
	-4.415906349774468e-13,4.743365064765642e-16
	-4.415906349774468e-13,4.743365064765642e-16
	4.415908897326869e-13,0.0
	-2.470995978984954e+02,0.0
	3.140518499641601e+00,0.0

 6	1.188502227437019e-03,0.000000000000000e+00
	1.000000000000000e+00,0.000000000000000e+00
	9.699162418854376e-13,1.326997616853322e-09
	-4.954728202983637e-13,5.477374803314491e-16
	-4.954728202787298e-13,5.477552402488457e-16
	-4.954728202787298e-13,5.477552402488457e-16
	4.954731230558946e-13,0.0
	-2.460995979769585e+02,0.0
	3.140487133781885e+00,0.0

 7	1.223207119049932e-03,0.000000000000000e+00
	1.000000000000000e+00,0.000000000000000e+00
	1.088263909504638e-12,1.446672192599208e-09
	-5.559296225319009e-13,6.325173598129026e-16
	-5.559296225085658e-13,6.325378686446230e-16
	-5.559296225085658e-13,6.325378686446230e-16
	5.559299823598937e-13,0.0
	-2.450995980600699e+02,0.0
	3.140454852022698e+00,0.0

 8	1.258925411794168e-03,0.000000000000000e+00
	1.000000000000000e+00,0.000000000000000e+00
	1.221052174143703e-12,1.577139554454867e-09
	-6.237632655292649e-13,7.304196339962010e-16
	-6.237632655015313e-13,7.304433172244504e-16
	-6.237632655015313e-13,7.304433172244504e-16
	6.237636931856274e-13,0.0
	-2.440995981481027e+02,0.0
	3.140421627619306e+00,0.0

 9	1.295686697517020e-03,0.000000000000000e+00
	1.000000000000000e+00,0.000000000000000e+00
	1.370043054666113e-12,1.719373043619459e-09
	-6.998738590932668e-13,8.434754124383300e-16
	-6.998738590603052e-13,8.435027614022467e-16
	-6.998738590603052e-13,8.435027614022467e-16
	6.998743673637951e-13,0.0
	-2.430995982413566e+02,0.0
	3.140387433046019e+00,0.0

 10	1.333521432163325e-03,0.000000000000000e+00
	1.000000000000000e+00,0.000000000000000e+00
	1.537213568669049e-12,1.874433781462887e-09
	-7.852713428642144e-13,9.740301837014546e-16
	-7.852713428250395e-13,9.740617657905676e-16
	-7.852713428250395e-13,9.740617657905676e-16
	7.852719469448557e-13,0.0
	-2.420995983401339e+02,0.0
	3.140352239973381e+00,0.0

 11	1.372460961007563e-03,0.000000000000000e+00
	1.000000000000000e+00,0.000000000000000e+00
	1.724781966275882e-12,2.043478585913826e-09
	-8.810888875529397e-13,1.124792475520012e-15
	-8.810888875063802e-13,1.124828945945456e-15
	-8.810888875063802e-13,1.124828945945456e-15
	8.810896055041101e-13,0.0
	-2.410995984447645e+02,0.0
	3.140316019244706e+00,0.0

 12	1.412537544622755e-03,0.000000000000000e+00
	1.000000000000000e+00,0.000000000000000e+00
	1.935237164936902e-12,2.227768601785907e-09
	-9.885979313677649e-13,1.298890046679617e-15
	-9.885979313124290e-13,1.298932162067323e-15
	-9.885979313124290e-13,1.298932162067323e-15
	9.885987846543084e-13,0.0
	-2.400995985556002e+02,0.0
	3.140278740851917e+00,0.0

 13	1.453784385607663e-03,0.000000000000000e+00
	1.000000000000000e+00,0.000000000000000e+00
	2.171371775820884e-12,2.428678709426294e-09
	-1.109225051157602e-12,1.499934776379737e-15
	-1.109225051091835e-12,1.499983410467593e-15
	-1.109225051091835e-12,1.499983410467593e-15
	1.109226065290533e-12,0.0
	-2.390995986729970e+02,0.0
	3.140240373910687e+00,0.0

 14	1.496235656094435e-03,0.000000000000000e+00
	1.000000000000000e+00,0.000000000000000e+00
	2.436319160017374e-12,2.647707781862501e-09
	-1.244570892131924e-12,1.732097597279894e-15
	-1.244570892053760e-12,1.732153759044546e-15
	-1.244570892053760e-12,1.732153759044546e-15
	1.244572097431136e-12,0.0
	-2.380995987973463e+02,0.0
	3.140200886634852e+00,0.0

 15	1.539926526059493e-03,0.000000000000000e+00
	1.000000000000000e+00,0.000000000000000e+00
	2.733595006282169e-12,2.886489866987844e-09
	-1.396431407348692e-12,2.000195026820839e-15
	-1.396431407255793e-12,2.000259881410181e-15
	-1.396431407255793e-12,2.000259881410181e-15
	1.396432839849446e-12,0.0
	-2.370995989290722e+02,0.0
	3.140160246310081e+00,0.0

 16	1.584893192461115e-03,0.000000000000000e+00
	1.000000000000000e+00,0.000000000000000e+00
	3.067143982040992e-12,3.146806378212106e-09
	-1.566821688804870e-12,2.309789092025626e-15
	-1.566821688694460e-12,2.309863984931267e-15
	-1.566821688694460e-12,2.309863984931267e-15
	1.566823391335152e-12,0.0
	-2.360995990686010e+02,0.0
	3.140118419266766e+00,0.0

 17	1.631172909227840e-03,0.000000000000000e+00
	1.000000000000000e+00,0.000000000000000e+00
	3.441392076648254e-12,3.430599384495833e-09
	-1.758002706336676e-12,2.667302720823185e-15
	-1.758002706205454e-12,2.667389205794361e-15
	-1.758002706205454e-12,2.667389205794361e-15
	1.758004729797640e-12,0.0
	-2.350995992163911e+02,0.0
	3.140075370852132e+00,0.0

 18	1.678804018122562e-03,0.000000000000000e+00
	1.000000000000000e+00,0.000000000000000e+00
	3.861305331481529e-12,3.739986098935241e-09
	-1.972511309142569e-12,3.080152993842343e-15
	-1.972511308986611e-12,3.080252865120392e-15
	-1.972511308986611e-12,3.080252865120392e-15
	1.972513714030345e-12,0.0
	-2.340995993729463e+02,0.0
	3.140031065401530e+00,0.0

 19	1.727825980507865e-03,0.000000000000000e+00
	1.000000000000000e+00,0.000000000000000e+00
	4.332455736210731e-12,4.077274674008245e-09
	-2.213193888037361e-12,3.556905021171088e-15
	-2.213193887852005e-12,3.557020350713232e-15
	-2.213193887852005e-12,3.557020350713232e-15
	2.213196746251730e-12,0.0
	-2.330995995387760e+02,0.0
	3.139985466208886e+00,0.0

 20	1.778279410038925e-03,0.000000000000000e+00
	1.000000000000000e+00,0.000000000000000e+00
	4.861095165580095e-12,4.444981421269588e-09
	-2.483244145083824e-12,4.107449636399076e-15
	-2.483244144863528e-12,4.107582816863762e-15
	-2.483244144863528e-12,4.107582816863762e-15
	2.483247542077831e-12,0.0
	-2.320995997144271e+02,0.0
	3.139938535496291e+00,0.0

 21	1.830206106311058e-03,0.000000000000000e+00
	1.000000000000000e+00,0.000000000000000e+00
	5.454238337833533e-12,4.845849583992883e-09
	-2.786245471791034e-12,4.743208594450264e-15
	-2.786245471529211e-12,4.743362388835835e-15
	-2.786245471529211e-12,4.743362388835835e-15
	2.786249509125804e-12,0.0
	-2.310995999004915e+02,0.0
	3.139890234382710e+00,0.0

 22	1.883649089489803e-03,0.000000000000000e+00
	1.000000000000000e+00,0.000000000000000e+00
	6.119755895614101e-12,5.282869802822192e-09
	-3.126218498212346e-12,5.477371530307095e-15
	-3.126218497901169e-12,5.477549129273618e-15
	-3.126218497901169e-12,5.477549129273618e-15
	3.126223296593496e-12,0.0
	-2.300996000975783e+02,0.0
	3.139840522851759e+00,0.0

 23	1.938652635952210e-03,0.000000000000000e+00
	1.000000000000000e+00,0.000000000000000e+00
	6.866478844377099e-12,5.759302427060950e-09
	-3.507674443851096e-12,6.325169594559745e-15
	-3.507674443481263e-12,6.325374682623204e-15
	-3.507674443481263e-12,6.325374682623204e-15
	3.507680146737507e-12,0.0
	-2.290996003063486e+02,0.0
	3.139789359718566e+00,0.0

 24	1.995262314968882e-03,0.000000000000000e+00
	1.000000000000000e+00,0.000000000000000e+00
	7.704315734254462e-12,6.278701838118083e-09
	-3.935674978336666e-12,7.304191442766582e-15
	-3.935674977897116e-12,7.304428274738691e-15
	-3.935674977897116e-12,7.304428274738691e-15
	3.935681756229521e-12,0.0
	-2.280996005274828e+02,0.0
	3.139736702595637e+00,0.0

 25	2.053525026457149e-03,0.000000000000000e+00
	1.000000000000000e+00,0.000000000000000e+00
	8.644384140166221e-12,6.844942966484818e-09
	-4.415899386121223e-12,8.434748134100851e-15
	-4.415899385598819e-12,8.435021623360357e-15
	-4.415899385598819e-12,8.435021623360357e-15
	4.415907441661545e-12,0.0
	-2.270996007617226e+02,0.0
	3.139682507857752e+00,0.0

 26	2.113489039836650e-03,0.000000000000000e+00
	1.000000000000000e+00,0.000000000000000e+00
	9.699158184969661e-12,7.462250200161009e-09
	-4.954719926471252e-12,9.740294509658767e-15
	-4.954719925850373e-12,9.740610330085489e-15
	-4.954719925850373e-12,9.740610330085489e-15
	4.954729500498319e-12,0.0
	-2.260996010098411e+02,0.0
	3.139626730605815e+00,0.0

 27	2.175204034019526e-03,0.000000000000000e+00
	1.000000000000000e+00,0.000000000000000e+00
	1.088263406306645e-11,8.135228900115258e-09
	-5.559286388666679e-12,1.124791579232729e-14
	-5.559286387928763e-12,1.124828049601367e-14
	-5.559286387928763e-12,1.124828049601367e-14
	5.559297767418486e-12,0.0
	-2.250996012726615e+02,0.0
	3.139569324629658e+00,0.0

 28	2.238721138568343e-03,0.000000000000000e+00
	1.000000000000000e+00,0.000000000000000e+00
	1.221051576091449e-11,8.868899757939372e-09
	-6.237620964409126e-12,1.298888950335846e-14
	-6.237620963532111e-12,1.298931065654066e-14
	-6.237620963532111e-12,1.298931065654066e-14
	6.237634488080124e-12,0.0
	-2.240996015510539e+02,0.0
	3.139510242369762e+00,0.0

 29	2.304092976055850e-03,0.000000000000000e+00
	1.000000000000000e+00,0.000000000000000e+00
	1.370042343880089e-11,9.668736251990014e-09
	-6.998724696294143e-12,1.499933435324158e-14
	-6.998724695251808e-12,1.499982069327018e-14
	-6.998724695251808e-12,1.499982069327018e-14
	6.998740769206153e-12,0.0
	-2.230996018459434e+02,0.0
	3.139449434877850e+00,0.0

 30	2.371373705661660e-03,0.000000000000000e+00
	1.000000000000000e+00,0.000000000000000e+00
	1.537212723897900e-11,1.054070548146625e-08
	-7.852696914832780e-12,1.732095956889796e-14
	-7.852696913593962e-12,1.732152118550480e-14
	-7.852696913593962e-12,1.732152118550480e-14
	7.852716017523130e-12,0.0
	-2.220996021583079e+02,0.0
	3.139386851776338e+00,0.0

 31	2.440619068041985e-03,0.000000000000000e+00
	1.000000000000000e+00,0.000000000000000e+00
	1.724780962263879e-11,1.149131268304678e-08
	-8.810869248833592e-12,2.000193020285539e-14
	-8.810869247361254e-12,2.000257874747708e-14
	-8.810869247361254e-12,2.000257874747708e-14
	8.810891952421890e-12,0.0
	-2.210996024891779e+02,0.0
	3.139322441216601e+00,0.0

 32	2.511886431509585e-03,0.000000000000000e+00
	1.000000000000000e+00,0.000000000000000e+00
	1.935235971667494e-11,1.252764976216156e-08
	-9.885955987312231e-12,2.309786637617520e-14
	-9.885955985562355e-12,2.309861530367602e-14
	-9.885955985562355e-12,2.309861530367602e-14
	9.885982970575314e-12,0.0
	-2.200996028396564e+02,0.0
	3.139256149836015e+00,0.0

 33	2.585234839562196e-03,0.000000000000000e+00
	1.000000000000000e+00,0.000000000000000e+00
	2.171370357616941e-11,1.365744820102509e-08
	-1.109222278813924e-11,2.667299718571851e-14
	-1.109222278605951e-11,2.667386203352746e-14
	-1.109222278605951e-11,2.667386203352746e-14
	1.109225485780477e-11,0.0
	-2.190996032109013e+02,0.0
	3.139187922713750e+00,0.0

 34	2.660725059798815e-03,0.000000000000000e+00
	1.000000000000000e+00,0.000000000000000e+00
	2.436317474477603e-11,1.488913673804428e-08
	-1.244567597195034e-11,3.080149321469059e-14
	-1.244567596947857e-11,3.080249192514352e-14
	-1.244567596947857e-11,3.080249192514352e-14
	1.244571408681580e-11,0.0
	-2.180996036041424e+02,0.0
	3.139117703325272e+00,0.0

 35	2.738419634264367e-03,0.000000000000000e+00
	1.000000000000000e+00,0.000000000000000e+00
	2.733593003015150e-11,1.623190424895146e-08
	-1.396427491309556e-11,3.556900529098004e-14
	-1.396427491015786e-11,3.557015858355441e-14
	-1.396427491015786e-11,3.557015858355441e-14
	1.396432021269370e-11,0.0
	-2.170996040206871e+02,0.0
	3.139045433495513e+00,0.0

 36	2.818382931264460e-03,0.000000000000000e+00
	1.000000000000000e+00,0.000000000000000e+00
	3.067141601156110e-11,1.769576829879037e-08
	-1.566817034585123e-11,4.107444141663808e-14
	-1.566817034235977e-11,4.107577321780238e-14
	-1.566817034235977e-11,4.107577321780238e-14
	1.566822418451905e-11,0.0
	-2.160996044619077e+02,0.0
	3.138971053350676e+00,0.0

 37	2.900681198693160e-03,0.000000000000000e+00
	1.000000000000000e+00,0.000000000000000e+00
	3.441389246958948e-11,1.929164987604051e-08
	-1.757997174785837e-11,4.743201873253004e-14
	-1.757997174370876e-11,4.743355667212586e-14
	-1.757997174370876e-11,4.743355667212586e-14
	1.758003573522810e-11,0.0
	-2.150996049292761e+02,0.0
	3.138894501268632e+00,0.0

 38	2.985382618917966e-03,0.000000000000000e+00
	1.000000000000000e+00,0.000000000000000e+00
	3.861301968389454e-11,2.103145486659439e-08
	-1.972504734882843e-11,5.477363308888452e-14
	-1.972504734389662e-11,5.477540907333902e-14
	-1.972504734389662e-11,5.477540907333902e-14
	1.972512339795121e-11,0.0
	-2.140996054243413e+02,0.0
	3.138815713827874e+00,0.0

 39	3.072557365267454e-03,0.000000000000000e+00
	1.000000000000000e+00,0.000000000000000e+00
	4.332451739170399e-11,2.292816287524177e-08
	-2.213186074516790e-11,6.325159538068364e-14
	-2.213186073930642e-11,6.325364625494443e-14
	-2.213186073930642e-11,6.325364625494443e-14
	2.213195112970878e-11,0.0
	-2.130996059487359e+02,0.0
	3.138734625754966e+00,0.0

 40	3.162277660168387e-03,0.000000000000000e+00
	1.000000000000000e+00,0.000000000000000e+00
	4.861090415086472e-11,2.499592405726243e-08
	-2.483234858697629e-11,7.304179141594630e-14
	-2.483234858000991e-11,7.304415972787091e-14
	-2.483234858000991e-11,7.304415972787091e-14
	2.483245600919069e-11,0.0
	-2.120996065042042e+02,0.0
	3.138651169870479e+00,0.0

 41	3.254617834980467e-03,0.000000000000000e+00
	1.000000000000000e+00,0.000000000000000e+00
	5.454232691859278e-11,2.725016468264298e-08
	-2.786234434901019e-11,8.434733087216488e-14
	-2.786234434073065e-11,8.435006575522324e-14
	-2.786234434073065e-11,8.435006575522324e-14
	2.786247202053397e-11,0.0
	-2.110996070925913e+02,0.0
	3.138565277033325e+00,0.0

 42	3.349654391578285e-03,0.000000000000000e+00
	1.000000000000000e+00,0.000000000000000e+00
	6.119749185361502e-11,2.970770222035174e-08
	-3.126205380846210e-11,9.740276104206210e-14
	-3.126205379862183e-11,9.740591923466396e-14
	-3.126205379862183e-11,9.740591923466396e-14
	3.126220554633066e-11,0.0
	-2.100996077158364e+02,0.0
	3.138476876083488e+00,0.0

 43	3.447466065731503e-03,0.000000000000000e+00
	1.000000000000000e+00,0.000000000000000e+00
	6.866470869234940e-11,3.238687080105600e-08
	-3.507658853837915e-11,1.124789327865384e-13
	-3.507658852668398e-11,1.124825798091331e-13
	-3.507658852668398e-11,1.124825798091331e-13
	3.507676887914648e-11,0.0
	-2.090996083760094e+02,0.0
	3.138385893783065e+00,0.0

 44	3.548133892335764e-03,0.000000000000000e+00
	1.000000000000000e+00,0.000000000000000e+00
	7.704306255773013e-11,3.530765799446936e-08
	-3.935656449571364e-11,1.298886196446567e-13
	-3.935656448181392e-11,1.298928311590247e-13
	-3.935656448181392e-11,1.298928311590247e-13
	3.935677883108275e-11,0.0
	-2.080996090753081e+02,0.0
	3.138292254755597e+00,0.0

 45	3.651741272548387e-03,0.000000000000000e+00
	1.000000000000000e+00,0.000000000000000e+00
	8.644372874978024e-11,3.849185392170351e-08
	-4.415877364649769e-11,1.499930066748813e-13
	-4.415877362997784e-11,1.499978700538173e-13
	-4.415877362997784e-11,1.499978700538173e-13
	4.415902838451778e-11,0.0
	-2.070996098160321e+02,0.0
	3.138195881423623e+00,0.0

 46	3.758374042884452e-03,0.000000000000000e+00
	1.000000000000000e+00,0.000000000000000e+00
	9.699144796267118e-11,4.196321381446719e-08
	-4.954693753907554e-11,1.732091836425173e-13
	-4.954693751944166e-11,1.732147997824703e-13
	-4.954693751944166e-11,1.732147997824703e-13
	4.954724029572505e-11,0.0
	-2.060996106006541e+02,0.0
	3.138096693944413e+00,0.0

 47	3.868120546330533e-03,0.000000000000000e+00
	1.000000000000000e+00,0.000000000000000e+00
	1.088261815056367e-10,4.574763523470079e-08
	-5.559255282522870e-11,2.000187980104267e-13
	-5.559255280189380e-11,2.000252834246990e-13
	-5.559255280189380e-11,2.000252834246990e-13
	5.559291265211205e-11,0.0
	-2.050996114317661e+02,0.0
	3.137994610143821e+00,0.0

 48	3.981071705534985e-03,0.000000000000000e+00
	1.000000000000000e+00,0.000000000000000e+00
	1.221049684886861e-10,4.987335127575565e-08
	-6.237583994695201e-11,2.309780472433527e-13
	-6.237583991921844e-11,2.309855364792860e-13
	-6.237583991921844e-11,2.309855364792860e-13
	6.237626760191755e-11,0.0
	-2.040996123121248e+02,0.0
	3.137889545448215e+00,0.0

 49	4.097321098135428e-03,0.000000000000000e+00
	1.000000000000000e+00,0.000000000000000e+00
	1.370040096179480e-10,5.437114118698796e-08
	-6.998680757717678e-11,2.667292177276920e-13
	-6.998680754421537e-11,2.667378661579847e-13
	-6.998680754421537e-11,2.667378661579847e-13
	6.998731584594656e-11,0.0
	-2.030996132446474e+02,0.0
	3.137781412814410e+00,0.0

 50	4.216965034285836e-03,0.000000000000000e+00
	1.000000000000000e+00,0.000000000000000e+00
	1.537210052501777e-10,5.927455999270702e-08
	-7.852644693753722e-11,3.080140096905883e-13
	-7.852644689836252e-11,3.080239967366525e-13
	-7.852644689836252e-11,3.080239967366525e-13
	7.852705101596465e-11,0.0
	-2.020996142324234e+02,0.0
	3.137670122657562e+00,0.0

 51	4.340102636447452e-03,0.000000000000000e+00
	1.000000000000000e+00,0.000000000000000e+00
	1.724777787303715e-10,6.462018881841652e-08
	-8.810807183980571e-11,3.556889245550447e-13
	-8.810807179324651e-11,3.557004574092736e-13
	-8.810807179324651e-11,3.557004574092736e-13
	8.810878978818902e-11,0.0
	-2.010996152787306e+02,0.0
	3.137555582776953e+00,0.0

 52	4.466835921509646e-03,0.000000000000000e+00
	1.000000000000000e+00,0.000000000000000e+00
	1.935232198220629e-10,7.044790779182521e-08
	-9.885882223117352e-11,4.107430339548417e-13
	-9.885882217583782e-11,4.107563518790072e-13
	-9.885882217583782e-11,4.107563518790072e-13
	9.885967551420818e-11,0.0
	-2.000996163870375e+02,0.0
	3.137437698279611e+00,0.0

 53	4.597269885308737e-03,0.000000000000000e+00
	1.000000000000000e+00,0.000000000000000e+00
	2.171365872868223e-10,7.680119355427766e-08
	-1.109213511925871e-10,4.743184990412330e-13
	-1.109213511268205e-10,4.743338783301880e-13
	-1.109213511268205e-10,4.743338783301880e-13
	1.109223653210999e-10,0.0
	-1.990996175610128e+02,0.0
	3.137316371501702e+00,0.0

 54	4.731512589614821e-03,0.000000000000000e+00
	1.000000000000000e+00,0.000000000000000e+00
	2.436312144343249e-10,8.372744360178272e-08
