Title: * sky130 bjt 3-stage low-cutoff sweep target-band noise candidate: ccpl=68n, ch=30p
Date: Fri May 22 20:35:30  2026
Command: ngspice-46, Build Mar 29 2026   15:02:07
Plotname: Noise Spectral Density Curves
Flags: real
No. Variables: 3
No. Points: 265
Variables:
	0	frequency	frequency grid=3
	1	onoise_spectrum	voltage-density
	2	inoise_spectrum	voltage-density
Values:
 0	1.000000000000000e+01
	3.336685357902909e-04
	5.783143303977097e-06

 1	1.029200527194428e+01
	3.248535256626631e-04
	5.540089248690855e-06

 2	1.059253725177289e+01
	3.160565592086972e-04
	5.307551082844487e-06

 3	1.090184492385128e+01
	3.072972611017953e-04
	5.085065665329493e-06

 4	1.122018454301964e+01
	2.985939096961283e-04
	4.872191306917948e-06

 5	1.154781984689458e+01
	2.899634225336316e-04
	4.668506677557249e-06

 6	1.188502227437019e+01
	2.814213552987832e-04
	4.473609778251910e-06

 7	1.223207119049932e+01
	2.729819128424358e-04
	4.287116972930157e-06

 8	1.258925411794168e+01
	2.646579708694410e-04
	4.108662076081104e-06

 9	1.295686697517020e+01
	2.564611068957456e-04
	3.937895492299401e-06

 10	1.333521432163325e+01
	2.484016391105840e-04
	3.774483404192037e-06

 11	1.372460961007563e+01
	2.404886718326613e-04
	3.618107005389639e-06

 12	1.412537544622755e+01
	2.327301463193317e-04
	3.468461775667012e-06

 13	1.453784385607663e+01
	2.251328957689913e-04
	3.325256795414193e-06

 14	1.496235656094434e+01
	2.177027034474614e-04
	3.188214096915414e-06

 15	1.539926526059493e+01
	2.104443629654729e-04
	3.057068050090409e-06

 16	1.584893192461115e+01
	2.033617398331793e-04
	2.931564780530602e-06

 17	1.631172909227840e+01
	1.964578335160338e-04
	2.811461617827086e-06

 18	1.678804018122562e+01
	1.897348393143593e-04
	2.696526572334784e-06

 19	1.727825980507865e+01
	1.831942094808705e-04
	2.586537838655506e-06

 20	1.778279410038925e+01
	1.768367130816598e-04
	2.481283324245211e-06

 21	1.830206106311058e+01
	1.706624941867029e-04
	2.380560201666272e-06

 22	1.883649089489803e+01
	1.646711280553862e-04
	2.284174483110009e-06

 23	1.938652635952210e+01
	1.588616750504661e-04
	2.191940615910478e-06

 24	1.995262314968882e+01
	1.532327320792742e-04
	2.103681097859280e-06

 25	2.053525026457149e+01
	1.477824814160668e-04
	2.019226111212827e-06

 26	2.113489039836650e+01
	1.425087368106808e-04
	1.938413174357127e-06

 27	2.175204034019526e+01
	1.374089868303044e-04
	1.861086810166671e-06

 28	2.238721138568343e+01
	1.324804354214029e-04
	1.787098230154926e-06

 29	2.304092976055849e+01
	1.277200397078239e-04
	1.716305033575987e-06

 30	2.371373705661659e+01
	1.231245450698725e-04
	1.648570920689409e-06

 31	2.440619068041984e+01
	1.186905175698124e-04
	1.583765419452503e-06

 32	2.511886431509584e+01
	1.144143738082068e-04
	1.521763624950427e-06

 33	2.585234839562195e+01
	1.102924083075418e-04
	1.462445950918973e-06

 34	2.660725059798814e+01
	1.063208185321884e-04
	1.405697892755192e-06

 35	2.738419634264367e+01
	1.024957276597023e-04
	1.351409801449143e-06

 36	2.818382931264459e+01
	9.881320522439442e-05
	1.299476667905065e-06

 37	2.900681198693160e+01
	9.526928575664969e-05
	1.249797917153587e-06

 38	2.985382618917966e+01
	9.185998554233858e-05
	1.202277211986794e-06

 39	3.072557365267453e+01
	8.858131762680750e-05
	1.156822265576861e-06

 40	3.162277660168386e+01
	8.542930518509377e-05
	1.113344662665334e-06

 41	3.254617834980466e+01
	8.239999337817026e-05
	1.071759688934978e-06

 42	3.349654391578284e+01
	7.948945981072385e-05
	1.031986168199115e-06

 43	3.447466065731501e+01
	7.669382370196728e-05
	9.939463070645781e-07

 44	3.548133892335763e+01
	7.400925387624147e-05
	9.575655467440895e-07

 45	3.651741272548386e+01
	7.143197567466956e-05
	9.227724217122410e-07

 46	3.758374042884451e+01
	6.895827688437219e-05
	8.894984249155012e-07

 47	3.868120546330531e+01
	6.658451277572006e-05
	8.576778792622288e-07

 48	3.981071705534983e+01
	6.430711033281903e-05
	8.272478151323938e-07

 49	4.097321098135426e+01
	6.212257175689701e-05
	7.981478536588850e-07

 50	4.216965034285834e+01
	6.002747731669978e-05
	7.703200955438128e-07

 51	4.340102636447450e+01
	5.801848761461416e-05
	7.437090151827964e-07

 52	4.466835921509644e+01
	5.609234533221322e-05
	7.182613598789724e-07

 53	4.597269885308735e+01
	5.424587651350622e-05
	6.939260539359988e-07

 54	4.731512589614819e+01
	5.247599143971707e-05
	6.706541074257774e-07

 55	4.869675251658646e+01
	5.077968514426311e-05
	6.483985294320898e-07

 56	5.011872336272738e+01
	4.915403761262958e-05
	6.271142455759691e-07

 57	5.158221650723073e+01
	4.759621370713511e-05
	6.067580196323829e-07

 58	5.308844442309900e+01
	4.610346285290548e-05
	5.872883790511260e-07

 59	5.463865498818559e+01
	4.467311851730340e-05
	5.686655441973574e-07

 60	5.623413251903509e+01
	4.330259751179475e-05
	5.508513611295889e-07

 61	5.787619883491225e+01
	4.198939914157767e-05
	5.338092377349674e-07

 62	5.956621435290124e+01
	4.073110422548453e-05
	5.175040830437158e-07

 63	6.130557921498227e+01
	3.952537400569595e-05
	5.019022495465761e-07

 64	6.309573444801953e+01
	3.836994896420131e-05
	4.869714783415029e-07

 65	6.493816315762135e+01
	3.726264756056586e-05
	4.726808469383222e-07

 66	6.683439175686169e+01
	3.620136490346917e-05
	4.590007195532244e-07

 67	6.878599123088100e+01
	3.518407136651053e-05
	4.459026997286461e-07

 68	7.079457843841404e+01
	3.420881115710291e-05
	4.333595851182452e-07

 69	7.286181745132302e+01
	3.327370084589616e-05
	4.213453242818039e-07

 70	7.498942093324584e+01
	3.237692786270266e-05
	4.098349753405830e-07

 71	7.717915155850152e+01
	3.151674896411823e-05
	3.988046663499856e-07

 72	7.943282347242844e+01
	3.069148867687931e-05
	3.882315572537863e-07

 73	8.175230379436530e+01
	2.989953772053686e-05
	3.780938032917431e-07

 74	8.413951416451982e+01
	2.913935141231425e-05
	3.683705197409884e-07

 75	8.659643233600687e+01
	2.840944805666248e-05
	3.590417478804483e-07

 76	8.912509381337490e+01
	2.770840732184017e-05
	3.500884220767464e-07

 77	9.172759353897833e+01
	2.703486860550609e-05
	3.414923378995781e-07

 78	9.440608762859272e+01
	2.638752939139026e-05
	3.332361211842072e-07

 79	9.716279515771102e+01
	2.576514359901541e-05
	3.253031979682024e-07

 80	1.000000000000004e+02
	2.516651992848543e-05
	3.176777652390970e-07

 81	1.029200527194432e+02
	2.459052020252213e-05
	3.103447624386178e-07

 82	1.059253725177293e+02
	2.403605770786038e-05
	3.032898436779979e-07

 83	1.090184492385132e+02
	2.350209553849070e-05
	2.964993506269419e-07

 84	1.122018454301968e+02
	2.298764494312702e-05
	2.899602860464256e-07

 85	1.154781984689463e+02
	2.249176367943819e-05
	2.836602879425026e-07

 86	1.188502227437024e+02
	2.201355437781532e-05
	2.775876043242425e-07

 87	1.223207119049937e+02
	2.155216291725008e-05
	2.717310685545412e-07

 88	1.258925411794173e+02
	2.110677681620934e-05
	2.660800752869595e-07

 89	1.295686697517025e+02
	2.067662364111434e-05
	2.606245569857412e-07

 90	1.333521432163330e+02
	2.026096943530623e-05
	2.553549610290672e-07

 91	1.372460961007568e+02
	1.985911717097699e-05
	2.502622273981078e-07

 92	1.412537544622761e+02
	1.947040522677500e-05
	2.453377669559757e-07

 93	1.453784385607669e+02
	1.909420589342794e-05
	2.405734403218184e-07

 94	1.496235656094440e+02
	1.872992390969069e-05
	2.359615373457314e-07

 95	1.539926526059499e+02
	1.837699503073191e-05
	2.314947571901444e-07

 96	1.584893192461121e+02
	1.803488463086874e-05
	2.271661890229588e-07

 97	1.631172909227846e+02
	1.770308634238300e-05
	2.229692933268617e-07

 98	1.678804018122568e+02
	1.738112073188975e-05
	2.188978838281800e-07

 99	1.727825980507872e+02
	1.706853401557000e-05
	2.149461100473259e-07

 100	1.778279410038932e+02
	1.676489681428510e-05
	2.111084404714488e-07

 101	1.830206106311065e+02
	1.646980294944151e-05
	2.073796463482366e-07

 102	1.883649089489810e+02
	1.618286828019244e-05
	2.037547860982742e-07

 103	1.938652635952217e+02
	1.590372958240800e-05
	2.002291903416158e-07

 104	1.995262314968890e+02
	1.563204346958566e-05
	1.967984475326835e-07

 105	2.053525026457157e+02
	1.536748535574975e-05
	1.934583901959109e-07

 106	2.113489039836658e+02
	1.510974846013181e-05
	1.902050817531777e-07

 107	2.175204034019534e+02
	1.485854285334160e-05
	1.870348039325697e-07

 108	2.238721138568351e+02
	1.461359454452093e-05
	1.839440447467910e-07

 109	2.304092976055858e+02
	1.437464460888035e-05
	1.809294870283550e-07

 110	2.371373705661668e+02
	1.414144835486562e-05
	1.779879975076929e-07

 111	2.440619068041993e+02
	1.391377453013805e-05
	1.751166164193921e-07

 112	2.511886431509594e+02
	1.369140456540121e-05
	1.723125476210986e-07

 113	2.585234839562205e+02
	1.347413185509670e-05
	1.695731492089190e-07

 114	2.660725059798825e+02
	1.326176107386921e-05
	1.668959246127562e-07

 115	2.738419634264377e+02
	1.305410752767997e-05
	1.642785141546234e-07

 116	2.818382931264470e+02
	1.285099653841908e-05
	1.617186870527319e-07

 117	2.900681198693171e+02
	1.265226286077645e-05
	1.592143338540646e-07

 118	2.985382618917977e+02
	1.245775013022357e-05
	1.567634592780583e-07

 119	3.072557365267465e+02
	1.226731034079357e-05
	1.543641754541568e-07

 120	3.162277660168398e+02
	1.208080335151849e-05
	1.520146955360677e-07

 121	3.254617834980479e+02
	1.189809642022714e-05
	1.497133276758280e-07

 122	3.349654391578297e+02
	1.171906376353555e-05
	1.474584693410601e-07

 123	3.447466065731516e+02
	1.154358614181117e-05
	1.452486019590965e-07

 124	3.548133892335777e+02
	1.137155046794113e-05
	1.430822858721085e-07

 125	3.651741272548400e+02
	1.120284943877093e-05
	1.409581555877070e-07

 126	3.758374042884466e+02
	1.103738118804251e-05
	1.388749153100559e-07

 127	3.868120546330547e+02
	1.087504895981228e-05
	1.368313347368779e-07

 128	3.981071705534999e+02
	1.071576080122342e-05
	1.348262451083938e-07

 129	4.097321098135442e+02
	1.055942927366904e-05
	1.328585354945881e-07

 130	4.216965034285851e+02
	1.040597118131681e-05
	1.309271493078519e-07

 131	4.340102636447468e+02
	1.025530731607009e-05
	1.290310810285264e-07

 132	4.466835921509662e+02
	1.010736221806447e-05
	1.271693731313539e-07

 133	4.597269885308754e+02
	9.962063950795330e-06
	1.253411132014753e-07

 134	4.731512589614838e+02
	9.819343890087344e-06
	1.235454312290384e-07

 135	4.869675251658666e+02
	9.679136526073294e-06
	1.217814970720395e-07

 136	5.011872336272759e+02
	9.541379277436459e-06
	1.200485180775347e-07

 137	5.158221650723094e+02
	9.406012317207107e-06
	1.183457368517851e-07

 138	5.308844442309922e+02
	9.272978409410469e-06
	1.166724291704771e-07

 139	5.463865498818583e+02
	9.142222755920473e-06
	1.150279020205041e-07

 140	5.623413251903534e+02
	9.013692852897462e-06
	1.134114917653748e-07

 141	5.787619883491251e+02
	8.887338356245050e-06
	1.118225624265946e-07

 142	5.956621435290151e+02
	8.763110955494147e-06
	1.102605040739445e-07

 143	6.130557921498255e+02
	8.640964255627878e-06
	1.087247313178378e-07

 144	6.309573444801982e+02
	8.520853666333104e-06
	1.072146818974016e-07

 145	6.493816315762165e+02
	8.402736298218385e-06
	1.057298153582717e-07

 146	6.683439175686200e+02
	8.286570865557564e-06
	1.042696118144270e-07

 147	6.878599123088131e+02
	8.172317595134557e-06
	1.028335707887453e-07

 148	7.079457843841436e+02
	8.059938140822762e-06
	1.014212101272400e-07

 149	7.286181745132336e+02
	7.949395503505302e-06
	1.000320649822924e-07

 150	7.498942093324620e+02
	7.840653956007416e-06
	9.866568686040969e-08

 151	7.717915155850188e+02
	7.733678972697366e-06
	9.732164273038976e-08

 152	7.943282347242881e+02
	7.628437163492048e-06
	9.599951418792981e-08

 153	8.175230379436568e+02
	7.524896211917205e-06
	9.469889667307408e-08

 154	8.413951416452022e+02
	7.423024817010765e-06
	9.341939873701280e-08

 155	8.659643233600727e+02
	7.322792638789674e-06
	9.216064135502401e-08

 156	8.912509381337532e+02
	7.224170247032331e-06
	9.092225728256083e-08

 157	9.172759353897875e+02
	7.127129073195701e-06
	8.970389045161300e-08

 158	9.440608762859316e+02
	7.031641365201184e-06
	8.850519540473181e-08

 159	9.716279515771147e+02
	6.937680144948677e-06
	8.732583676422433e-08

 160	1.000000000000009e+03
	6.845219168336784e-06
	8.616548873414578e-08

 161	1.029200527194437e+03
	6.754232887637012e-06
	8.502383463307963e-08

 162	1.059253725177299e+03
	6.664696416058951e-06
	8.390056645544409e-08

 163	1.090184492385138e+03
	6.576585494339165e-06
	8.279538445962808e-08

 164	1.122018454301974e+03
	6.489876459251803e-06
	8.170799678105005e-08

 165	1.154781984689469e+03
	6.404546213848186e-06
	8.063811906859058e-08

 166	1.188502227437030e+03
	6.320572199368818e-06
	7.958547414274206e-08

 167	1.223207119049943e+03
	6.237932368657752e-06
	7.854979167411739e-08

 168	1.258925411794179e+03
	6.156605160999597e-06
	7.753080788091762e-08

 169	1.295686697517032e+03
	6.076569478270247e-06
	7.652826524410918e-08

 170	1.333521432163337e+03
	5.997804662300214e-06
	7.554191223915097e-08

 171	1.372460961007575e+03
	5.920290473365415e-06
	7.457150308315321e-08

 172	1.412537544622768e+03
	5.844007069725232e-06
	7.361679749641314e-08

 173	1.453784385607676e+03
	5.768934988123687e-06
	7.267756047749691e-08

 174	1.496235656094448e+03
	5.695055125175064e-06
	7.175356209079262e-08

 175	1.539926526059507e+03
	5.622348719579641e-06
	7.084457726585100e-08

 176	1.584893192461129e+03
	5.550797335084248e-06
	6.995038560767497e-08

 177	1.631172909227855e+03
	5.480382844146061e-06
	6.907077121724852e-08

 178	1.678804018122577e+03
	5.411087412224979e-06
	6.820552252163148e-08

 179	1.727825980507881e+03
	5.342893482662118e-06
	6.735443211300342e-08

 180	1.778279410038941e+03
	5.275783762087239e-06
	6.651729659602434e-08

 181	1.830206106311075e+03
	5.209741206306279e-06
	6.569391644309211e-08

 182	1.883649089489820e+03
	5.144749006631672e-06
	6.488409585682641e-08

 183	1.938652635952227e+03
	5.080790576597242e-06
	6.408764263943306e-08

 184	1.995262314968900e+03
	5.017849539037513e-06
	6.330436806847011e-08

 185	2.053525026457167e+03
	4.955909713466342e-06
	6.253408677857759e-08

 186	2.113489039836669e+03
	4.894955103755675e-06
	6.177661664888688e-08

 187	2.175204034019545e+03
	4.834969886035179e-06
	6.103177869564570e-08

 188	2.238721138568363e+03
	4.775938396823370e-06
	6.029939696981582e-08

 189	2.304092976055870e+03
	4.717845121327587e-06
	5.957929845927229e-08

 190	2.371373705661681e+03
	4.660674681903416e-06
	5.887131299544287e-08

 191	2.440619068042006e+03
	4.604411826635829e-06
	5.817527316398412e-08

 192	2.511886431509607e+03
	4.549041418017788e-06
	5.749101421932374e-08

 193	2.585234839562218e+03
	4.494548421707558e-06
	5.681837400290850e-08

 194	2.660725059798838e+03
	4.440917895334667e-06
	5.615719286483108e-08

 195	2.738419634264391e+03
	4.388134977337339e-06
	5.550731358870371e-08

 196	2.818382931264484e+03
	4.336184875803308e-06
	5.486858131968816e-08

 197	2.900681198693185e+03
	4.285052857309871e-06
	5.424084349532664e-08

 198	2.985382618917992e+03
	4.234724235728519e-06
	5.362394977926127e-08

 199	3.072557365267480e+03
	4.185184360993563e-06
	5.301775199748180e-08

 200	3.162277660168414e+03
	4.136418607803169e-06
	5.242210407718500e-08

 201	3.254617834980495e+03
	4.088412364260454e-06
	5.183686198793594e-08

 202	3.349654391578314e+03
	4.041151020419674e-06
	5.126188368523157e-08

 203	3.447466065731532e+03
	3.994619956748942e-06
	5.069702905615946e-08

 204	3.548133892335794e+03
	3.948804532488421e-06
	5.014215986725370e-08

 205	3.651741272548418e+03
	3.903690073902620e-06
	4.959713971438325e-08

 206	3.758374042884484e+03
	3.859261862421186e-06
	4.906183397455831e-08

 207	3.868120546330566e+03
	3.815505122673727e-06
	4.853610975970999e-08

 208	3.981071705535018e+03
	3.772405010406348e-06
	4.801983587229630e-08

 209	4.097321098135462e+03
	3.729946600302472e-06
	4.751288276271367e-08

 210	4.216965034285871e+03
	3.688114873697720e-06
	4.701512248847458e-08

 211	4.340102636447489e+03
	3.646894706214125e-06
	4.652642867510849e-08

 212	4.466835921509683e+03
	3.606270855318782e-06
	4.604667647874722e-08

 213	4.597269885308776e+03
	3.566227947836872e-06
	4.557574255037387e-08

 214	4.731512589614861e+03
	3.526750467431028e-06
	4.511350500171069e-08

 215	4.869675251658689e+03
	3.487822742087014e-06
	4.465984337269445e-08

 216	5.011872336272783e+03
	3.449428931640152e-06
	4.421463860059604e-08

 217	5.158221650723120e+03
	3.411553015373952e-06
	4.377777299068378e-08

 218	5.308844442309948e+03
	3.374178779758582e-06
	4.334913018844082e-08

 219	5.463865498818609e+03
	3.337289806367286e-06
	4.292859515341278e-08

 220	5.623413251903560e+03
	3.300869460049052e-06
	4.251605413452031e-08

 221	5.787619883491278e+03
	3.264900877428506e-06
	4.211139464698876e-08

 222	5.956621435290179e+03
	3.229366955810184e-06
	4.171450545079529e-08

 223	6.130557921498284e+03
	3.194250342594176e-06
	4.132527653067056e-08

 224	6.309573444802011e+03
	3.159533425304777e-06
	4.094359907763997e-08

 225	6.493816315762195e+03
	3.125198322347993e-06
	4.056936547213326e-08

 226	6.683439175686231e+03
	3.091226874631989e-06
	4.020246926861185e-08

 227	6.878599123088164e+03
	3.057600638203949e-06
	3.984280518181779e-08

 228	7.079457843841470e+03
	3.024300878055034e-06
	3.949026907451158e-08

 229	7.286181745132371e+03
	2.991308563275573e-06
	3.914475794684619e-08

 230	7.498942093324656e+03
	2.958604363755942e-06
	3.880616992728668e-08

 231	7.717915155850224e+03
	2.926168648633867e-06
	3.847440426513965e-08

 232	7.943282347242919e+03
	2.893981486734230e-06
	3.814936132464893e-08

 233	8.175230379436608e+03
	2.862022649224063e-06
	3.783094258076037e-08

 234	8.413951416452062e+03
	2.830271614763272e-06
	3.751905061643785e-08

 235	8.659643233600769e+03
	2.798707577419463e-06
	3.721358912167065e-08

 236	8.912509381337575e+03
	2.767309457657821e-06
	3.691446289410531e-08

 237	9.172759353897920e+03
	2.736055916698884e-06
	3.662157784132674e-08

 238	9.440608762859361e+03
	2.704925374592808e-06
	3.633484098484902e-08

 239	9.716279515771193e+03
	2.673896032331235e-06
	3.605416046577993e-08

 240	1.000000000000014e+04
	2.642945898363704e-06
	3.577944555221178e-08

 241	1.029200527194442e+04
	2.612052819858281e-06
	3.551060664832751e-08

 242	1.059253725177303e+04
	2.581194519083276e-06
	3.524755530529554e-08

 243	1.090184492385143e+04
	2.550348635258967e-06
	3.499020423390802e-08

 244	1.122018454301979e+04
	2.519492772225781e-06
	3.473846731908817e-08

 245	1.154781984689474e+04
	2.488604552284232e-06
	3.449225963614708e-08

 246	1.188502227437035e+04
	2.457661676502869e-06
	3.425149746902163e-08

 247	1.223207119049949e+04
	2.426641991805221e-06
	3.401609833032812e-08

 248	1.258925411794185e+04
	2.395523565061658e-06
	3.378598098341749e-08

 249	1.295686697517038e+04
	2.364284764405107e-06
	3.356106546642775e-08

 250	1.333521432163343e+04
	2.332904347906107e-06
	3.334127311835468e-08

 251	1.372460961007581e+04
	2.301361559675032e-06
	3.312652660726004e-08

 252	1.412537544622774e+04
	2.269636233378445e-06
	3.291674996061518e-08

 253	1.453784385607682e+04
	2.237708903057122e-06
	3.271186859790670e-08

 254	1.496235656094455e+04
	2.205560921022567e-06
	3.251180936553208e-08

 255	1.539926526059514e+04
	2.173174582481509e-06
	3.231650057410160e-08

 256	1.584893192461136e+04
	2.140533256413534e-06
	3.212587203822579e-08

 257	1.631172909227862e+04
	2.107621522053747e-06
	3.193985511891081e-08

 258	1.678804018122584e+04
	2.074425310200999e-06
	3.175838276864501e-08

 259	1.727825980507888e+04
	2.040932048385694e-06
	3.158138957930985e-08

 260	1.778279410038948e+04
	2.007130808757637e-06
	3.140881183310531e-08

 261	1.830206106311082e+04
	1.973012457387909e-06
	3.124058755655492e-08

 262	1.883649089489827e+04
	1.938569803481653e-06
	3.107665657782944e-08

 263	1.938652635952235e+04
	1.903797746843896e-06
	3.091696058754555e-08

 264	1.995262314968908e+04
	1.868693421761564e-06
	3.076144320322475e-08

