Title: * sky130 bjt 3-stage explicit output low-pass section ac: rlp=100k, clp=33p, cload=10p
Date: Fri May 22 22:54:43  2026
Command: ngspice-46, Build Mar 29 2026   15:02:07
Plotname: AC Analysis
Flags: complex
No. Variables: 9
No. Points: 721
Variables:
	0	frequency	frequency grid=3
	1	v(vin)	voltage
	2	v(b3_collector)	voltage
	3	v(vout_drv)	voltage
	4	v(vout_final)	voltage
	5	gain	notype
	6	gain_vv	notype
	7	gain_db	decibel
	8	phase_deg	phase
Values:
 0	1.000000000000000e-03,0.000000000000000e+00
	1.000000000000000e+00,0.000000000000000e+00
	4.861096667811734e-13,7.904423276608954e-10
	-2.483247080632804e-13,2.310648217392834e-16
	-2.483247080570374e-13,2.310715309009588e-16
	-2.483247080570374e-13,2.310715309009588e-16
	2.483248155655517e-13,0.0
	-2.520995975682587e+02,0.0
	3.140662132152695e+00,0.0

 1	1.029200527194428e-03,0.000000000000000e+00
	1.000000000000000e+00,0.000000000000000e+00
	5.454240123239796e-13,8.617279547834594e-10
	-2.786248960697598e-13,2.668294890121838e-16
	-2.786248960623400e-13,2.668372366309677e-16
	-2.786248960623400e-13,2.668372366309677e-16
	2.786250238364469e-13,0.0
	-2.510995976271539e+02,0.0
	3.140634960437375e+00,0.0

 2	1.059253725177289e-03,0.000000000000000e+00
	1.000000000000000e+00,0.000000000000000e+00
	6.119758017573528e-13,9.394424379971301e-10
	-3.126222644785486e-13,3.081298814791110e-16
	-3.126222644697301e-13,3.081388282893995e-16
	-3.126222644697301e-13,3.081388282893995e-16
	3.126224163295386e-13,0.0
	-2.500995976895366e+02,0.0
	3.140606995293753e+00,0.0

 3	1.090184492385128e-03,0.000000000000000e+00
	1.000000000000000e+00,0.000000000000000e+00
	6.866481366332085e-13,1.024165560113937e-09
	-3.507679372062773e-13,3.558228294514200e-16
	-3.507679371957965e-13,3.558331610663856e-16
	-3.507679371957965e-13,3.558331610663856e-16
	3.507681176815144e-13,0.0
	-2.490995977556202e+02,0.0
	3.140578213553313e+00,0.0

 4	1.122018454301964e-03,0.000000000000000e+00
	1.000000000000000e+00,0.000000000000000e+00
	7.704318731604254e-13,1.116529391318429e-09
	-3.935680835527205e-13,4.108977850881067e-16
	-3.935680835402641e-13,4.109097158504817e-16
	-3.935680835402641e-13,4.109097158504817e-16
	3.935682980479384e-13,0.0
	-2.480995978256136e+02,0.0
	3.140548591371008e+00,0.0

 5	1.154781984689459e-03,0.000000000000000e+00
	1.000000000000000e+00,0.000000000000000e+00
	8.644387702522303e-13,1.217223004666012e-09
	-4.415906347404697e-13,4.744973498559209e-16
	-4.415906347256652e-13,4.745111272848126e-16
	-4.415906347256652e-13,4.745111272848126e-16
	4.415908896685095e-13,0.0
	-2.470995978997578e+02,0.0
	3.140518104205504e+00,0.0

 6	1.188502227437019e-03,0.000000000000000e+00
	1.000000000000000e+00,0.000000000000000e+00
	9.699162418836255e-13,1.326997616853322e-09
	-4.954728199970865e-13,5.479409792713054e-16
	-4.954728199794912e-13,5.479568891972970e-16
	-4.954728199794912e-13,5.479568891972970e-16
	4.954731229796241e-13,0.0
	-2.460995979782955e+02,0.0
	3.140486726798849e+00,0.0

 7	1.223207119049932e-03,0.000000000000000e+00
	1.000000000000000e+00,0.000000000000000e+00
	1.088263909502485e-12,1.446672192599208e-09
	-5.559296221738262e-13,6.327523567040089e-16
	-5.559296221529143e-13,6.327707291990800e-16
	-5.559296221529143e-13,6.327707291990800e-16
	5.559299822692403e-13,0.0
	-2.450995980614863e+02,0.0
	3.140454433155546e+00,0.0

 8	1.258925411794168e-03,0.000000000000000e+00
	1.000000000000000e+00,0.000000000000000e+00
	1.221052174141143e-12,1.577139554454867e-09
	-6.237632651036883e-13,7.306910041498311e-16
	-6.237632650788344e-13,7.307122203751233e-16
	-6.237632650788344e-13,7.307122203751233e-16
	6.237636930778813e-13,0.0
	-2.440995981496031e+02,0.0
	3.140421196521016e+00,0.0

 9	1.295686697517020e-03,0.000000000000000e+00
	1.000000000000000e+00,0.000000000000000e+00
	1.370043054663071e-12,1.719373043619459e-09
	-6.998738585874692e-13,8.437887857751937e-16
	-6.998738585579301e-13,8.438132858886847e-16
	-6.998738585579301e-13,8.438132858886847e-16
	6.998743672357397e-13,0.0
	-2.430995982429458e+02,0.0
	3.140386989359436e+00,0.0

 10	1.333521432163325e-03,0.000000000000000e+00
	1.000000000000000e+00,0.000000000000000e+00
	1.537213568665434e-12,1.874433781462887e-09
	-7.852713422630754e-13,9.743920615514289e-16
	-7.852713422279683e-13,9.744203538395709e-16
	-7.852713422279683e-13,9.744203538395709e-16
	7.852719467926642e-13,0.0
	-2.420995983418172e+02,0.0
	3.140351783330921e+00,0.0

 11	1.372460961007563e-03,0.000000000000000e+00
	1.000000000000000e+00,0.000000000000000e+00
	1.724781966271584e-12,2.043478585913826e-09
	-8.810888868384932e-13,1.125210365500341e-15
	-8.810888867967683e-13,1.125243036923109e-15
	-8.810888867967683e-13,1.125243036923109e-15
	8.810896053232386e-13,0.0
	-2.410995984465476e+02,0.0
	3.140315549268050e+00,0.0

 12	1.412537544622755e-03,0.000000000000000e+00
	1.000000000000000e+00,0.000000000000000e+00
	1.935237164931796e-12,2.227768601785907e-09
	-9.885979305186361e-13,1.299372618449716e-15
	-9.885979304690460e-13,1.299410346817837e-15
	-9.885979304690460e-13,1.299410346817837e-15
	9.885987844393348e-13,0.0
	-2.400995985574889e+02,0.0
	3.140278257151701e+00,0.0

 13	1.453784385607663e-03,0.000000000000000e+00
	1.000000000000000e+00,0.000000000000000e+00
	2.171371775814814e-12,2.428678709426294e-09
	-1.109225050148419e-12,1.500492041504097e-15
	-1.109225050089481e-12,1.500535609541095e-15
	-1.109225050089481e-12,1.500535609541095e-15
	1.109226065035043e-12,0.0
	-2.390995986749977e+02,0.0
	3.140239876086175e+00,0.0

 14	1.496235656094435e-03,0.000000000000000e+00
	1.000000000000000e+00,0.000000000000000e+00
	2.436319160010160e-12,2.647707781862501e-09
	-1.244570890932512e-12,1.732741116930270e-15
	-1.244570890862464e-12,1.732791428511056e-15
	-1.244570890862464e-12,1.732791428511056e-15
	1.244572097127492e-12,0.0
	-2.380995987994655e+02,0.0
	3.140200374273609e+00,0.0

 15	1.539926526059493e-03,0.000000000000000e+00
	1.000000000000000e+00,0.000000000000000e+00
	2.733595006273595e-12,2.886489866987844e-09
	-1.396431405923182e-12,2.000938151626985e-15
	-1.396431405839930e-12,2.000996250529878e-15
	-1.396431405839930e-12,2.000996250529878e-15
	1.396432839488559e-12,0.0
	-2.370995989313168e+02,0.0
	3.140159718987627e+00,0.0

 16	1.584893192461115e-03,0.000000000000000e+00
	1.000000000000000e+00,0.000000000000000e+00
	3.067143982030802e-12,3.146806378212106e-09
	-1.566821687110651e-12,2.310647239050518e-15
	-1.566821687011705e-12,2.310714330611750e-15
	-1.566821687011705e-12,2.310714330611750e-15
	1.566823390906239e-12,0.0
	-2.360995990709787e+02,0.0
	3.140117876546225e+00,0.0

 17	1.631172909227840e-03,0.000000000000000e+00
	1.000000000000000e+00,0.000000000000000e+00
	3.441392076636144e-12,3.430599384495833e-09
	-1.758002704323089e-12,2.668293693408752e-15
	-1.758002704205493e-12,2.668371169528676e-15
	-1.758002704205493e-12,2.668371169528676e-15
	1.758004729287872e-12,0.0
	-2.350995992189098e+02,0.0
	3.140074812283875e+00,0.0

 18	1.678804018122562e-03,0.000000000000000e+00
	1.000000000000000e+00,0.000000000000000e+00
	3.861305331467135e-12,3.739986098935241e-09
	-1.972511306749427e-12,3.081297350961489e-15
	-1.972511306609664e-12,3.081386818981300e-15
	-1.972511306609664e-12,3.081386818981300e-15
	1.972513713424496e-12,0.0
	-2.340995993756141e+02,0.0
	3.140030490522794e+00,0.0

 19	1.727825980507865e-03,0.000000000000000e+00
	1.000000000000000e+00,0.000000000000000e+00
	4.332455736193624e-12,4.077274674008245e-09
	-2.213193885193112e-12,3.558226503948384e-15
	-2.213193885027003e-12,3.558329819996423e-15
	-2.213193885027003e-12,3.558329819996423e-15
	2.213196745531681e-12,0.0
	-2.330995995416019e+02,0.0
	3.139984874543398e+00,0.0

 20	1.778279410038925e-03,0.000000000000000e+00
	1.000000000000000e+00,0.000000000000000e+00
	4.861095165559765e-12,4.444981421269588e-09
	-2.483244141703400e-12,4.108975660648941e-15
	-2.483244141505978e-12,4.109094968148394e-15
	-2.483244141505978e-12,4.109094968148394e-15
	2.483247541222022e-12,0.0
	-2.320995997174205e+02,0.0
	3.139937926553870e+00,0.0

 21	1.830206106311058e-03,0.000000000000000e+00
	1.000000000000000e+00,0.000000000000000e+00
	5.454238337809369e-12,4.845849583992883e-09
	-2.786245467773388e-12,4.744970819451044e-15
	-2.786245467538752e-12,4.745108593587920e-15
	-2.786245467538752e-12,4.745108593587920e-15
	2.786249508108670e-12,0.0
	-2.310995999036623e+02,0.0
	3.139889607658861e+00,0.0

 22	1.883649089489803e-03,0.000000000000000e+00
	1.000000000000000e+00,0.000000000000000e+00
	6.119755895585383e-12,5.282869802822192e-09
	-3.126218493437389e-12,5.479406515610412e-15
	-3.126218493158524e-12,5.479565614684348e-15
	-3.126218493158524e-12,5.479565614684348e-15
	3.126223295384652e-12,0.0
	-2.300996001009369e+02,0.0
	3.139839877827257e+00,0.0

 23	1.938652635952210e-03,0.000000000000000e+00
	1.000000000000000e+00,0.000000000000000e+00
	6.866478844342966e-12,5.759302427060950e-09
	-3.507674438176032e-12,6.327519558461526e-15
	-3.507674437844600e-12,6.327703283184745e-15
	-3.507674437844600e-12,6.327703283184745e-15
	3.507680145300776e-12,0.0
	-2.290996003099063e+02,0.0
	3.139788695859022e+00,0.0

 24	1.995262314968882e-03,0.000000000000000e+00
	1.000000000000000e+00,0.000000000000000e+00
	7.704315734213896e-12,6.278701838118083e-09
	-3.935674971591848e-12,7.306905138175579e-15
	-3.935674971197940e-12,7.307117300150233e-15
	-3.935674971197940e-12,7.307117300150233e-15
	3.935681754521972e-12,0.0
	-2.280996005312513e+02,0.0
	3.139736019351060e+00,0.0

 25	2.053525026457149e-03,0.000000000000000e+00
	1.000000000000000e+00,0.000000000000000e+00
	8.644384140118007e-12,6.844942966484818e-09
	-4.415899378104998e-12,8.437881859974519e-15
	-4.415899377636839e-12,8.438126860769051e-15
	-4.415899377636839e-12,8.438126860769051e-15
	4.415907439632124e-12,0.0
	-2.270996007657144e+02,0.0
	3.139681804662091e+00,0.0

 26	2.113489039836650e-03,0.000000000000000e+00
	1.000000000000000e+00,0.000000000000000e+00
	9.699158184912363e-12,7.462250200161009e-09
	-4.954719916943904e-12,9.743913278990445e-15
	-4.954719916387494e-12,9.744196201455507e-15
	-4.954719916387494e-12,9.744196201455507e-15
	4.954729498086299e-12,0.0
	-2.260996010140695e+02,0.0
	3.139626006876488e+00,0.0

 27	2.175204034019526e-03,0.000000000000000e+00
	1.000000000000000e+00,0.000000000000000e+00
	1.088263406299834e-11,8.135228900115258e-09
	-5.559286377343423e-12,1.125209468091604e-14
	-5.559286376682131e-12,1.125242139463443e-14
	-5.559286376682131e-12,1.125242139463443e-14
	5.559297764551812e-12,0.0
	-2.250996012771404e+02,0.0
	3.139568579767074e+00,0.0

 28	2.238721138568343e-03,0.000000000000000e+00
	1.000000000000000e+00,0.000000000000000e+00
	1.221051576083355e-11,8.868899757939372e-09
	-6.237620950951429e-12,1.299371520734193e-14
	-6.237620950165481e-12,1.299409249040017e-14
	-6.237620950165481e-12,1.299409249040017e-14
	6.237634484673093e-12,0.0
	-2.240996015557982e+02,0.0
	3.139509475756820e+00,0.0

 29	2.304092976055850e-03,0.000000000000000e+00
	1.000000000000000e+00,0.000000000000000e+00
	1.370042343870469e-11,9.668736251990014e-09
	-6.998724680299676e-12,1.500490698770576e-14
	-6.998724679365574e-12,1.500534266731373e-14
	-6.998724679365574e-12,1.500534266731373e-14
	6.998740765156923e-12,0.0
	-2.230996018509688e+02,0.0
	3.139448645879429e+00,0.0

 30	2.371373705661660e-03,0.000000000000000e+00
	1.000000000000000e+00,0.000000000000000e+00
	1.537212723886467e-11,1.054070548146625e-08
	-7.852696895823357e-12,1.732739474487702e-14
	-7.852696894713175e-12,1.732789785975277e-14
	-7.852696894713175e-12,1.732789785975277e-14
	7.852716012710646e-12,0.0
	-2.220996021636310e+02,0.0
	3.139386039738774e+00,0.0

 31	2.440619068041985e-03,0.000000000000000e+00
	1.000000000000000e+00,0.000000000000000e+00
	1.724780962250291e-11,1.149131268304678e-08
	-8.810869226240782e-12,2.000936142581082e-14
	-8.810869224921327e-12,2.000994241369960e-14
	-8.810869224921327e-12,2.000994241369960e-14
	8.810891946702169e-12,0.0
	-2.210996024948165e+02,0.0
	3.139321605467140e+00,0.0

 32	2.511886431509585e-03,0.000000000000000e+00
	1.000000000000000e+00,0.000000000000000e+00
	1.935235971651344e-11,1.252764976216156e-08
	-9.885955960460684e-12,2.310644781571436e-14
	-9.885955958892509e-12,2.310711872993203e-14
	-9.885955958892509e-12,2.310711872993203e-14
	9.885982963777467e-12,0.0
	-2.200996028456291e+02,0.0
	3.139255289682260e+00,0.0

 33	2.585234839562196e-03,0.000000000000000e+00
	1.000000000000000e+00,0.000000000000000e+00
	2.171370357597747e-11,1.365744820102509e-08
	-1.109222275622615e-11,2.668290687400995e-14
	-1.109222275436237e-11,2.668368163350324e-14
	-1.109222275436237e-11,2.668368163350324e-14
	1.109225484972554e-11,0.0
	-2.190996032172278e+02,0.0
	3.139187037443087e+00,0.0

 34	2.660725059798815e-03,0.000000000000000e+00
	1.000000000000000e+00,0.000000000000000e+00
	2.436317474454792e-11,1.488913673804428e-08
	-1.244567593402161e-11,3.081293673993313e-14
	-1.244567593180650e-11,3.081383141804452e-14
	-1.244567593180650e-11,3.081383141804452e-14
	1.244571407721366e-11,0.0
	-2.180996036108438e+02,0.0
	3.139116792204276e+00,0.0

 35	2.738419634264367e-03,0.000000000000000e+00
	1.000000000000000e+00,0.000000000000000e+00
	2.733593002988038e-11,1.623190424895146e-08
	-1.396427486801723e-11,3.558222006254805e-14
	-1.396427486538458e-11,3.558325322047595e-14
	-1.396427486538458e-11,3.558325322047595e-14
	1.396432020128160e-11,0.0
	-2.170996040277855e+02,0.0
	3.139044495769344e+00,0.0

 36	2.818382931264460e-03,0.000000000000000e+00
	1.000000000000000e+00,0.000000000000000e+00
	3.067141601123888e-11,1.769576829879037e-08
	-1.566817029227578e-11,4.108970159038785e-14
	-1.566817028914686e-11,4.109089466226014e-14
	-1.566817028914686e-11,4.109089466226014e-14
	1.566822417095596e-11,0.0
	-2.160996044694266e+02,0.0
	3.138970088242452e+00,0.0

 37	2.900681198693160e-03,0.000000000000000e+00
	1.000000000000000e+00,0.000000000000000e+00
	3.441389246920650e-11,1.929164987604051e-08
	-1.757997168418365e-11,4.744964089844315e-14
	-1.757997168046493e-11,4.745101863599278e-14
	-1.757997168046493e-11,4.745101863599278e-14
	1.758003571910815e-11,0.0
	-2.150996049372406e+02,0.0
	3.138893507978788e+00,0.0

 38	2.985382618917966e-03,0.000000000000000e+00
	1.000000000000000e+00,0.000000000000000e+00
	3.861301968343938e-11,2.103145486659439e-08
	-1.972504727315087e-11,5.479398283905183e-14
	-1.972504726873116e-11,5.479557382511960e-14
	-1.972504726873116e-11,5.479557382511960e-14
	1.972512337879258e-11,0.0
	-2.140996054327777e+02,0.0
	3.138814691533495e+00,0.0

 39	3.072557365267454e-03,0.000000000000000e+00
	1.000000000000000e+00,0.000000000000000e+00
	4.332451739116304e-11,2.292816287524177e-08
	-2.213186065522491e-11,6.327509489387544e-14
	-2.213186064997208e-11,6.327693213539330e-14
	-2.213186064997208e-11,6.327693213539330e-14
	2.213195110693865e-11,0.0
	-2.130996059576723e+02,0.0
	3.138733573609110e+00,0.0

 40	3.162277660168387e-03,0.000000000000000e+00
	1.000000000000000e+00,0.000000000000000e+00
	4.861090415022179e-11,2.499592405726243e-08
	-2.483234848007912e-11,7.306892821612571e-14
	-2.483234847383611e-11,7.307104982888245e-14
	-2.483234847383611e-11,7.307104982888245e-14
	2.483245598212859e-11,0.0
	-2.120996065136700e+02,0.0
	3.138650087001470e+00,0.0

 41	3.254617834980467e-03,0.000000000000000e+00
	1.000000000000000e+00,0.000000000000000e+00
	5.454232691782867e-11,2.725016468264298e-08
	-2.786234422196260e-11,8.437866794263666e-14
	-2.786234421454277e-11,8.438111794203200e-14
	-2.786234421454277e-11,8.438111794203200e-14
	2.786247198837049e-11,0.0
	-2.110996071026179e+02,0.0
	3.138564162544039e+00,0.0

 42	3.349654391578285e-03,0.000000000000000e+00
	1.000000000000000e+00,0.000000000000000e+00
	6.119749185270687e-11,2.970770222035174e-08
	-3.126205365746582e-11,9.743894850509336e-14
	-3.126205364864735e-11,9.744177771928562e-14
	-3.126205364864735e-11,9.744177771928562e-14
	3.126220550810435e-11,0.0
	-2.100996077264572e+02,0.0
	3.138475729050600e+00,0.0

 43	3.447466065731503e-03,0.000000000000000e+00
	1.000000000000000e+00,0.000000000000000e+00
	6.866470869127006e-11,3.238687080105600e-08
	-3.507658835891977e-11,1.125207213907386e-13
	-3.507658834843899e-11,1.125239885151297e-13
	-3.507658834843899e-11,1.125239885151297e-13
	3.507676883371439e-11,0.0
	-2.090996083872595e+02,0.0
	3.138384713256293e+00,0.0

 44	3.548133892335764e-03,0.000000000000000e+00
	1.000000000000000e+00,0.000000000000000e+00
	7.704306255644734e-11,3.530765799446937e-08
	-3.935656428242607e-11,1.299368763399300e-13
	-3.935656426996965e-11,1.299406491548643e-13
	-3.935656426996965e-11,1.299406491548643e-13
	3.935677877708686e-11,0.0
	-2.080996090872248e+02,0.0
	3.138291039756909e+00,0.0

 45	3.651741272548387e-03,0.000000000000000e+00
	1.000000000000000e+00,0.000000000000000e+00
	8.644372874825562e-11,3.849185392170351e-08
	-4.415877339300454e-11,1.500487325980501e-13
	-4.415877337820006e-11,1.500530893749889e-13
	-4.415877337820006e-11,1.500530893749889e-13
	4.415902832034308e-11,0.0
	-2.070996098286550e+02,0.0
	3.138194630946429e+00,0.0

 46	3.758374042884452e-03,0.000000000000000e+00
	1.000000000000000e+00,0.000000000000000e+00
	9.699144796085917e-11,4.196321381446719e-08
	-4.954693723779888e-11,1.732735348867603e-13
	-4.954693722020373e-11,1.732785660121045e-13
	-4.954693722020373e-11,1.732785660121045e-13
	4.954724021945369e-11,0.0
	-2.060996106140249e+02,0.0
	3.138095406952729e+00,0.0

 47	3.868120546330533e-03,0.000000000000000e+00
	1.000000000000000e+00,0.000000000000000e+00
	1.088261815034831e-10,4.574763523470081e-08
	-5.559255246716012e-11,2.000931096093582e-13
	-5.559255244624823e-11,2.000989194596066e-13
	-5.559255244624823e-11,2.000989194596066e-13
	5.559291256146262e-11,0.0
	-2.050996114459293e+02,0.0
	3.137993285571416e+00,0.0

 48	3.981071705534985e-03,0.000000000000000e+00
	1.000000000000000e+00,0.000000000000000e+00
	1.221049684861266e-10,4.987335127575565e-08
	-6.237583952138726e-11,2.310638608673627e-13
	-6.237583949653344e-11,2.310705699745075e-13
	-6.237583949653344e-11,2.310705699745075e-13
	6.237626749418090e-11,0.0
	-2.040996123271271e+02,0.0
	3.137888182197721e+00,0.0

 49	4.097321098135428e-03,0.000000000000000e+00
	1.000000000000000e+00,0.000000000000000e+00
	1.370040096149060e-10,5.437114118698797e-08
	-6.998680707139253e-11,2.668283136670472e-13
	-6.998680704185372e-11,2.668360612191288e-13
	-6.998680704185372e-11,2.668360612191288e-13
	6.998731571790158e-11,0.0
	-2.030996132605386e+02,0.0
	3.137780009756419e+00,0.0

 50	4.216965034285836e-03,0.000000000000000e+00
	1.000000000000000e+00,0.000000000000000e+00
	1.537210052465623e-10,5.927455999270703e-08
	-7.852644633641239e-11,3.081284437888481e-13
	-7.852644630130549e-11,3.081373905175460e-13
	-7.852644630130549e-11,3.081373905175460e-13
	7.852705086378355e-11,0.0
	-2.020996142492562e+02,0.0
	3.137668678629685e+00,0.0

 51	4.340102636447452e-03,0.000000000000000e+00
	1.000000000000000e+00,0.000000000000000e+00
	1.724777787260746e-10,6.462018881841653e-08
	-8.810807112536754e-11,3.558210708589384e-13
	-8.810807108364291e-11,3.558314023741019e-13
	-8.810807108364291e-11,3.558314023741019e-13
	8.810878960732117e-11,0.0
	-2.010996152965608e+02,0.0
	3.137554096582862e+00,0.0

 52	4.466835921509646e-03,0.000000000000000e+00
	1.000000000000000e+00,0.000000000000000e+00
	1.935232198169560e-10,7.044790779182521e-08
	-9.885882138206213e-11,4.108956339654225e-13
	-9.885882133247232e-11,4.109075646057188e-13
	-9.885882133247232e-11,4.109075646057188e-13
	9.885967529924592e-11,0.0
	-2.000996164059243e+02,0.0
	3.137436168688045e+00,0.0

 53	4.597269885308737e-03,0.000000000000000e+00
	1.000000000000000e+00,0.000000000000000e+00
	2.171365872807527e-10,7.680119355427769e-08
	-1.109213501834163e-10,4.744947185879915e-13
	-1.109213501244787e-10,4.745084958675558e-13
	-1.109213501244787e-10,4.745084958675558e-13
	1.109223650656162e-10,0.0
	-1.990996175810187e+02,0.0
	3.137314797245446e+00,0.0

 54	4.731512589614821e-03,0.000000000000000e+00
	1.000000000000000e+00,0.000000000000000e+00
	2.436312144271113e-10,8.372744360178275e-08
