Title: * sky130 bjt 3-stage low-cutoff sweep ac candidate: ccpl=33n, ch=30p
Date: Fri May 22 20:31:42  2026
Command: ngspice-46, Build Mar 29 2026   15:02:07
Plotname: AC Analysis
Flags: complex
No. Variables: 7
No. Points: 721
Variables:
	0	frequency	frequency grid=3
	1	v(vin)	voltage
	2	v(vout_final)	voltage
	3	gain	notype
	4	gain_vv	notype
	5	gain_db	decibel
	6	phase_deg	phase
Values:
 0	1.000000000000000e-03,0.000000000000000e+00
	1.000000000000000e+00,0.000000000000000e+00
	2.452854871069621e-14,8.078330391030728e-11
	2.452854871069621e-14,8.078330391030728e-11
	8.078330763415651e-11,0.0
	-2.018535673764145e+02,0.0
	1.570492692915498e+00,0.0

 1	1.029200527194428e-03,0.000000000000000e+00
	1.000000000000000e+00,0.000000000000000e+00
	2.752148425447831e-14,8.806870484498139e-11
	2.752148425447831e-14,8.806870484498139e-11
	8.806870914521538e-11,0.0
	-2.011035673844150e+02,0.0
	1.570483826646211e+00,0.0

 2	1.059253725177289e-03,0.000000000000000e+00
	1.000000000000000e+00,0.000000000000000e+00
	3.087961315654522e-14,9.601113591496810e-11
	3.087961315654522e-14,9.601113591496810e-11
	9.601114088080085e-11,0.0
	-2.003535673928908e+02,0.0
	1.570474701477192e+00,0.0

 3	1.090184492385128e-03,0.000000000000000e+00
	1.000000000000000e+00,0.000000000000000e+00
	3.464749574401262e-14,1.046698510418304e-10
	3.464749574401262e-14,1.046698510418304e-10
	1.046698567762845e-10,0.0
	-1.996035674018670e+02,0.0
	1.570465309848434e+00,0.0

 4	1.122018454301964e-03,0.000000000000000e+00
	1.000000000000000e+00,0.000000000000000e+00
	3.887512952584835e-14,1.141094479307427e-10
	3.887512952584835e-14,1.141094479307427e-10
	1.141094545527870e-10,0.0
	-1.988535674113736e+02,0.0
	1.570455643979172e+00,0.0

 5	1.154781984689459e-03,0.000000000000000e+00
	1.000000000000000e+00,0.000000000000000e+00
	4.361861262928335e-14,1.244003499966392e-10
	4.361861262928335e-14,1.244003499966392e-10
	1.244003576436567e-10,0.0
	-1.981035674214501e+02,0.0
	1.570445695861439e+00,0.0

 6	1.188502227437019e-03,0.000000000000000e+00
	1.000000000000000e+00,0.000000000000000e+00
	4.894088818793648e-14,1.356193317531143e-10
	4.894088818793648e-14,1.356193317531143e-10
	1.356193405837523e-10,0.0
	-1.973535674321154e+02,0.0
	1.570435457253432e+00,0.0

 7	1.223207119049932e-03,0.000000000000000e+00
	1.000000000000000e+00,0.000000000000000e+00
	5.491257955845548e-14,1.478500915820022e-10
	5.491257955845548e-14,1.478500915820022e-10
	1.478501017794639e-10,0.0
	-1.966035674434209e+02,0.0
	1.570424919672683e+00,0.0

 8	1.258925411794168e-03,0.000000000000000e+00
	1.000000000000000e+00,0.000000000000000e+00
	6.161292744980123e-14,1.611838761596166e-10
	6.161292744980123e-14,1.611838761596166e-10
	1.611838879354616e-10,0.0
	-1.958535674553880e+02,0.0
	1.570414074389030e+00,0.0

 9	1.295686697517020e-03,0.000000000000000e+00
	1.000000000000000e+00,0.000000000000000e+00
	6.913084139863233e-14,1.757201611945156e-10
	6.913084139863233e-14,1.757201611945156e-10
	1.757201747930492e-10,0.0
	-1.951035674680685e+02,0.0
	1.570402912417388e+00,0.0

 10	1.333521432163325e-03,0.000000000000000e+00
	1.000000000000000e+00,0.000000000000000e+00
	7.756607954490847e-14,1.915673935589764e-10
	7.756607954490847e-14,1.915673935589764e-10
	1.915674092623181e-10,0.0
	-1.943535674815016e+02,0.0
	1.570391424510301e+00,0.0

 11	1.372460961007563e-03,0.000000000000000e+00
	1.000000000000000e+00,0.000000000000000e+00
	8.703057236145547e-14,2.088438003482864e-10
	8.703057236145547e-14,2.088438003482864e-10
	2.088438184822223e-10,0.0
	-1.936035674957235e+02,0.0
	1.570379601150284e+00,0.0

 12	1.412537544622755e-03,0.000000000000000e+00
	1.000000000000000e+00,0.000000000000000e+00
	9.764990790257411e-14,2.276782709039559e-10
	9.764990790257411e-14,2.276782709039559e-10
	2.276782918446984e-10,0.0
	-1.928535675107971e+02,0.0
	1.570367432541935e+00,0.0

 13	1.453784385607663e-03,0.000000000000000e+00
	1.000000000000000e+00,0.000000000000000e+00
	1.095649982814348e-13,2.482113183836908e-10
	1.095649982814348e-13,2.482113183836908e-10
	2.482113425656829e-10,0.0
	-1.921035675267593e+02,0.0
	1.570354908603822e+00,0.0

 14	1.496235656094435e-03,0.000000000000000e+00
	1.000000000000000e+00,0.000000000000000e+00
	1.229339494870441e-13,2.705961280474401e-10
	1.229339494870441e-13,2.705961280474401e-10
	2.705961559723688e-10,0.0
	-1.913535675436701e+02,0.0
	1.570342018960130e+00,0.0

 15	1.539926526059493e-03,0.000000000000000e+00
	1.000000000000000e+00,0.000000000000000e+00
	1.379341593545612e-13,2.949997000847304e-10
	1.379341593545612e-13,2.949997000847304e-10
	2.949997323319349e-10,0.0
	-1.906035675615769e+02,0.0
	1.570328752932066e+00,0.0

 16	1.584893192461115e-03,0.000000000000000e+00
	1.000000000000000e+00,0.000000000000000e+00
	1.547646715253572e-13,3.216040955049511e-10
	1.547646715253572e-13,3.216040955049511e-10
	3.216041327434416e-10,0.0
	-1.898535675805526e+02,0.0
	1.570315099529008e+00,0.0

 17	1.631172909227840e-03,0.000000000000000e+00
	1.000000000000000e+00,0.000000000000000e+00
	1.736488166352592e-13,3.506077943903678e-10
	1.736488166352592e-13,3.506077943903678e-10
	3.506078373927057e-10,0.0
	-1.891035676006482e+02,0.0
	1.570301047439404e+00,0.0

 18	1.678804018122562e-03,0.000000000000000e+00
	1.000000000000000e+00,0.000000000000000e+00
	1.948371757744454e-13,3.822271766391215e-10
	1.948371757744454e-13,3.822271766391215e-10
	3.822272262974463e-10,0.0
	-1.883535676219357e+02,0.0
	1.570286585021399e+00,0.0

 19	1.727825980507865e-03,0.000000000000000e+00
	1.000000000000000e+00,0.000000000000000e+00
	2.186109055454935e-13,4.166981362504627e-10
	2.186109055454935e-13,4.166981362504627e-10
	4.166981935950013e-10,0.0
	-1.876035676444865e+02,0.0
	1.570271700293189e+00,0.0

 20	1.778279410038925e-03,0.000000000000000e+00
	1.000000000000000e+00,0.000000000000000e+00
	2.452854688393391e-13,4.542778411926810e-10
	2.452854688393391e-13,4.542778411926810e-10
	4.542779074131207e-10,0.0
	-1.868535676683685e+02,0.0
	1.570256380923096e+00,0.0

 21	1.830206106311058e-03,0.000000000000000e+00
	1.000000000000000e+00,0.000000000000000e+00
	2.752148208337849e-13,4.952466519824144e-10
	2.752148208337849e-13,4.952466519824144e-10
	4.952467284525849e-10,0.0
	-1.861035676936654e+02,0.0
	1.570240614219351e+00,0.0

 22	1.883649089489803e-03,0.000000000000000e+00
	1.000000000000000e+00,0.000000000000000e+00
	3.087961057619326e-13,5.399102132912960e-10
	3.087961057619326e-13,5.399102132912960e-10
	5.399103015976707e-10,0.0
	-1.853535677204644e+02,0.0
	1.570224387119578e+00,0.0

 23	1.938652635952210e-03,0.000000000000000e+00
	1.000000000000000e+00,0.000000000000000e+00
	3.464749267725306e-13,5.886017341824730e-10
	3.464749267725306e-13,5.886017341824730e-10
	5.886018361570829e-10,0.0
	-1.846035677488517e+02,0.0
	1.570207686179972e+00,0.0

 24	1.995262314968882e-03,0.000000000000000e+00
	1.000000000000000e+00,0.000000000000000e+00
	3.887512588098521e-13,6.416844739880274e-10
	3.887512588098521e-13,6.416844739880274e-10
	6.416845917464690e-10,0.0
	-1.838535677789206e+02,0.0
	1.570190497564165e+00,0.0

 25	2.053525026457149e-03,0.000000000000000e+00
	1.000000000000000e+00,0.000000000000000e+00
	4.361860829737849e-13,6.995544523738696e-10
	4.361860829737849e-13,6.995544523738696e-10
	6.995545883591955e-10,0.0
	-1.831035678107720e+02,0.0
	1.570172807031757e+00,0.0

 26	2.113489039836650e-03,0.000000000000000e+00
	1.000000000000000e+00,0.000000000000000e+00
	4.894088303943813e-13,7.626434038104780e-10
	4.894088303943813e-13,7.626434038104780e-10
	7.626435608438815e-10,0.0
	-1.823535678445088e+02,0.0
	1.570154599926524e+00,0.0

 27	2.175204034019526e-03,0.000000000000000e+00
	1.000000000000000e+00,0.000000000000000e+00
	5.491257343950093e-13,8.314219984893945e-10
	5.491257343950093e-13,8.314219984893945e-10
	8.314221798287384e-10,0.0
	-1.816035678802443e+02,0.0
	1.570135861164270e+00,0.0

 28	2.238721138568343e-03,0.000000000000000e+00
	1.000000000000000e+00,0.000000000000000e+00
	6.161292017735022e-13,9.064033537163883e-10
	6.161292017735022e-13,9.064033537163883e-10
	9.064035631237938e-10,0.0
	-1.808535679181014e+02,0.0
	1.570116575220335e+00,0.0

 29	2.304092976055850e-03,0.000000000000000e+00
	1.000000000000000e+00,0.000000000000000e+00
	6.913083275532735e-13,9.881468619787831e-10
	6.913083275532735e-13,9.881468619787831e-10
	9.881471037986804e-10,0.0
	-1.801035679581975e+02,0.0
	1.570096726116730e+00,0.0

 30	2.371373705661660e-03,0.000000000000000e+00
	1.000000000000000e+00,0.000000000000000e+00
	7.756606927232382e-13,1.077262364239391e-09
	7.756606927232382e-13,1.077262364239391e-09
	1.077262643488650e-09,0.0
	-1.793535680006725e+02,0.0
	1.570076297408902e+00,0.0

 31	2.440619068041985e-03,0.000000000000000e+00
	1.000000000000000e+00,0.000000000000000e+00
	8.703056015240168e-13,1.174414699602100e-09
	8.703056015240168e-13,1.174414699602100e-09
	1.174415022074109e-09,0.0
	-1.786035680456621e+02,0.0
	1.570055272172108e+00,0.0

 32	2.511886431509585e-03,0.000000000000000e+00
	1.000000000000000e+00,0.000000000000000e+00
	9.764989339215627e-13,1.280328665280028e-09
	9.764989339215627e-13,1.280328665280028e-09
	1.280329037664891e-09,0.0
	-1.778535680933167e+02,0.0
	1.570033632987393e+00,0.0

 33	2.585234839562196e-03,0.000000000000000e+00
	1.000000000000000e+00,0.000000000000000e+00
	1.095649810357601e-12,1.395794423877398e-09
	1.095649810357601e-12,1.395794423877398e-09
	1.395794853900724e-09,0.0
	-1.771035681437963e+02,0.0
	1.570011361927163e+00,0.0

 34	2.660725059798815e-03,0.000000000000000e+00
	1.000000000000000e+00,0.000000000000000e+00
	1.229339289905570e-12,1.521673398322898e-09
	1.229339289905570e-12,1.521673398322898e-09
	1.521673894906082e-09,0.0
	-1.763535681972668e+02,0.0
	1.569988440540326e+00,0.0

 35	2.738419634264367e-03,0.000000000000000e+00
	1.000000000000000e+00,0.000000000000000e+00
	1.379341349944026e-12,1.658904698431623e-09
	1.379341349944026e-12,1.658904698431623e-09
	1.658905271876930e-09,0.0
	-1.756035682539035e+02,0.0
	1.569964849837012e+00,0.0

 36	2.818382931264460e-03,0.000000000000000e+00
	1.000000000000000e+00,0.000000000000000e+00
	1.547646425733094e-12,1.808512127039845e-09
	1.547646425733094e-12,1.808512127039845e-09
	1.808512789244147e-09,0.0
	-1.748535683138999e+02,0.0
	1.569940570272835e+00,0.0

 37	2.900681198693160e-03,0.000000000000000e+00
	1.000000000000000e+00,0.000000000000000e+00
	1.736487822256069e-12,1.971611817986856e-09
	1.736487822256069e-12,1.971611817986856e-09
	1.971612582688443e-09,0.0
	-1.741035683774520e+02,0.0
	1.569915581732705e+00,0.0

 38	2.985382618917966e-03,0.000000000000000e+00
	1.000000000000000e+00,0.000000000000000e+00
	1.948371348785420e-12,2.149420562916944e-09
	1.948371348785420e-12,2.149420562916944e-09
	2.149421445980547e-09,0.0
	-1.733535684447667e+02,0.0
	1.569889863514161e+00,0.0

 39	3.072557365267454e-03,0.000000000000000e+00
	1.000000000000000e+00,0.000000000000000e+00
	2.186108569406981e-12,2.343264889025764e-09
	2.186108569406981e-12,2.343264889025764e-09
	2.343265908771687e-09,0.0
	-1.726035685160708e+02,0.0
	1.569863394310221e+00,0.0

 40	3.162277660168387e-03,0.000000000000000e+00
	1.000000000000000e+00,0.000000000000000e+00
	2.452854110723659e-12,2.554590955479927e-09
	2.452854110723659e-12,2.554590955479927e-09
	2.554592133064129e-09,0.0
	-1.718535685915991e+02,0.0
	1.569836152191729e+00,0.0

 41	3.254617834980467e-03,0.000000000000000e+00
	1.000000000000000e+00,0.000000000000000e+00
	2.752147521775424e-12,2.784975342330837e-09
	2.752147521775424e-12,2.784975342330837e-09
	2.784976702183834e-09,0.0
	-1.711035686716027e+02,0.0
	1.569808114589186e+00,0.0

 42	3.349654391578285e-03,0.000000000000000e+00
	1.000000000000000e+00,0.000000000000000e+00
	3.087960241638395e-12,3.036136812418376e-09
	3.087960241638395e-12,3.036136812418376e-09
	3.036138382752089e-09,0.0
	-1.703535687563481e+02,0.0
	1.569779258274055e+00,0.0

 43	3.447466065731503e-03,0.000000000000000e+00
	1.000000000000000e+00,0.000000000000000e+00
	3.464748297931135e-12,3.309949134011501e-09
	3.464748297931135e-12,3.309949134011501e-09
	3.309950947404546e-09,0.0
	-1.696035688461133e+02,0.0
	1.569749559339511e+00,0.0

 44	3.548133892335764e-03,0.000000000000000e+00
	1.000000000000000e+00,0.000000000000000e+00
	3.887511435492575e-12,3.608455059837456e-09
	3.887511435492575e-12,3.608455059837456e-09
	3.608457153911031e-09,0.0
	-1.688535689412052e+02,0.0
	1.569718993180644e+00,0.0

 45	3.651741272548387e-03,0.000000000000000e+00
	1.000000000000000e+00,0.000000000000000e+00
	4.361859459865159e-12,3.933881566815940e-09
	4.361859459865159e-12,3.933881566815940e-09
	3.933883985014325e-09,0.0
	-1.681035690419231e+02,0.0
	1.569687534474065e+00,0.0

 46	3.758374042884452e-03,0.000000000000000e+00
	1.000000000000000e+00,0.000000000000000e+00
	4.894086675849066e-12,4.288656470137595e-09
	4.894086675849066e-12,4.288656470137595e-09
	4.288659262629458e-09,0.0
	-1.673535691486073e+02,0.0
	1.569655157156933e+00,0.0

 47	3.868120546330533e-03,0.000000000000000e+00
	1.000000000000000e+00,0.000000000000000e+00
	5.491255408954143e-12,4.675426535692167e-09
	5.491255408954143e-12,4.675426535692167e-09
	4.675429760411381e-09,0.0
	-1.666035692616177e+02,0.0
	1.569621834405359e+00,0.0

 48	3.981071705534985e-03,0.000000000000000e+00
	1.000000000000000e+00,0.000000000000000e+00
	6.161289717989758e-12,5.097077225942061e-09
	6.161289717989758e-12,5.097077225942061e-09
	5.097080949789614e-09,0.0
	-1.658535693813246e+02,0.0
	1.569587538612184e+00,0.0

 49	4.097321098135428e-03,0.000000000000000e+00
	1.000000000000000e+00,0.000000000000000e+00
	6.913080542279507e-12,5.556754226541671e-09
	6.913080542279507e-12,5.556754226541671e-09
	5.556758526773618e-09,0.0
	-1.651035695081230e+02,0.0
	1.569552241364109e+00,0.0

 50	4.216965034285836e-03,0.000000000000000e+00
	1.000000000000000e+00,0.000000000000000e+00
	7.756603678757356e-12,6.057886914312768e-09
	7.756603678757356e-12,6.057886914312768e-09
	6.057891880143001e-09,0.0
	-1.643535696424347e+02,0.0
	1.569515913418154e+00,0.0

 51	4.340102636447452e-03,0.000000000000000e+00
	1.000000000000000e+00,0.000000000000000e+00
	8.703052154421381e-12,6.604213941653526e-09
	8.703052154421381e-12,6.604213941653526e-09
	6.604219676104635e-09,0.0
	-1.636035697847042e+02,0.0
	1.569478524677431e+00,0.0

 52	4.466835921509646e-03,0.000000000000000e+00
	1.000000000000000e+00,0.000000000000000e+00
	9.764984750620787e-12,7.199811128235284e-09
	9.764984750620787e-12,7.199811128235284e-09
	7.199817750275893e-09,0.0
	-1.628535699354059e+02,0.0
	1.569440044166210e+00,0.0

 53	4.597269885308737e-03,0.000000000000000e+00
	1.000000000000000e+00,0.000000000000000e+00
	1.095649265002221e-11,7.849121868085960e-09
	1.095649265002221e-11,7.849121868085960e-09
	7.849129515098883e-09,0.0
	-1.621035700950350e+02,0.0
	1.569400440004257e+00,0.0

 54	4.731512589614821e-03,0.000000000000000e+00
	1.000000000000000e+00,0.000000000000000e+00
	1.229338641749769e-11,8.556990278872618e-09
	1.229338641749769e-11,8.556990278872618e-09
	8.556999109505043e-09,0.0
	-1.613535702641222e+02,0.0
	1.569359679380422e+00,0.0

 55	4.869675251658647e-03,0.000000000000000e+00
	1.000000000000000e+00,0.000000000000000e+00
	1.379340579608589e-11,9.328697340715585e-09
	1.379340579608589e-11,9.328697340715585e-09
	9.328707538170413e-09,0.0
	-1.606035704432321e+02,0.0
	1.569317728525455e+00,0.0

 56	5.011872336272740e-03,0.000000000000000e+00
	1.000000000000000e+00,0.000000000000000e+00
	1.547645510188303e-11,1.017000029413657e-08
	1.547645510188303e-11,1.017000029413657e-08
	1.017001206997320e-08,0.0
	-1.598535706329519e+02,0.0
	1.569274552684031e+00,0.0

 57	5.158221650723075e-03,0.000000000000000e+00
	1.000000000000000e+00,0.000000000000000e+00
	1.736486734129667e-11,1.108717559101085e-08
	1.736486734129667e-11,1.108717559101085e-08
	1.108718918953423e-08,0.0
	-1.591035708339141e+02,0.0
	1.569230116085958e+00,0.0

 58	5.308844442309902e-03,0.000000000000000e+00
	1.000000000000000e+00,0.000000000000000e+00
	1.948370055544050e-11,1.208706571901359e-08
	1.948370055544050e-11,1.208706571901359e-08
	1.208708142234265e-08,0.0
	-1.583535710467860e+02,0.0
	1.569184381916536e+00,0.0

 59	5.463865498818562e-03,0.000000000000000e+00
	1.000000000000000e+00,0.000000000000000e+00
	2.186107032386665e-11,1.317713024883745e-08
	2.186107032386665e-11,1.317713024883745e-08
	1.317714838275803e-08,0.0
	-1.576035712722700e+02,0.0
	1.569137312286066e+00,0.0

 60	5.623413251903512e-03,0.000000000000000e+00
	1.000000000000000e+00,0.000000000000000e+00
	2.452852283972624e-11,1.436550148500013e-08
	2.452852283972624e-11,1.436550148500013e-08
	1.436552242572381e-08,0.0
	-1.568535715111108e+02,0.0
	1.569088868198453e+00,0.0

 61	5.787619883491228e-03,0.000000000000000e+00
	1.000000000000000e+00,0.000000000000000e+00
	2.752145350675421e-11,1.566104513539195e-08
	2.752145350675421e-11,1.566104513539195e-08
	1.566106931736103e-08,0.0
	-1.561035717641124e+02,0.0
	1.569039009518906e+00,0.0

 62	5.956621435290127e-03,0.000000000000000e+00
	1.000000000000000e+00,0.000000000000000e+00
	3.087957661281889e-11,1.707342645228556e-08
	3.087957661281889e-11,1.707342645228556e-08
	1.707345437718612e-08,0.0
	-1.553535720320992e+02,0.0
	1.568987694940679e+00,0.0

 63	6.130557921498231e-03,0.000000000000000e+00
	1.000000000000000e+00,0.000000000000000e+00
	3.464745231170297e-11,1.861318233797328e-08
	3.464745231170297e-11,1.861318233797328e-08
	1.861321458514332e-08,0.0
	-1.546035723159681e+02,0.0
	1.568934881950859e+00,0.0

 64	6.309573444801957e-03,0.000000000000000e+00
	1.000000000000000e+00,0.000000000000000e+00
	3.887507790645053e-11,2.029179995325411e-08
	3.887507790645053e-11,2.029179995325411e-08
	2.029183719170262e-08,0.0
	-1.538535726166539e+02,0.0
	1.568880526795140e+00,0.0

 65	6.493816315762139e-03,0.000000000000000e+00
	1.000000000000000e+00,0.000000000000000e+00
	4.361855127954740e-11,2.212180241492287e-08
	4.361855127954740e-11,2.212180241492287e-08
	2.212184541720927e-08,0.0
	-1.531035729351578e+02,0.0
	1.568824584441577e+00,0.0

 66	6.683439175686173e-03,0.000000000000000e+00
	1.000000000000000e+00,0.000000000000000e+00
	4.894081527360406e-11,2.411684222176968e-08
	4.894081527360406e-11,2.411684222176968e-08
	2.411689188003156e-08,0.0
	-1.523535732725361e+02,0.0
	1.568767008543280e+00,0.0

 67	6.878599123088104e-03,0.000000000000000e+00
	1.000000000000000e+00,0.000000000000000e+00
	5.491249289966846e-11,2.629180310594612e-08
	5.491249289966846e-11,2.629180310594612e-08
	2.629186045040773e-08,0.0
	-1.516035736299015e+02,0.0
	1.568707751400014e+00,0.0

 68	7.079457843841408e-03,0.000000000000000e+00
	1.000000000000000e+00,0.000000000000000e+00
	6.161282445558204e-11,2.866291106945987e-08
	6.161282445558204e-11,2.866291106945987e-08
	2.866297728980544e-08,0.0
	-1.508535740084478e+02,0.0
	1.568646763918685e+00,0.0

 69	7.286181745132307e-03,0.000000000000000e+00
	1.000000000000000e+00,0.000000000000000e+00
	6.913071898982452e-11,3.124785543437032e-08
	6.913071898982452e-11,3.124785543437032e-08
	3.124793190442553e-08,0.0
	-1.501035744094171e+02,0.0
	1.568583995572669e+00,0.0

 70	7.498942093324590e-03,0.000000000000000e+00
	1.000000000000000e+00,0.000000000000000e+00
	7.756593406175636e-11,3.406592080926609e-08
	7.756593406175636e-11,3.406592080926609e-08
	3.406600911549980e-08,0.0
	-1.493535748341529e+02,0.0
	1.568519394359952e+00,0.0

 71	7.717915155850157e-03,0.000000000000000e+00
	1.000000000000000e+00,0.000000000000000e+00
	8.703039945437428e-11,3.713813095710626e-08
	8.703039945437428e-11,3.713813095710626e-08
	3.713823293154379e-08,0.0
	-1.486035752840502e+02,0.0
	1.568452906760047e+00,0.0

 72	7.943282347242850e-03,0.000000000000000e+00
	1.000000000000000e+00,0.000000000000000e+00
	9.764970240224370e-11,4.048740563696716e-08
	9.764970240224370e-11,4.048740563696716e-08
	4.048752339519793e-08,0.0
	-1.478535757606036e+02,0.0
	1.568384477689660e+00,0.0

 73	8.175230379436536e-03,0.000000000000000e+00
	1.000000000000000e+00,0.000000000000000e+00
	1.095647540438324e-10,4.413873159025173e-08
	1.095647540438324e-10,4.413873159025173e-08
