Title: * sky130 bjt 3-stage high-frequency ch/riso sweep ac: ch=15p, riso=330k
Date: Fri May 22 22:49:31  2026
Command: ngspice-46, Build Mar 29 2026   15:02:07
Plotname: AC Analysis
Flags: complex
No. Variables: 9
No. Points: 721
Variables:
	0	frequency	frequency grid=3
	1	v(vin)	voltage
	2	v(b3_collector)	voltage
	3	v(vout_drv)	voltage
	4	v(vout_final)	voltage
	5	gain	notype
	6	gain_vv	notype
	7	gain_db	decibel
	8	phase_deg	phase
Values:
 0	1.000000000000000e-03,0.000000000000000e+00
	1.000000000000000e+00,0.000000000000000e+00
	4.860830177670129e-13,7.904423276782344e-10
	-2.483247083918809e-13,2.307990052319943e-16
	-2.483247083870953e-13,2.308041541235195e-16
	-2.483247083870953e-13,2.308041541235195e-16
	2.483248156469536e-13,0.0
	-2.520995975654114e+02,0.0
	3.140663208875406e+00,0.0

 1	1.029200527194428e-03,0.000000000000000e+00
	1.000000000000000e+00,0.000000000000000e+00
	5.453941116389337e-13,8.617279548034821e-10
	-2.786248964602989e-13,2.665225289152463e-16
	-2.786248964546112e-13,2.665284747622283e-16
	-2.786248964546112e-13,2.665284747622283e-16
	2.786250239331900e-13,0.0
	-2.510995976241380e+02,0.0
	3.140636068600951e+00,0.0

 2	1.059253725177289e-03,0.000000000000000e+00
	1.000000000000000e+00,0.000000000000000e+00
	6.119422526376847e-13,9.394424380202523e-10
	-3.126222649427068e-13,3.077754095098440e-16
	-3.126222649359470e-13,3.077822756665873e-16
	-3.126222649359470e-13,3.077822756665873e-16
	3.126224164445196e-13,0.0
	-2.500995976863420e+02,0.0
	3.140608135816283e+00,0.0

 3	1.090184492385128e-03,0.000000000000000e+00
	1.000000000000000e+00,0.000000000000000e+00
	6.866104939027068e-13,1.024165560140638e-09
	-3.507679377579302e-13,3.554134916325450e-16
	-3.507679377498960e-13,3.554214205463683e-16
	-3.507679377498960e-13,3.554214205463683e-16
	3.507681178181693e-13,0.0
	-2.490995977522363e+02,0.0
	3.140579387379693e+00,0.0

 4	1.122018454301964e-03,0.000000000000000e+00
	1.000000000000000e+00,0.000000000000000e+00
	7.703896373231917e-13,1.116529391349263e-09
	-3.935680842083648e-13,4.104250891801842e-16
	-3.935680841988162e-13,4.104342453466734e-16
	-3.935680841988162e-13,4.104342453466734e-16
	3.935682982103567e-13,0.0
	-2.480995978220291e+02,0.0
	3.140549799473729e+00,0.0

 5	1.154781984689459e-03,0.000000000000000e+00
	1.000000000000000e+00,0.000000000000000e+00
	8.643913808646796e-13,1.217223004701618e-09
	-4.415906355197015e-13,4.739514891750846e-16
	-4.415906355083531e-13,4.739620625507644e-16
	-4.415906355083531e-13,4.739620625507644e-16
	4.415908898615413e-13,0.0
	-2.470995978959609e+02,0.0
	3.140519347585453e+00,0.0

 6	1.188502227437019e-03,0.000000000000000e+00
	1.000000000000000e+00,0.000000000000000e+00
	9.698630701177514e-13,1.326997616894440e-09
	-4.954728209232028e-13,5.473106292372477e-16
	-4.954728209097151e-13,5.473228391804735e-16
	-4.954728209097151e-13,5.473228391804735e-16
	4.954731232090404e-13,0.0
	-2.460995979742738e+02,0.0
	3.140488006486138e+00,0.0

 7	1.223207119049932e-03,0.000000000000000e+00
	1.000000000000000e+00,0.000000000000000e+00
	1.088204249801705e-12,1.446672192646690e-09
	-5.559296232745197e-13,6.320244398973009e-16
	-5.559296232584897e-13,6.320385397191277e-16
	-5.559296232584897e-13,6.320385397191277e-16
	5.559299825419043e-13,0.0
	-2.450995980572262e+02,0.0
	3.140455750210367e+00,0.0

 8	1.258925411794168e-03,0.000000000000000e+00
	1.000000000000000e+00,0.000000000000000e+00
	1.220985234858003e-12,1.577139554509698e-09
	-6.237632664118638e-13,7.298504190044048e-16
	-6.237632663928119e-13,7.298667012238494e-16
	-6.237632663928119e-13,7.298667012238494e-16
	6.237636934019417e-13,0.0
	-2.440995981450905e+02,0.0
	3.140422552034521e+00,0.0

 9	1.295686697517020e-03,0.000000000000000e+00
	1.000000000000000e+00,0.000000000000000e+00
	1.369967947554582e-12,1.719373043682778e-09
	-6.998738601422433e-13,8.428180932774515e-16
	-6.998738601196001e-13,8.428368956901727e-16
	-6.998738601196001e-13,8.428368956901727e-16
	6.998743676208911e-13,0.0
	-2.430995982381658e+02,0.0
	3.140388384454637e+00,0.0

 10	1.333521432163325e-03,0.000000000000000e+00
	1.000000000000000e+00,0.000000000000000e+00
	1.537129297106646e-12,1.874433781536007e-09
	-7.852713441109243e-13,9.732711234460682e-16
	-7.852713440840129e-13,9.732928361323680e-16
	-7.852713440840129e-13,9.732928361323680e-16
	7.852719472504140e-13,0.0
	-2.420995983367541e+02,0.0
	3.140353219163623e+00,0.0

 11	1.372460961007563e-03,0.000000000000000e+00
	1.000000000000000e+00,0.000000000000000e+00
	1.724687412030999e-12,2.043478585998261e-09
	-8.810888890346586e-13,1.123915926497169e-15
	-8.810888890026743e-13,1.123940999914704e-15
	-8.810888890026743e-13,1.123940999914704e-15
	8.810896058672682e-13,0.0
	-2.410995984411845e+02,0.0
	3.140317027027810e+00,0.0

 12	1.412537544622755e-03,0.000000000000000e+00
	1.000000000000000e+00,0.000000000000000e+00
	1.935131073333143e-12,2.227768601883412e-09
	-9.885979331287916e-13,1.297877823763762e-15
	-9.885979330907782e-13,1.297906778092862e-15
	-9.885979330907782e-13,1.297906778092862e-15
	9.885987850859232e-13,0.0
	-2.400995985518080e+02,0.0
	3.140279778062807e+00,0.0

 13	1.453784385607663e-03,0.000000000000000e+00
	1.000000000000000e+00,0.000000000000000e+00
	2.171252739088292e-12,2.428678709538892e-09
	-1.109225053250590e-12,1.498765879719753e-15
	-1.109225053205411e-12,1.498799315655219e-15
	-1.109225053205411e-12,1.498799315655219e-15
	1.109226065803511e-12,0.0
	-2.390995986689801e+02,0.0
	3.140241441408670e+00,0.0

 14	1.496235656094435e-03,0.000000000000000e+00
	1.000000000000000e+00,0.000000000000000e+00
	2.436185598612219e-12,2.647707781992524e-09
	-1.244570894619443e-12,1.730747776631220e-15
	-1.244570894565747e-12,1.730786387844496e-15
	-1.244570894565747e-12,1.730786387844496e-15
	1.244572098040811e-12,0.0
	-2.380995987930914e+02,0.0
	3.140201985304326e+00,0.0

 15	1.539926526059493e-03,0.000000000000000e+00
	1.000000000000000e+00,0.000000000000000e+00
	2.733445147927400e-12,2.886489867137994e-09
	-1.396431410305106e-12,1.998636278444287e-15
	-1.396431410241289e-12,1.998680865974555e-15
	-1.396431410241289e-12,1.998680865974555e-15
	1.396432840574039e-12,0.0
	-2.370995989245651e+02,0.0
	3.140161377061268e+00,0.0

 16	1.584893192461115e-03,0.000000000000000e+00
	1.000000000000000e+00,0.000000000000000e+00
	3.066975838209254e-12,3.146806378385495e-09
	-1.566821692318577e-12,2.307989077715494e-15
	-1.566821692242730e-12,2.308040566588240e-15
	-1.566821692242730e-12,2.308040566588240e-15
	1.566823392196335e-12,0.0
	-2.360995990638269e+02,0.0
	3.140119583036468e+00,0.0

 17	1.631172909227840e-03,0.000000000000000e+00
	1.000000000000000e+00,0.000000000000000e+00
	3.441203416175390e-12,3.430599384696061e-09
	-1.758002710512730e-12,2.665224097011621e-15
	-1.758002710422586e-12,2.665283555429447e-15
	-1.758002710422586e-12,2.665283555429447e-15
	1.758004730821162e-12,0.0
	-2.350995992113341e+02,0.0
	3.140076568604506e+00,0.0

 18	1.678804018122562e-03,0.000000000000000e+00
	1.000000000000000e+00,0.000000000000000e+00
	3.861093650960456e-12,3.739986099166460e-09
	-1.972511314105821e-12,3.077752636861588e-15
	-1.972511313998685e-12,3.077821298365422e-15
	-1.972511313998685e-12,3.077821298365422e-15
	1.972513715246808e-12,0.0
	-2.340995993675896e+02,0.0
	3.140032298128886e+00,0.0

 19	1.727825980507865e-03,0.000000000000000e+00
	1.000000000000000e+00,0.000000000000000e+00
	4.332218226772839e-12,4.077274674275254e-09
	-2.213193893936194e-12,3.554133132600730e-15
	-2.213193893808862e-12,3.554212421661167e-15
	-2.213193893808862e-12,3.554212421661167e-15
	2.213196747697495e-12,0.0
	-2.330995995331020e+02,0.0
	3.139986734932510e+00,0.0

 20	1.778279410038925e-03,0.000000000000000e+00
	1.000000000000000e+00,0.000000000000000e+00
	4.860828675623361e-12,4.444981421577929e-09
	-2.483244152094594e-12,4.104248709937790e-15
	-2.483244151943260e-12,4.104340271507523e-15
	-2.483244151943260e-12,4.104340271507523e-15
	2.483247543796121e-12,0.0
	-2.320995997084168e+02,0.0
	3.139939841267292e+00,0.0

 21	1.830206106311058e-03,0.000000000000000e+00
	1.000000000000000e+00,0.000000000000000e+00
	5.453939331202790e-12,4.845849584348948e-09
	-2.786245480123356e-12,4.739512222878636e-15
	-2.786245479943495e-12,4.739617956519035e-15
	-2.786245479943495e-12,4.739617956519035e-15
	2.786249511168002e-12,0.0
	-2.310995998941250e+02,0.0
	3.139891578282888e+00,0.0

 22	1.883649089489803e-03,0.000000000000000e+00
	1.000000000000000e+00,0.000000000000000e+00
	6.119420404678554e-12,5.282869803233367e-09
	-3.126218508115336e-12,5.473103027790530e-15
	-3.126218507901570e-12,5.473225127080405e-15
	-3.126218507901570e-12,5.473225127080405e-15
	3.126223299020659e-12,0.0
	-2.300996000908347e+02,0.0
	3.139841905994505e+00,0.0

 23	1.938652635952210e-03,0.000000000000000e+00
	1.000000000000000e+00,0.000000000000000e+00
	6.866102417382435e-12,5.759302427535768e-09
	-3.507674455620790e-12,6.320240405709778e-15
	-3.507674455366730e-12,6.320381403753883e-15
	-3.507674455366730e-12,6.320381403753883e-15
	3.507680149622165e-12,0.0
	-2.290996002992055e+02,0.0
	3.139790783249780e+00,0.0

 24	1.995262314968882e-03,0.000000000000000e+00
	1.000000000000000e+00,0.000000000000000e+00
	7.703893376250982e-12,6.278701838666391e-09
	-3.935674992324955e-12,7.298499305455101e-15
	-3.935674992023005e-12,7.298662127436510e-15
	-3.935674992023005e-12,7.298662127436510e-15
	3.935681759657928e-12,0.0
	-2.280996005199165e+02,0.0
	3.139738167694682e+00,0.0

 25	2.053525026457149e-03,0.000000000000000e+00
	1.000000000000000e+00,0.000000000000000e+00
	8.643910246729106e-12,6.844942967117996e-09
	-4.415899402746353e-12,8.428174957912353e-15
	-4.415899402387483e-12,8.428362981778976e-15
	-4.415899402387483e-12,8.428362981778976e-15
	4.415907445736231e-12,0.0
	-2.270996007537079e+02,0.0
	3.139684015738428e+00,0.0

 26	2.113489039836650e-03,0.000000000000000e+00
	1.000000000000000e+00,0.000000000000000e+00
	9.698626467831960e-12,7.462250200892193e-09
	-4.954719946230221e-12,9.732703925967039e-15
	-4.954719945803704e-12,9.732921052511284e-15
	-4.954719945803704e-12,9.732921052511284e-15
	4.954729505341060e-12,0.0
	-2.260996010013515e+02,0.0
	3.139628282517364e+00,0.0

 27	2.175204034019526e-03,0.000000000000000e+00
	1.000000000000000e+00,0.000000000000000e+00
	1.088203746667790e-11,8.135228900959622e-09
	-5.559286412150293e-12,1.123915032517121e-14
	-5.559286411643376e-12,1.123940105895667e-14
	-5.559286411643376e-12,1.123940105895667e-14
	5.559297773174131e-12,0.0
	-2.250996012636688e+02,0.0
	3.139570921857802e+00,0.0

 28	2.238721138568343e-03,0.000000000000000e+00
	1.000000000000000e+00,0.000000000000000e+00
	1.220984636881907e-11,8.868899758914423e-09
	-6.237620992319437e-12,1.297876730242214e-14
	-6.237620991716963e-12,1.297905684523621e-14
	-6.237620991716963e-12,1.297905684523621e-14
	6.237634494920707e-12,0.0
	-2.240996015415284e+02,0.0
	3.139511886237766e+00,0.0

 29	2.304092976055850e-03,0.000000000000000e+00
	1.000000000000000e+00,0.000000000000000e+00
	1.369967236859070e-11,9.668736253115981e-09
	-6.998724729465660e-12,1.498764542116346e-14
	-6.998724728749620e-12,1.498797977993473e-14
	-6.998724728749620e-12,1.498797977993473e-14
	6.998740777336258e-12,0.0
	-2.230996018358534e+02,0.0
	3.139451126747618e+00,0.0

 30	2.371373705661660e-03,0.000000000000000e+00
	1.000000000000000e+00,0.000000000000000e+00
	1.537128452443071e-11,1.054070548276650e-08
	-7.852696954257145e-12,1.730746140463829e-14
	-7.852696953406131e-12,1.730784751605745e-14
	-7.852696953406131e-12,1.730784751605745e-14
	7.852716027185727e-12,0.0
	-2.220996021476201e+02,0.0
	3.139388593049543e+00,0.0

 31	2.440619068041985e-03,0.000000000000000e+00
	1.000000000000000e+00,0.000000000000000e+00
	1.724686408146850e-11,1.149131268454829e-08
	-8.810869295689538e-12,1.998634277074248e-14
	-8.810869294678107e-12,1.998678864517229e-14
	-8.810869294678107e-12,1.998678864517229e-14
	8.810891963905914e-12,0.0
	-2.210996024778568e+02,0.0
	3.139324233335843e+00,0.0

 32	2.511886431509585e-03,0.000000000000000e+00
	1.000000000000000e+00,0.000000000000000e+00
	1.935129880215931e-11,1.252764976389703e-08
	-9.885956043001903e-12,2.307986629625875e-14
	-9.885956041799812e-12,2.308038118391848e-14
	-9.885956041799812e-12,2.308038118391848e-14
	9.885982984225382e-12,0.0
	-2.200996028276634e+02,0.0
	3.139257994286022e+00,0.0

 33	2.585234839562196e-03,0.000000000000000e+00
	1.000000000000000e+00,0.000000000000000e+00
	2.171251321064751e-11,1.365744820302624e-08
	-1.109222285432409e-11,2.665221102488489e-14
	-1.109222285289540e-11,2.665280560775712e-14
	-1.109222285289540e-11,2.665280560775712e-14
	1.109225487402547e-11,0.0
	-2.190996031981996e+02,0.0
	3.139189821022601e+00,0.0

 34	2.660725059798815e-03,0.000000000000000e+00
	1.000000000000000e+00,0.000000000000000e+00
	2.436183913287087e-11,1.488913674035648e-08
	-1.244567605061227e-11,3.077748973941772e-14
	-1.244567604891427e-11,3.077817635285849e-14
	-1.244567604891427e-11,3.077817635285849e-14
	1.244571410609524e-11,0.0
	-2.180996035906873e+02,0.0
	3.139119657065669e+00,0.0

 35	2.738419634264367e-03,0.000000000000000e+00
	1.000000000000000e+00,0.000000000000000e+00
	2.733443144915482e-11,1.623190425162155e-08
	-1.396427500658547e-11,3.554128652091220e-14
	-1.396427500456740e-11,3.554207940956243e-14
	-1.396427500456740e-11,3.554207940956243e-14
	1.396432023560741e-11,0.0
	-2.170996040064346e+02,0.0
	3.139047444286078e+00,0.0

 36	2.818382931264460e-03,0.000000000000000e+00
	1.000000000000000e+00,0.000000000000000e+00
	3.066973457627818e-11,1.769576830187520e-08
	-1.566817045696557e-11,4.104243229347557e-14
	-1.566817045456709e-11,4.104334790678258e-14
	-1.566817045456709e-11,4.104334790678258e-14
	1.566822421175343e-11,0.0
	-2.160996044468100e+02,0.0
	3.138973122857297e+00,0.0

 37	2.900681198693160e-03,0.000000000000000e+00
	1.000000000000000e+00,0.000000000000000e+00
	3.441200586846420e-11,1.929164987960113e-08
	-1.757997187991623e-11,4.739505518983163e-14
	-1.757997187706562e-11,4.739611252331178e-14
	-1.757997187706562e-11,4.739611252331178e-14
	1.758003576759446e-11,0.0
	-2.150996049132846e+02,0.0
	3.138896631205843e+00,0.0

 38	2.985382618917966e-03,0.000000000000000e+00
	1.000000000000000e+00,0.000000000000000e+00
	3.861090288296644e-11,2.103145487070615e-08
	-1.972504750577959e-11,5.473094827535580e-14
	-1.972504750239165e-11,5.473216926467810e-14
	-1.972504750239165e-11,5.473216926467810e-14
	1.972512343641883e-11,0.0
	-2.140996054074022e+02,0.0
	3.138817905960269e+00,0.0

 39	3.072557365267454e-03,0.000000000000000e+00
	1.000000000000000e+00,0.000000000000000e+00
	4.332214230241502e-11,2.292816287998995e-08
	-2.213186093170471e-11,6.320230375106067e-14
	-2.213186092767813e-11,6.320371372712697e-14
	-2.213186092767813e-11,6.320371372712697e-14
	2.213195117542768e-11,0.0
	-2.130996059307931e+02,0.0
	3.138736881898669e+00,0.0

 40	3.162277660168387e-03,0.000000000000000e+00
	1.000000000000000e+00,0.000000000000000e+00
	4.860823925734674e-11,2.499592406274552e-08
	-2.483234880867553e-11,7.298487035949114e-14
	-2.483234880388993e-11,7.298649857395399e-14
	-2.483234880388993e-11,7.298649857395399e-14
	2.483245606352758e-11,0.0
	-2.120996064851983e+02,0.0
	3.138653491894642e+00,0.0

 41	3.254617834980467e-03,0.000000000000000e+00
	1.000000000000000e+00,0.000000000000000e+00
	5.453933685947503e-11,2.725016468897476e-08
	-2.786234461250013e-11,8.428159949761960e-14
	-2.786234460681244e-11,8.428347972974017e-14
	-2.786234460681244e-11,8.428347972974017e-14
	2.786247208511344e-11,0.0
	-2.110996070724592e+02,0.0
	3.138567666861682e+00,0.0

 42	3.349654391578285e-03,0.000000000000000e+00
	1.000000000000000e+00,0.000000000000000e+00
	6.119413695280453e-11,2.970770222766359e-08
	-3.126205412162048e-11,9.732685567894257e-14
	-3.126205411486065e-11,9.732902693637832e-14
	-3.126205411486065e-11,9.732902693637832e-14
	3.126220562308360e-11,0.0
	-2.100996076945114e+02,0.0
	3.138479335695945e+00,0.0

 43	3.447466065731503e-03,0.000000000000000e+00
	1.000000000000000e+00,0.000000000000000e+00
	6.866094443255853e-11,3.238687080949958e-08
	-3.507658891056848e-11,1.123912786945293e-13
	-3.507658890253439e-11,1.123937860225900e-13
	-3.507658890253439e-11,1.123937860225900e-13
	3.507676897036749e-11,0.0
	-2.090996083534208e+02,0.0
	3.138388425217341e+00,0.0

 44	3.548133892335764e-03,0.000000000000000e+00
	1.000000000000000e+00,0.000000000000000e+00
	7.703883898977235e-11,3.530765800422281e-08
	-3.935656493806452e-11,1.297873983442163e-13
	-3.935656492851600e-11,1.297902937603771e-13
	-3.935656492851600e-11,1.297902937603771e-13
	3.935677893950228e-11,0.0
	-2.080996090513804e+02,0.0
	3.138294860108913e+00,0.0

 45	3.651741272548387e-03,0.000000000000000e+00
	1.000000000000000e+00,0.000000000000000e+00
	8.643898982975439e-11,3.849185393296318e-08
	-4.415877417222861e-11,1.498761182212437e-13
	-4.415877416088017e-11,1.498794617943024e-13
	-4.415877416088017e-11,1.498794617943024e-13
	4.415902851337069e-11,0.0
	-2.070996097906873e+02,0.0
	3.138198562854437e+00,0.0

 46	3.758374042884452e-03,0.000000000000000e+00
	1.000000000000000e+00,0.000000000000000e+00
	9.698613080834352e-11,4.196321382746966e-08
	-4.954693816390778e-11,1.730742030606184e-13
	-4.954693815042015e-11,1.730780641568852e-13
	-4.954693815042015e-11,1.730780641568852e-13
	4.954724044886710e-11,0.0
	-2.060996105738075e+02,0.0
	3.138099453674211e+00,0.0

 47	3.868120546330533e-03,0.000000000000000e+00
	1.000000000000000e+00,0.000000000000000e+00
	1.088202155620144e-10,4.574763524971581e-08
	-5.559255356784270e-11,1.998629249867489e-13
	-5.559255355181261e-11,1.998673837091213e-13
	-5.559255355181261e-11,1.998673837091213e-13
	5.559291283412144e-11,0.0
	-2.050996114033288e+02,0.0
	3.137997450458956e+00,0.0

 48	3.981071705534985e-03,0.000000000000000e+00
	1.000000000000000e+00,0.000000000000000e+00
	1.220982745918148e-10,4.987335129309469e-08
	-6.237584082954998e-11,2.307980480312082e-13
	-6.237584081049820e-11,2.308031968809859e-13
	-6.237584081049820e-11,2.308031968809859e-13
	6.237626781823599e-11,0.0
	-2.040996122820025e+02,0.0
	3.137892468701800e+00,0.0

 49	4.097321098135428e-03,0.000000000000000e+00
	1.000000000000000e+00,0.000000000000000e+00
	1.369964989444689e-10,5.437114120701080e-08
	-6.998680862614663e-11,2.665213580606727e-13
	-6.998680860350356e-11,2.665273038565890e-13
	-6.998680860350356e-11,2.665273038565890e-13
	6.998731610304213e-11,0.0
	-2.030996132127401e+02,0.0
	3.137784421428270e+00,0.0

 50	4.216965034285836e-03,0.000000000000000e+00
	1.000000000000000e+00,0.000000000000000e+00
	1.537125781387128e-10,5.927456001582903e-08
	-7.852644818423970e-11,3.077739773124628e-13
	-7.852644815732836e-11,3.077808434067421e-13
	-7.852644815732836e-11,3.077808434067421e-13
	7.852705132152325e-11,0.0
	-2.020996141986255e+02,0.0
	3.137673219124238e+00,0.0

 51	4.340102636447452e-03,0.000000000000000e+00
	1.000000000000000e+00,0.000000000000000e+00
	1.724683233590990e-10,6.462018884511741e-08
	-8.810807332151341e-11,3.554117397589931e-13
	-8.810807328952923e-11,3.554196685964100e-13
	-8.810807328952923e-11,3.554196685964100e-13
	8.810879015134573e-11,0.0
	-2.010996152429301e+02,0.0
	3.137558769661767e+00,0.0

 52	4.466835921509646e-03,0.000000000000000e+00
	1.000000000000000e+00,0.000000000000000e+00
	1.935126107249340e-10,7.044790782265888e-08
	-9.885882399218566e-11,4.104229462761384e-13
	-9.885882395417240e-11,4.104321023491668e-13
	-9.885882395417240e-11,4.104321023491668e-13
	9.885967594582074e-11,0.0
	-2.000996163491157e+02,0.0
	3.137440978222791e+00,0.0

 53	4.597269885308737e-03,0.000000000000000e+00
	1.000000000000000e+00,0.000000000000000e+00
	2.171246836887702e-10,7.680119358989668e-08
	-1.109213532855709e-10,4.739488679603346e-13
	-1.109213532403921e-10,4.739594412216926e-13
	-1.109213532403921e-10,4.739594412216926e-13
	1.109223658340903e-10,0.0
	-1.990996175208426e+02,0.0
	3.137319747220569e+00,0.0

 54	4.731512589614821e-03,0.000000000000000e+00
	1.000000000000000e+00,0.000000000000000e+00
	2.436178583831481e-10,8.372744364290006e-08
